Index	Frequency (Hz)	Z' (Ω)	-Z'' (Ω)	Z (Ω)	-Phase (°)	Time (s)
1	1000000	3352.14627228442	6256.69654722771	7098.10793908359	61.8189583136199	42.3915948929715
2	794330	4736.05225249068	6574.56831839036	8102.78591050661	54.232552407375	46.8566728816983
3	630960	6161.89209763486	7181.95873802571	9463.05688124079	49.371456467447	52.2467748680896
4	501190	7824.82052500904	7818.13274954239	11061.2393490996	44.9755045432599	55.9668438586973
5	398110	9688.79781755044	8962.26661003024	13198.2963271262	42.7692353107859	70.192107822782
6	316230	11270.5452827463	9332.99091556309	14633.1784107356	39.6277103908077	73.5671698142608
7	251190	12846.8173875922	9613.35489181064	16045.4762866685	36.8077417921547	88.5274487764897
8	199530	14585.9536890063	9948.78946628525	17655.8335080025	34.2971220672648	94.3325547618332
9	158490	16355.525155917	10166.0385054492	19257.5061215129	31.8636793779056	103.037715739855
10	125890	18153.1391514049	10248.2873681739	20846.195217136	29.4467392088572	106.407775731346
11	100000	19920.046038406	10198.0365642017	22378.7440205435	27.110105941838	109.682838723077
12	79433	21689.2748488743	10044.0216983902	23902.0295236146	24.8482422867197	113.032898714619
13	63096	23391.4826249579	9733.96931835398	25335.974780623	22.5938094555872	116.552966705732
14	50119	25085.6923309728	9271.10816508689	26744.0723588045	20.2831796840548	120.428035695948
15	39811	26574.7619239163	8783.01252157502	27988.5562376299	18.2888249967019	123.913101687149
16	31623	27940.4753677864	8151.01543516512	29105.1407212227	16.2634365541537	128.383185675864
17	25119	29110.0959761621	7501.92995454776	30061.2148920218	14.4511877834573	132.738263664868
18	19953	30192.172347603	6888.34999063179	30967.9937461373	12.8520628433156	136.378333655678
19	15849	31122.5349675619	6238.07357321399	31741.5460353138	11.3339455762594	140.41340664549
20	12589	31885.6269619512	5685.8145478757	32388.6043822444	10.1106573918601	144.833487634331
21	10000	32697.8377977161	5129.59930147297	33097.7549939482	8.91582772676058	152.638634614624
22	7943.3	33316.8850017171	4661.29792475447	33641.3811333744	7.96443906041581	157.633724602013
23	6309.6	33863.5861354836	4246.6802227174	34128.8259228081	7.1478916595583	161.533796592166
24	5011.9	34361.0473984044	3889.91826213557	34580.5298166684	6.45879722818011	165.388869582433
25	3981.1	34810.1533796937	3588.63722102728	34994.643810474	5.88592531743684	171.218978567714
26	3162.3	35197.3400755922	3332.23696032077	35354.7246002089	5.40824246755094	175.679058556453
27	2511.9	35601.9634687583	3121.59310231662	35738.552661338	5.01089999160431	179.564131546644
28	1995.3	35966.0695640207	2948.61973252822	36086.7360426381	4.68681960945422	182.919192538173
29	1584.9	36297.5103711658	2807.079610496	36405.8917633472	4.42218551022481	186.539260529034
30	1258.9	36646.9377928699	2695.12273467165	36745.9077469781	4.20612667992551	190.059325520146
31	1000	36988.1191353456	2604.72407236639	37079.7187781094	4.02815106834113	194.039398510098
32	794.33	37326.7921568597	2536.51473695943	37412.8763894494	3.88751605158535	199.209494497044
33	630.96	37665.9178386359	2482.63514965445	37747.6468659064	3.77102354265738	206.119622479598
34	501.19	37988.3569463657	2442.86981107232	38066.8212016494	3.6793819973984	211.859730465106
35	398.11	38333.5850359921	2416.42442331547	38409.6712912937	3.60696690700465	221.039899441928
36	316.23	38674.4276508539	2394.21011497538	38748.4657269908	3.54247760517563	224.839969432334
37	251.19	39002.0934415766	2380.74674033485	39074.6880712705	3.49308680297508	227.720022425062
38	199.53	39331.695458556	2373.51199155914	39403.2463994868	3.45338535458292	230.905082417021
39	158.49	39680.8150325955	2368.90389502625	39751.462706609	3.4164443308934	239.845247394449
40	125.89	40007.4878882469	2369.0621205677	40077.5690687363	3.38883914162262	244.270330383277
41	100	40368.5360093666	2364.62052775854	40437.731511298	3.35231730138934	248.255436373215
42	79.433	40704.18348548	2367.03684099137	40772.9495698586	3.32812608244004	251.750467364391
43	63.096	41041.0481851499	2356.48237940103	41108.6444113671	3.28618346395711	255.020529356135
44	50.119	41419.6424267857	2390.22726606877	41488.5522180064	3.30273772297706	257.810582349091
45	39.811	41751.844400412	2361.94682886077	41818.5999724833	3.23783293280972	268.480780322151
46	31.623	42103.2687398372	2358.30632604443	42169.2642490524	3.2059257997113	272.430852312178
47	25.119	42423.8206628003	2345.18460080726	42488.5920035168	3.16408462630536	275.930917303341
48	19.953	42789.5543621214	2341.04491703992	42853.5465721629	3.13156808334246	281.086010290326
49	15.849	43115.5069477239	2332.23085656934	43178.5391152545	3.09626144594989	284.531077281628
50	12.589	43456.4514321816	2327.66377306223	43518.7452681943	3.06601167197996	291.221198264737
51	10	43796.9545377453	2320.77526415583	43858.3997041393	3.03323332311332	296.061288252517
52	7.9433	44117.5186102639	2324.17587310445	44178.6966966671	3.0156383281981	299.966359242658
53	6.3096	44419.689006973	2324.26084752303	44480.4559325051	2.99527086489668	303.971436232546
54	5.0119	44733.9074671832	2347.76058779021	44795.4736224553	3.00428641281897	308.051511222245
55	3.9811	45018.9664259455	2385.98773275585	45082.1502983306	3.03381556105246	313.821618207677
56	3.1623	45322.0002817125	2440.48883733529	45387.6601655197	3.08227339539586	316.771670200228
57	2.5119	45664.7796079091	2523.39014033145	45734.4464757062	3.16289084663181	323.501796183236
58	1.9953	45901.4474731244	2593.77237703777	45974.6727587253	3.23419725160544	328.221885171319
59	1.5849	46176.7618195821	2805.31699194966	46261.8972326875	3.47654343103485	333.666986157572
60	1.2589	46470.9815428676	3017.65938617963	46568.856478644	3.71536667786067	340.102103141325
61	1	46743.1513865128	3279.70901669343	46858.0696654977	4.01355101992425	354.662375104564
62	0.79433	47043.4319274859	3631.39894687282	47183.3820939888	4.41404961974425	363.362534082598
63	0.63096	47356.4144455319	4038.43486275466	47528.2962589413	4.87424595116246	371.052679063182
64	0.50119	47665.6276541769	4550.50292941085	47882.3468156816	5.45333920703306	376.212772050154
65	0.39811	47989.706233152	5254.23216321148	48276.4835087349	6.24823571411114	383.372907032076
66	0.31623	48352.2576929843	6111.25333949584	48736.9289285677	7.20343217323635	393.433090006677
67	0.25119	48808.1395259769	7230.16968914216	49340.7523019362	8.42620422866887	400.743227988221
68	0.19953	49107.5990111006	8573.88105600643	49850.4535285046	9.90366054607008	409.64339296575
69	0.15849	49832.334681026	10128.7055935316	50851.2758616952	11.4891824725662	421.578613935616
70	0.12589	50455.7329816214	12309.5462879063	51935.5939652835	13.7104657025724	431.653798910179
71	0.1	51462.9049892577	14409.33939562	53442.114963309	15.6419635775016	442.423999882987
