Index	Frequency (Hz)	Z' (Ω)	-Z'' (Ω)	Z (Ω)	-Phase (°)	Time (s)
1	1000000	3361.03151255778	6517.4640578674	7333.06692823677	62.7200136089869	13.9070279648881
2	794330	4906.79566821801	6846.2707957129	8423.06758478609	54.3704251788361	15.5070559608484
3	630960	6539.23711338719	7517.15540956151	9963.39537891578	48.9797162810017	17.1120869567961
4	501190	8152.85262291469	8091.26905544949	11486.4111374546	44.7827853257577	18.6871159528196
5	398110	10412.768342757	9190.60186203329	13888.5890984769	41.4325284053481	24.0772149392109
6	316230	12283.4035086259	9641.79971868895	15615.5788740294	38.1299741036174	25.4322399357898
7	251190	13825.295001352	9505.74780079498	16777.9028226631	34.5109360136338	30.1823289237969
8	199530	15612.1381110189	9562.13142005578	18307.736443699	31.4866602638488	31.6623559200602
9	158490	17349.5501429784	9442.86834667079	19752.8391067279	28.5581996833485	33.2123849161468
10	125890	19027.5338552909	9187.38489000598	21129.4838018195	25.7734274448167	34.6874099124227
11	100000	20562.8491548935	8811.09895921407	22371.1025708607	23.1949401084041	36.1574379087112
12	79433	22021.9036216304	8362.83357430664	23556.3414925138	20.7943090596841	37.6524709049366
13	63096	23304.3471097612	7886.29285095264	24602.5650927545	18.6960437924441	39.1224919012252
14	50119	24518.4152144129	7302.31410897953	25582.7378513825	16.5850985156638	40.8075258969709
15	39811	25574.7931264604	6688.42475977679	26434.9213962978	14.6559809490653	42.3425548930953
16	31623	26452.2468656955	6072.1065724281	27140.2255419999	12.9282606293472	43.7925788894344
17	25119	27234.6861222576	5586.25632203106	27801.6975717909	11.5914769744798	45.2526058857482
18	19953	27956.7988632358	5124.34530741483	28422.5529731065	10.3867405368982	46.6676318821756
19	15849	28597.5098266901	4704.45069834061	28981.8809717512	9.34180700148387	48.0626608786534
20	12589	29165.774977156	4315.47456375776	29483.3130894161	8.41662488992709	49.5076868750051
21	10000	29734.0776729106	3944.80486192074	29994.6138574464	7.55726896559904	51.9277328688951
22	7943.3	30225.953929184	3659.36737170273	30446.6625509305	6.90303591632638	53.2977558654361
23	6309.6	30655.0270288787	3412.41131036371	30844.3711735607	6.35181772431406	54.7627838617373
24	5011.9	31067.7639754103	3205.85263081081	31232.7304205425	5.89144467323102	56.2678118579374
25	3981.1	31451.5688603273	3032.57362319126	31597.4316449293	5.50745806970682	57.7528368541881
26	3162.3	31819.2652366507	2891.77387026924	31950.399000906	5.19284551123953	59.1378628506912
27	2511.9	32167.2388757524	2776.64310340696	32286.8549693744	4.93348416412921	60.6178928469545
28	1995.3	32508.7285463788	2688.85232556815	32619.7387869807	4.72826875799043	62.0129158434324
29	1584.9	32859.5900986873	2619.60024138055	32963.8433268694	4.55803853083689	63.362940840024
30	1258.9	33198.4728743567	2571.6850133513	33297.9303410481	4.42951182236576	64.8679708362241
31	1000	33538.1069024508	2535.21041318686	33633.7911398544	4.32287753396802	66.3629988324495
32	794.33	33898.9420892497	2516.00587162279	33992.1838121111	4.2447543828649	68.5980378268066
33	630.96	34238.9893844117	2505.63540978084	34330.5491198816	4.18548788500802	70.013065823234
34	501.19	34585.7243393835	2503.00404233518	34676.1785281448	4.13933721467607	71.5280938194089
35	398.11	34935.5676765266	2510.54846286797	35025.6583444991	4.11033777886568	73.018119815647
36	316.23	35294.6149468412	2517.65890169598	35384.2966666157	4.08014953389235	74.4331488120744
37	251.19	35665.8039340729	2533.47912120865	35755.6720915903	4.06311468684598	76.0531758079842
38	199.53	36034.4175993028	2549.55052048132	36124.4994370501	4.04711569280903	77.5432058042222
39	158.49	36411.5715117641	2568.77707733156	36502.07056633	4.03543791700738	79.043231800435
40	125.89	36755.6735106947	2585.69957457425	36846.5110629859	4.02403193342807	80.638260796408
41	100	37145.9619709127	2607.41879843558	37237.3619303909	4.01522651888925	82.1482897925955
42	79.433	37523.8132351652	2632.61243764839	37616.0498717558	4.01320688117337	83.8783207882276
43	63.096	37920.7701777792	2655.08467706928	38013.6065839372	4.00512133616063	85.4483527842636
44	50.119	38326.5657783477	2683.2709164512	38420.3798416034	4.00478482725001	86.8783787806532
45	39.811	38695.9048891798	2691.40311892135	38789.3890895563	3.97866643566864	98.4535907514286
46	31.623	39093.0271097416	2709.05430999858	39186.7802180469	3.96412464466327	102.148658742099
47	25.119	39493.5061359978	2722.78445765216	39587.2527730446	3.94387860393597	109.923802722469
48	19.953	39872.2206887255	2738.92315795197	39966.1817380094	3.92961816335895	113.868877712509
49	15.849	40297.9077366626	2756.02089505039	40392.041532046	3.91243281290678	116.333922706285
50	12.589	40684.3927046038	2770.35457511635	40778.6055942854	3.895473522265	118.843970699948
51	10	41094.8150779544	2784.08330852357	41189.0148724155	3.87574066634486	121.674020692803
52	7.9433	41473.2406541397	2798.34741863425	41567.5406853901	3.86009968967578	124.349070686049
53	6.3096	41859.5187018163	2837.99383181453	41955.6136284184	3.87860674408108	127.3391276785
54	5.0119	42234.8320713807	2853.3783701997	42331.109225028	3.86502025331673	130.219181671228
55	3.9811	42618.0639623194	2902.76171775272	42716.8046731775	3.89645861321023	133.174233663767
56	3.1623	42969.1824945128	2978.89603564757	43072.3166992204	3.96576131793457	136.124288656319
57	2.5119	43334.0057924044	3083.59812356677	43443.5799100834	4.07024117108006	139.299346648303
58	1.9953	43618.2745788081	3257.12038969231	43739.7154822164	4.27053889939574	142.344402640615
59	1.5849	44020.0449519796	3355.70578078297	44147.7645964265	4.35930121426534	145.64946463227
60	1.2589	44345.6752531762	3662.27139505845	44496.6419567952	4.72103763502533	149.184532623345
61	1	44686.2245508832	3998.59749453626	44864.7684328725	5.11330305630224	155.104641608398
62	0.79433	45054.0585937578	4420.01956914862	45270.3519840681	5.60306144673252	158.744710599208
63	0.63096	45393.1864044397	4973.54393539339	45664.8388941152	6.25272085835439	162.91478658868
64	0.50119	45694.3476481777	5582.61778674683	46034.1072287214	6.96548079018904	167.344868577495
65	0.39811	46093.7880802338	6535.63143382535	46554.8255052504	8.07016523714983	171.944954565881
66	0.31623	46434.9653850841	7679.27016439193	47065.6690228842	9.39040571059255	177.245051552499
67	0.25119	47090.6770203411	8989.85727919997	47941.103409647	10.808018387811	183.110158537691
68	0.19953	47528.3920945966	10766.2803424261	48732.5440287025	12.763420393692	189.765281520889
69	0.15849	48101.992913547	12735.3662409636	49759.3335520724	14.8292469248219	197.600426501107
70	0.12589	48936.1657011515	15307.1794228562	51274.3411017057	17.3696260398873	206.76059747798
71	0.1	50156.0460449683	18083.9528791304	53316.5856614955	19.8269612245434	217.750804450232
