Index	Frequency (Hz)	Z' (Ω)	-Z'' (Ω)	Z (Ω)	-Phase (°)	Time (s)
1	1000000	3481.54301624423	3263.4240284355	4771.90508741836	43.1478124743951	14.3350589638075
2	794330	4077.58336277915	3048.29823316561	5091.05177725918	36.7808606813391	15.805086960096
3	630960	4724.32347960357	2959.66044594313	5574.83832009628	32.0660270590015	17.5101149557912
4	501190	5365.28643494981	2834.86266846329	6068.17475672078	27.8506816024068	19.1051449517641
5	398110	6051.61639272606	2687.88736501068	6621.69158536509	23.9488896061569	24.170239938976
6	316230	6525.3066594553	2523.95486558972	6996.42588494052	21.1462125456188	25.6652679352014
7	251190	6847.5986765445	2227.5506469492	7200.80478278212	18.0199096216504	29.7303459249381
8	199530	7229.31383928296	2040.67388556607	7511.8125971086	15.7631883219203	31.1103699214539
9	158490	7546.10125620673	1842.04348874918	7767.6745801667	13.717932227998	32.5653959177803
10	125890	7817.20768068002	1645.94141977924	7988.60808152632	11.8901563641471	34.0404229140562
11	100000	8033.42757869699	1457.32731444125	8164.54294884814	10.2820902522278	35.5054509103574
12	79433	8215.52047715662	1282.44879206646	8315.0136268591	8.87231057404711	36.9854759066207
13	63096	8363.79604810307	1126.31232567175	8439.292848884	7.66960804409111	40.2155368984655
14	50119	8489.6833908023	985.934065441927	8546.74148769361	6.62426802637951	45.2006308858794
15	39811	8591.27970701487	857.277539279086	8633.94531969701	5.69837441927773	47.4556738801859
16	31623	8671.63425050109	743.33024411118	8703.4349785745	4.89940275269428	49.2657058756161
17	25119	8744.03772940136	657.507547988865	8768.72350965959	4.30026094455803	51.4607468700741
18	19953	8809.39289694368	582.880384048328	8828.65520647568	3.78550238536604	53.7857868642039
19	15849	8867.08504825912	517.427281593981	8882.16911822772	3.33963390073239	57.1558678556953
20	12589	8918.85333672162	460.054930175453	8930.71079929975	2.95283079881926	59.3558908501408
21	10000	8960.65312553721	416.174527789595	8970.31246243856	2.65917231366906	61.6159338444347
22	7943.3	9007.69901030102	377.19260175652	9015.59292110052	2.39782941831414	65.6860088341588
23	6309.6	9047.49071427262	342.653521202707	9053.97700794749	2.16891319799372	67.8360498287304
24	5011.9	9086.82700098035	317.397849636773	9092.36857703753	2.00049662617302	69.7560838238828
25	3981.1	9119.43704188432	291.983572798017	9124.11016854113	1.83385369171771	71.501115819477
26	3162.3	9154.89328752204	274.293842900497	9159.00148587002	1.71615101661586	75.8311958085446
27	2511.9	9177.97414262236	255.941921315408	9181.54211610071	1.59736692847682	78.3412438022074
28	1995.3	9224.72907760323	242.225998976468	9227.90875495411	1.50414596284506	82.3163177921713
29	1584.9	9239.27155855386	231.193681080945	9242.1636779963	1.433409375784	97.3865977541225
30	1258.9	9265.78056690945	221.361734985793	9268.42438237658	1.36854968269554	99.0666267498808
31	1000	9294.80253418028	210.363984415414	9297.18275368099	1.29652148118907	100.656658745866
32	794.33	9316.38387841319	201.696300149276	9318.56694816596	1.24023890472501	102.481688741259
33	630.96	9346.78291118109	194.12798608713	9348.798664199	1.18983349298216	103.931715737598
34	501.19	9371.79328838514	190.267956887577	9373.72451780181	1.16307019843339	114.966921709736
35	398.11	9398.11005912878	182.475475349077	9399.88138130484	1.11232588463233	116.301944706366
36	316.23	9420.83965773085	179.794842076779	9422.55517584863	1.09334577115295	118.016976702036
37	251.19	9440.98942785132	176.411756874065	9442.63747502592	1.07048875178538	122.502062690712
38	199.53	9470.6946965161	175.515628058858	9472.32092838451	1.06171236586519	125.91712468209
39	158.49	9490.75179419584	174.289899282696	9492.352005063	1.05207190173758	130.437208670678
40	125.89	9516.41314617614	176.222833751371	9518.04463405428	1.06086932289312	138.672359649886
41	100	9538.87776770131	183.141291453079	9540.63571256033	1.09991282631603	140.087385646313
42	79.433	9565.68397263653	189.996389024554	9567.57066826254	1.13787576900437	142.45742864033
43	63.096	9579.091208227	197.215836207326	9581.12114846602	1.17944789274316	145.817493631846
44	50.119	9584.0846182594	214.068764064165	9586.47502503941	1.27953770597688	147.942531626481
45	39.811	9630.30500240782	215.590460744258	9632.71787639216	1.28244750246794	160.2927595953
46	31.623	9659.83749964186	237.808864445267	9662.76428231051	1.41024035312381	162.027791590919
47	25.119	9685.61973338687	247.877595907847	9688.79109705262	1.46601260425008	172.497986564484
48	19.953	9705.00206137442	269.153740766662	9708.73363253161	1.58860568420875	175.968051555723
49	15.849	9742.93758019852	292.234135535309	9747.31929720253	1.71804077441759	178.573097549146
50	12.589	9778.83622071307	323.129225294448	9784.17346165578	1.89257764995449	181.913160540713
51	10	9811.57131996314	356.351537648552	9818.04044527765	2.08004079727866	184.848214533303
52	7.9433	9842.98260194445	393.479421132573	9850.8442560542	2.28921591866961	187.603265526347
53	6.3096	9891.44887729939	454.632446420705	9901.89131194469	2.63158625849471	190.513320519
54	5.0119	9928.87756408482	507.975643595665	9941.86345395436	2.92878083883377	193.363373511804
55	3.9811	9978.84188637786	582.455425130025	9995.82611471371	3.3405094652725	198.793471498095
56	3.1623	10019.5364229917	667.424605784631	10041.7411705373	3.81097499039084	206.188609479424
57	2.5119	10107.7195913401	727.679794617742	10133.8794753369	4.1177610282634	209.653675470675
58	1.9953	10029.1115337049	945.319075734701	10073.5647270686	5.38464849073842	213.098737461977
59	1.5849	10254.0574605329	1132.77808244943	10316.437398055	6.30397240095808	217.693823450376
60	1.2589	10301.1949163911	1212.5045177053	10372.3085140647	6.71312425163387	221.018886441981
61	1	10405.083010984	1434.59402612362	10503.5142921432	7.85012596530419	231.479079415572
62	0.79433	10521.5153964078	1688.31976383575	10656.1113855761	9.11617183022236	236.849177402013
63	0.63096	10654.9992725122	1982.39148587673	10837.8450579676	10.5395269676047	240.859253391889
64	0.50119	10749.9189740223	2364.56292576779	11006.9030966008	12.4052871246667	245.23933238083
65	0.39811	10894.9572736707	2792.10956972924	11247.042715509	14.3741444952984	262.589655337025
66	0.31623	11053.8588350286	3353.66910065466	11551.4021478531	16.8774571736073	268.884770321131
67	0.25119	11256.6739046865	4075.56821626506	11971.7569170895	19.903191265527	274.979882305743
68	0.19953	11561.3703285445	4859.1757549278	12541.007650545	22.7967282467037	282.310018287236
69	0.15849	11814.610601569	5890.12065065745	13201.4599550962	26.4983418659654	290.270167267138
70	0.12589	12099.6041378848	7122.13361156364	14040.1284707257	30.4821451318379	299.800343243077
71	0.1	12517.709483225	8438.53327473539	15096.4199244469	33.984996450359	310.535540215973
