Index	Frequency (Hz)	Z' (Ω)	-Z'' (Ω)	Z (Ω)	-Phase (°)	Time (s)
1	1000000	3645.34943282509	3543.78556040624	5083.9933699349	44.1906127573914	24.0532349392714
2	794330	4314.90682264649	3290.41247655796	5426.34639089779	37.3280060230208	26.4132759333129
3	630960	5023.98717095767	3223.78430791738	5969.35778437862	32.687414827416	29.9283439244382
4	501190	5721.02907955738	3102.31750579588	6508.03715692441	28.4694556590083	33.2684049160054
5	398110	6492.07322750646	2936.36669999128	7125.25537704606	24.3372540440889	41.0735508962993
6	316230	7009.76328621467	2690.95345779904	7508.52927282059	21.0011215776805	43.503594890164
7	251190	7354.81790963787	2430.60676019573	7746.04387456198	18.2875929791864	59.6438948494136
8	199530	7762.72815855789	2228.139425266	8076.17197452433	16.0150913925771	72.0041218182071
9	158490	8118.45131672404	2017.16999920867	8365.29895387641	13.9535643157981	81.7342997936407
10	125890	8411.5040100944	1806.47594699987	8603.29907994156	12.1208750791151	84.9243597855866
11	100000	8644.21670664268	1602.31141309057	8791.46656343074	10.5012851037258	88.3944257768255
12	79433	8852.00759570011	1412.97373905508	8964.06901254066	9.06914952591674	90.3594627718643
13	63096	9022.99840143632	1245.03227662547	9108.49084767403	7.85630917805001	92.4444987666001
14	50119	9167.50833318035	1095.09687648233	9232.68358646675	6.81194024810433	115.30992370887
15	39811	9280.27468260942	950.973823002072	9328.87181800225	5.85082508216971	124.00008468693
16	31623	9374.03766745836	829.730661687303	9410.68728424615	5.05827835126063	126.840137679759
17	25119	9453.66601863066	731.318221666858	9481.91054235137	4.42348639481016	128.725170675
18	19953	9524.39924100127	648.957526397009	9546.48242930624	3.89789901442242	130.810210669736
19	15849	9593.33948468278	579.341953893112	9610.81680024723	3.45589612699305	132.325237665911
20	12589	9644.9925748553	514.779262262715	9658.72038408141	3.05513146125731	133.990269661707
21	10000	9696.77590691571	459.923187589658	9707.67697893907	2.71553387646699	135.690300657415
22	7943.3	9766.00530945991	420.232740596527	9775.04246848413	2.46392640061192	144.3704646355
23	6309.6	9806.23576166526	383.596019182502	9813.73556395806	2.24012897576867	146.235494630791
24	5011.9	9834.22336211191	350.722156403778	9840.47535269004	2.04249849362529	150.725577619454
25	3981.1	9870.75725505894	323.35676596029	9876.05226729745	1.87628510200646	153.475630612511
26	3162.3	9911.3699201593	303.887501606259	9916.02749632488	1.756166758728	155.495668607411
27	2511.9	9945.13194352064	283.343481989389	9949.16744772248	1.63195373555295	160.095753595797
28	1995.3	9979.45392483837	267.902189138081	9983.04924464048	1.53775738632973	163.540817587099
29	1584.9	10010.0404564471	253.209735742501	10013.2424873256	1.44902071871683	165.71085758162
30	1258.9	10044.6225304167	238.904908355353	10047.4632287852	1.3624865106803	166.985881578401
31	1000	10068.4892513169	227.008907787132	10071.0480511264	1.29159884138439	168.335904574993
32	794.33	10096.5923689809	215.429875856625	10098.8904091872	1.22232824612151	169.94093557094
33	630.96	10127.8764434107	207.826159851322	10130.0085372971	1.17555649290663	173.516001561914
34	501.19	10155.0984618015	200.277699655755	10157.073196835	1.12983439382247	175.616040556612
35	398.11	10184.0009889499	193.041904970138	10185.8304187733	1.08593489102168	177.73607955126
36	316.23	10224.3452863715	187.654273702794	10226.0672138113	1.05146985551605	179.611112546526
37	251.19	10251.9959133173	183.08840396146	10253.6306531072	1.02312543724652	185.321219532109
38	199.53	10270.0783690096	181.421747977282	10271.6806587937	1.0120292231893	193.371370511784
39	158.49	10286.7054675376	180.753249477206	10288.293401389	1.00667144416374	195.186400507202
40	125.89	10313.1793177832	182.015724582894	10314.7853765722	1.01109947939302	197.206441502102
41	100	10337.0868469682	184.942905176027	10338.7411400005	1.02498099007505	201.011508492495
42	79.433	10359.5862571089	187.467135359394	10361.2823214754	1.03671161893852	203.261551486814
43	63.096	10379.34541422	190.855532394323	10381.0999928685	1.05343678703961	204.851588482799
44	50.119	10368.5562239241	249.444916367815	10371.5563410212	1.37814602604376	207.211624476841
45	39.811	10433.5161742696	215.495673558307	10435.741379704	1.18322884822849	221.651891440383
46	31.623	10466.4132300394	222.506496978647	10468.7781065004	1.21787309996264	229.727043419995
47	25.119	10485.9962210673	236.529816393468	10488.6635517725	1.2921864694339	231.632077415185
48	19.953	10511.1350902584	257.496162686379	10514.2886188015	1.40332066813512	233.597114410224
49	15.849	10546.7876443046	279.321720718512	10550.4857820728	1.51707003915781	237.012178401602
50	12.589	10580.5468872251	309.922192429977	10585.0849877613	1.67781096908666	240.142235393699
51	10	10600.9325223295	350.966381722002	10606.7406748767	1.89620584919815	242.627281387425
52	7.9433	10641.3855026483	398.575987049598	10648.8472725185	2.14502628958438	246.207345378386
53	6.3096	10679.9338160558	443.378040664107	10689.1332858317	2.37727232688771	249.302403370572
54	5.0119	10718.1031548122	500.356571255853	10729.7759499252	2.67281632148231	252.71746636195
55	3.9811	10754.9912319793	588.966658446181	10771.1057057627	3.1345103650558	257.072547350954
56	3.1623	10825.6134031276	677.364641764194	10846.7842428937	3.58036114680829	260.277607342862
57	2.5119	10842.8661921769	770.774909233131	10870.2272847515	4.06608238030123	265.932714328584
58	1.9953	10991.1115126453	937.748675429512	11031.0427821523	4.87659849353814	272.087827313044
59	1.5849	11065.7510613563	1078.10730430416	11118.1456147823	5.56461628623798	282.668023286332
60	1.2589	11073.4599741728	1207.18511173199	11139.0669130585	6.2215916193007	287.548111274011
61	1	11195.82366605	1475.82127076564	11292.6753244981	7.50937207571173	295.468262254014
62	0.79433	11320.2843418148	1752.67162861029	11455.1602091491	8.80098374173699	299.098327244849
63	0.63096	11444.8932536474	2091.24768686688	11634.3843186999	10.3550336785683	304.6234302309
64	0.50119	11564.2867438005	2470.50015602625	11825.2314528624	12.0589342415925	310.268533216647
65	0.39811	11698.4609252866	3002.6974697975	12077.6727938617	14.3956036926082	315.958640202281
66	0.31623	11906.0409295456	3575.41469967051	12431.3072880786	16.7151475258624	322.673761185327
67	0.25119	12113.117301345	4258.90946634224	12840.0124843647	19.3714108308773	344.589167129996
68	0.19953	12347.4995887174	5158.90704068689	13381.8932871184	22.6756529355865	353.589336107273
69	0.15849	12676.5721510054	6183.10928242032	14104.1242868176	26.0012119570067	361.459480087403
70	0.12589	13177.0130959006	7515.3693183494	15169.5237275507	29.697814118719	374.85973005357
71	0.1	13517.6897810253	9018.09279259462	16249.7364480745	33.7085491117772	386.289940024712
