Index	Frequency (Hz)	Z' (Ω)	-Z'' (Ω)	Z (Ω)	-Phase (°)	Time (s)
1	1000000	2587.85698806639	1962.87942251938	3248.06087043239	37.1801751341604	12.7340289678497
2	794330	2904.52199412838	1836.75885905443	3436.55803394769	32.3084030552838	14.1990579641508
3	630960	3259.87890350697	1767.87916636053	3708.39685206174	28.4716130141178	15.6290819605404
4	501190	3613.85315140183	1664.11574127024	3978.59470168052	24.7252380256412	17.1491119567027
5	398110	3958.96946355868	1546.11799495851	4250.16706350758	21.3324085057078	21.3441899461111
6	316230	4227.28773723198	1421.24297708125	4459.80865208975	18.58299578099	22.6792129427405
7	251190	4389.91640929384	1248.27681193791	4563.94139749944	15.8731508090284	26.7342889325024
8	199530	4603.58886186373	1133.59155817085	4741.10327137387	13.8333501451961	28.0493109291823
9	158490	4780.1444875918	1014.07665809182	4886.52563594431	11.9773553265286	29.4393379256728
10	125890	4922.80236794647	896.431489843989	5003.75584634615	10.3203540759825	30.7743619223022
11	100000	5033.61153529484	785.758932071632	5094.57183555042	8.87240466169378	32.4243939181363
12	79433	5125.68993705845	686.059139638971	5171.39966294856	7.62356836294496	35.3094469108522
13	63096	5202.48863040661	599.002414634004	5236.85896719086	6.56798118421992	37.0994789063328
14	50119	5263.30326566605	522.756586844794	5289.1999126012	5.67207237142672	38.7945089020533
15	39811	5316.40432627051	454.936553283658	5335.83378938114	4.89101230602103	40.2695388983292
16	31623	5356.72291203511	396.938374949242	5371.40953845723	4.23792752823012	41.649563894845
17	25119	5393.24235594019	351.787981571722	5404.70331229065	3.73197654314998	43.0245878913734
18	19953	5424.79222744993	315.92225050704	5433.98358291287	3.3329552698875	44.4396158878008
19	15849	5458.22071956886	284.710089106364	5465.64115711687	2.98593931597018	46.2996508831046
20	12589	5483.50557464193	259.071793210105	5489.62217107573	2.70496499551169	47.6396758797214
21	10000	5510.37395472608	238.398256198518	5515.52851950582	2.47727313202971	49.0697008761109
22	7943.3	5536.00536540936	222.384827208855	5540.47023430448	2.30037077897227	50.5397298723994
23	6309.6	5557.56505419758	208.783036679706	5561.48538504268	2.15143933513229	51.8697528690415
24	5011.9	5584.22200692783	198.453937264635	5587.74725518906	2.03533987974397	53.1997788656835
25	3981.1	5604.2134431346	190.66714219982	5607.45595393536	1.94857147320416	54.5548048622624
26	3162.3	5626.14035056257	184.155862808962	5629.15345554153	1.87474667341564	55.9548288587276
27	2511.9	5649.08134673913	179.774053716675	5651.94115083178	1.82274229146595	57.409856855054
28	1995.3	5673.38543021721	176.46885414948	5676.12927057565	1.78159263070398	58.9298848512163
29	1584.9	5693.79286045452	174.368909303228	5696.46220511419	1.75409983179382	60.1249068481992
30	1258.9	5715.30523558467	172.026940790623	5717.89359854303	1.72404488287334	61.4399288448791
31	1000	5738.81811462505	172.038500753124	5741.39622378477	1.71710073494456	62.8199548413949
32	794.33	5761.61244464109	172.124016932618	5764.18291169253	1.71116116176511	64.989996835916
33	630.96	5784.51273907818	172.683433966135	5787.08970009314	1.70992697876942	66.4050218323434
34	501.19	5805.87938661126	173.95525308486	5808.48481808753	1.71617773719428	68.2700568276347
35	398.11	5830.62758038867	175.908200756465	5833.28052439469	1.72807147679995	69.9300878234435
36	316.23	5854.2400481653	180.087782847866	5857.00931799443	1.76197370539022	74.950180810769
37	251.19	5880.08833191183	186.97632605132	5883.06033774848	1.82128995659266	76.3252078072974
38	199.53	5901.61256273885	193.453174589202	5904.78238137831	1.87746703192058	78.315243802273
39	158.49	5927.06491022086	202.575316390013	5930.52571099577	1.95749407083425	81.0452917953803
40	125.89	5954.02389780955	214.032732134685	5957.86963487053	2.05875795234266	82.5403257916057
41	100	5981.77003179382	229.891246045646	5986.18598928191	2.20090689332441	84.0103477878943
42	79.433	6007.56796424239	246.455739020064	6012.62116520635	2.34919688173548	87.7354187784894
43	63.096	6034.79634978647	264.966341537291	6040.61041166733	2.51403825422627	90.2104647722405
44	50.119	6096.83153349064	298.402589773838	6104.1296556798	2.80204173989752	92.6405087661052
45	39.811	6107.80980622223	316.545957906391	6116.00702848282	2.96678118663905	102.280684741766
46	31.623	6144.91709439927	343.505694107112	6154.51072457628	3.19954911439821	104.670729735732
47	25.119	6190.04840394149	380.644254253117	6201.7408274963	3.51885482531484	107.310779729066
48	19.953	6235.7105031779	415.633100890961	6249.5468918954	3.81333448796621	110.310833721492
49	15.849	6295.2143848653	458.426992368049	6311.88398647714	4.16501302100479	113.375890713753
50	12.589	6352.24728279663	504.87932037634	6372.279707447	4.54433995850273	115.895937707391
51	10	6418.43976018633	546.432980689168	6441.65801308371	4.86613440521737	118.245983701458
52	7.9433	6486.48821607537	601.249742395912	6514.29433093223	5.29576494166143	120.916032694716
53	6.3096	6560.67877118954	661.378785075977	6593.93113674124	5.75651149653351	124.721102685109
54	5.0119	6635.62657351623	724.752981474297	6675.08853179571	6.23322236257505	127.411152678318
55	3.9811	6714.07408639028	800.977260449331	6761.68288292896	6.80313334208793	129.976200671842
56	3.1623	6800.03567406363	892.128848193834	6858.30730212037	7.47421720758051	133.496265662954
57	2.5119	6884.7230069756	999.008276024129	6956.82603047854	8.25628374960607	136.406318655607
58	1.9953	7062.71501197104	1143.23299357534	7154.64359824585	9.19464638518864	140.186388646063
59	1.5849	7038.4743512152	1218.5022980069	7143.16939761072	9.82170975380684	143.991460636457
60	1.2589	7171.13716338083	1502.94045659806	7326.93921307532	11.8368329088655	146.911511629084
61	1	7290.75252506219	1704.38167933293	7487.32190376148	13.1579147196754	153.296634612963
62	0.79433	7423.57622644922	1986.68178849792	7684.81545117717	14.982287744985	157.786714601627
63	0.63096	7548.24734574317	2312.27631901384	7894.47020185591	17.031548520489	161.516786592209
64	0.50119	7679.48932824316	2739.45334245265	8153.47539139449	19.63250545181	165.501857582148
65	0.39811	7860.19731958078	3240.78471568166	8502.0813614162	22.4065119508755	170.001940570786
66	0.31623	8010.59242341975	3886.43096242951	8903.59121927105	25.8808754853204	174.767031558756
67	0.25119	8283.35588056045	4695.30338642657	9521.54706623898	29.5461207537152	180.237128544945
68	0.19953	8466.15434748008	5676.80708773121	10193.2285438261	33.8430227641202	186.937254528029
69	0.15849	8771.66640571528	6867.63714310515	11140.3128978728	38.058604850075	194.302389509434
70	0.12589	9151.35636932381	8213.5279076632	12296.7216805263	41.908619707586	202.887548487758
71	0.1	9446.05087524207	9927.87237846362	13703.668381157	46.4246288110513	213.532747460882
