Index	Frequency (Hz)	Z' (Ω)	-Z'' (Ω)	Z (Ω)	-Phase (°)	Time (s)
1	1000000	2806.34004310094	2099.08462711584	3504.52574670323	36.795732888416	15.3490699612473
2	794330	3145.89395885764	1935.60376438676	3693.67171430884	31.6031297357578	17.6341089554782
3	630960	3520.13291301148	1853.56134326537	3978.31941635088	27.7694985347245	20.8341679473988
4	501190	3881.48811978234	1738.385876302	4252.99135655572	24.1259766128221	24.6192399378424
5	398110	4247.37415182248	1601.10583386327	4539.13285516086	20.6546214027262	30.6143529227062
6	316230	4519.89435997257	1469.47792331554	4752.76870807149	18.0100345972074	32.3743839182625
7	251190	4684.15218604776	1294.29303608879	4859.67860720479	15.4461780290546	39.9445248991498
8	199530	4904.41826501685	1178.25242038934	5043.96642379628	13.508900054935	42.3595668930524
9	158490	5081.57149246245	1059.67917085765	5190.88516326036	11.7792939829961	45.1396178860334
10	125890	5229.05098338421	944.036174303117	5313.58433500629	10.2337625259476	47.1496578809586
11	100000	5350.63070366832	836.491597557355	5415.62250529173	8.88542096682631	49.4096968752525
12	79433	5451.56233211454	739.432771016596	5501.48095368724	7.72428074729924	52.3297528678801
13	63096	5533.97982125028	652.176631370505	5572.27664608561	6.72127595350938	54.5947928621614
14	50119	5605.20470593925	577.105308838351	5634.83543086867	5.87839337444557	58.88487485133
15	39811	5667.46619797083	512.632020944575	5690.60319246033	5.16843676517789	67.2050258303236
16	31623	5718.24830070846	455.536066398201	5736.36441802164	4.55476723776508	69.7400758239232
17	25119	5765.24425429919	408.582658031182	5779.7042398529	4.05377218944675	71.9701148182929
18	19953	5806.12075695146	368.304722334949	5817.79052672033	3.62963000105673	77.6852228038637
19	15849	5844.4203085744	334.908257767262	5854.00822380679	3.27968665074201	80.9502827956202
20	12589	5879.27887443037	307.645113354012	5887.32244735192	2.99538519797653	82.6803127912523
21	10000	5911.94970105791	285.953053460404	5918.861243231	2.76916160915883	84.7653517859881
22	7943.3	5945.0325345942	265.950846166219	5950.97821286215	2.56141718056984	87.1403957799917
23	6309.6	5973.52706359605	251.864482305016	5978.83444301322	2.41435743695439	89.3104357745128
24	5011.9	6003.00445952883	240.314178943309	6007.81270061944	2.29245872406651	93.1055087649312
25	3981.1	6031.25128982318	231.309344448572	6035.68522487903	2.19631988368874	97.4755887538978
26	3162.3	6058.73487240927	225.056209323781	6062.91337159813	2.12731624047946	99.7306307482044
27	2511.9	6085.68299774354	219.465650095512	6089.63896471676	2.06534068153817	101.870667742801
28	1995.3	6111.11770765698	216.850342519002	6114.96391713715	2.03226301791316	103.875705737739
29	1584.9	6138.70775273952	214.105600688027	6142.44040115899	1.9975501548322	105.595736733396
30	1258.9	6169.33641093715	213.290570102702	6173.02232448657	1.98008070168319	107.650774728208
31	1000	6194.97882524726	213.469615163509	6198.65565440281	1.97354516479053	110.230822721694
32	794.33	6225.27222233814	214.147379462753	6228.95443412019	1.97017966150908	114.575904710724
33	630.96	6252.1570851152	216.13092624907	6255.89168658133	1.97987038308347	119.986003697064
34	501.19	6282.40515875644	218.888728100835	6286.21721340101	1.995466524461	122.596051690475
35	398.11	6311.92420208724	223.590963480125	6315.88315691833	2.02877342920089	125.696109682648
36	316.23	6343.24928133824	228.586109917199	6347.36662363575	2.06382469199078	130.481199670567
37	251.19	6372.65104983166	236.233049643751	6377.02810536888	2.12297234701026	133.966262661768
38	199.53	6404.34917769502	245.723173141201	6409.06141862141	2.19725656114586	135.681293657438
39	158.49	6439.27353037133	257.063974782075	6444.40264773017	2.28610631610437	137.876335651896
40	125.89	6471.35815567717	271.940411462299	6477.06939645051	2.40627637477116	139.881374646833
41	100	6507.84537083243	288.004835618154	6514.21508364626	2.53397253927192	141.94641164162
42	79.433	6541.68047761939	304.998301664433	6548.7867147499	2.66941646320501	143.861445636785
43	63.096	6581.43598831222	329.620806850168	6589.68508690361	2.86717276239816	146.111487631104
44	50.119	6616.01263863376	353.75825825212	6625.46361697378	3.06069121057403	148.331528625499
45	39.811	6666.69727623722	383.139929007113	6677.69786514697	3.28921190402137	158.026710601021
46	31.623	6718.25009264756	413.367511780154	6730.95513334878	3.52091587999797	164.731832584092
47	25.119	6767.92534681154	453.687274183494	6783.1147449214	3.83507981600031	168.981910573362
48	19.953	6826.45650001301	495.596301169587	6844.42284201545	4.1523513276646	175.607034556635
49	15.849	6881.69149913046	546.026208995537	6903.31967318003	4.53661598158737	179.392103547078
50	12.589	6951.49484286938	597.18651756276	6977.09913124346	4.91008986797592	181.75214954112
51	10	7021.93955226828	660.841707427818	7052.967236418	5.3763275531543	184.707204533659
52	7.9433	7097.13811586731	728.207446942683	7134.39945065311	5.85837709617282	190.817317518233
53	6.3096	7182.50645246955	808.273347681887	7227.84232979245	6.42068811246575	196.002412505141
54	5.0119	7273.21209125751	910.152770521535	7329.93807546165	7.13278243353679	200.892501492795
55	3.9811	7363.70448743269	1013.22920813945	7433.0866540397	7.8345734750903	209.312659471536
56	3.1623	7471.54620064533	1139.87301832452	7557.996634445	8.67426543083331	212.927726462409
57	2.5119	7574.27570916678	1274.26663928738	7680.7166323511	9.5497917108898	222.542902438133
58	1.9953	7745.82586012893	1495.49548406592	7888.87349361768	10.9277038010763	227.913002424575
59	1.5849	7897.9598580121	1661.15770581764	8070.7629653192	11.8777466476016	232.883095412027
60	1.2589	7999.51139502211	1947.81249214405	8233.23484808013	13.6847322161706	236.588164402672
61	1	8190.45492501423	2214.47296856804	8484.54137871979	15.1294605186756	243.713299384683
62	0.79433	8392.90289290182	2565.42826884049	8776.2316042961	16.9966308163706	251.483439365065
63	0.63096	8618.0047766381	2966.84648591279	9114.39435185521	18.9966088774904	257.568550349702
64	0.50119	8864.66177420143	3468.96280240295	9519.24005871495	21.3716430035165	267.813742323835
65	0.39811	9158.51548166606	4065.06573849797	10020.1379873846	23.9343480339007	276.713905301365
66	0.31623	9491.12572058179	4774.10958098679	10624.1983102331	26.7027493257395	289.064136270183
67	0.25119	9853.37905094454	5643.42535311356	11355.0573947364	29.8014973203424	302.069374237348
68	0.19953	10344.3397664117	6712.65355527755	12331.4671858683	32.9803635055604	309.809520217806
69	0.15849	10818.0349877837	7858.45718581853	13371.0594321563	35.9954749274458	318.574684195676
70	0.12589	11464.2776046874	9331.17700638342	14781.7632683586	39.1433498841842	327.569847172966
71	0.1	12366.9901624418	11041.4468912154	16578.7814729993	41.758988536087	338.135045146291
