Index	Frequency (Hz)	Z' (Ω)	-Z'' (Ω)	Z (Ω)	-Phase (°)	Time (s)
1	1000000	1956.24790003226	1328.60048551016	2364.75899331802	34.1826817053213	17.2591099564249
2	794330	2156.53908928319	1264.84020508928	2500.09631574799	30.3922166321663	19.0891409518046
3	630960	2392.91645573383	1224.15418582278	2687.86209370741	27.0931110694695	20.8741769472978
4	501190	2622.88122868193	1156.94467738486	2866.7101224751	23.8021252750788	22.7442109425764
5	398110	2838.70967662325	1061.57639278847	3030.71230338352	20.5040079070034	27.6143009302806
6	316230	3026.28888515043	979.23286114703	3180.77371290937	17.9303088426971	29.3693689258495
7	251190	3130.31863276213	861.648103742614	3246.74178174074	15.3900419580708	34.4444299130362
8	199530	3278.98942715194	784.647535740322	3371.56394255211	13.4575627010667	36.0944589088703
9	158490	3400.08181586452	703.634318246546	3472.12580538016	11.6921019727353	37.7444869047043
10	125890	3499.99845449404	624.202479659398	3555.22403191045	10.1120233923912	39.3995179005258
11	100000	3581.12450301401	549.842774241457	3623.08981153834	8.72897755739801	40.9595488965871
12	79433	3646.13816753044	482.061640894325	3677.86717573432	7.53148430351047	43.1045868911714
13	63096	3699.12509968144	421.521476613644	3723.06417596309	6.50090838042548	44.774618886955
14	50119	3746.59633495183	369.394578512674	3764.7624694938	5.63086209986695	46.3946488828648
15	39811	3782.01912858926	322.809141397329	3795.77059775545	4.87857968894126	47.9896768788377
16	31623	3814.30216284458	283.038780715724	3824.78913678517	4.2438327170998	49.5847058748107
17	25119	3839.357598016	251.691408996565	3847.59864471411	3.75069270237559	51.1997368707331
18	19953	3863.53409004261	224.781206570044	3870.06747431469	3.32972662970156	53.059770866037
19	15849	3886.70342449428	202.165621442137	3891.95766272818	2.97753810375047	54.74980286177
20	12589	3906.39205393015	183.854841581279	3910.71623641776	2.69464470448048	56.5098368573264
21	10000	3926.09357050792	168.951897634166	3929.72714931938	2.46409355763212	58.3048698527944
22	7943.3	3944.62528276206	157.188451960271	3947.7559234121	2.28195879309535	59.829895848944
23	6309.6	3961.36453291552	147.209760945892	3964.09884795507	2.12821076139194	61.9099388436924
24	5011.9	3976.15055544167	139.636114759521	3978.60169960304	2.01131051871151	63.5149648396401
25	3981.1	3991.90702354349	134.059482872399	3994.15743675232	1.92343080766897	65.1599958354868
26	3162.3	4006.7341895595	129.935736347315	4008.8405008637	1.85741324493826	66.7400238314976
27	2511.9	4021.42935333203	126.65517453769	4023.423365379	1.80393793037843	68.2550538276726
28	1995.3	4038.13166639246	124.96645724396	4040.06484732085	1.77254403183072	69.7950818237844
29	1584.9	4053.44720787443	124.406549760865	4055.35587299665	1.75794404871186	71.5101138194543
30	1258.9	4068.73296667175	124.202803007945	4070.62824271101	1.7484772967893	72.8951388159575
31	1000	4085.19674891057	124.59576071222	4087.09635082132	1.74694130497387	74.8551758110088
32	794.33	4098.60441842826	125.525602209032	4100.52616813618	1.75421657838875	76.4552038069692
33	630.96	4116.56100905904	127.235704489118	4118.52685626816	1.77034877770043	78.3102388022857
34	501.19	4132.34167099748	129.965355783625	4134.38492155317	1.80140297938865	79.9202727982207
35	398.11	4150.79267921784	133.683747378794	4152.94488407463	1.84467604253102	81.5002967942315
36	316.23	4168.78222867121	137.993962357292	4171.06552378789	1.89589796990387	83.1503297900656
37	251.19	4186.30812795109	143.911208203754	4188.78098949993	1.96886107108588	84.645355786291
38	199.53	4203.94115410828	150.911386795315	4206.64896014271	2.05589802313331	86.2603867822135
39	158.49	4225.70316995147	160.434689928605	4228.74763615309	2.17426955073757	87.8054157783126
40	125.89	4246.7164216197	172.151672786979	4250.20429674831	2.32136213211908	89.4554457741467
41	100	4265.38094215283	185.081700457132	4269.39454929205	2.48459692645463	90.8754737705615
42	79.433	4286.24029851815	201.561627424434	4290.97692679545	2.6923663273043	92.6155047661683
43	63.096	4312.25816061614	220.709035374596	4317.90260683315	2.92994319128438	94.2355347620781
44	50.119	4341.36323926821	248.659662196591	4348.47863084011	3.27814077582989	96.0255677575587
45	39.811	4368.58537395919	267.495271587165	4376.76728760985	3.50393488685653	105.445742733775
46	31.623	4401.89934505815	294.771202405636	4411.75791559227	3.83106635322207	107.405777728826
47	25.119	4434.22875066764	327.934332034691	4446.33844183892	4.22962166923894	109.295811724055
48	19.953	4475.73861602912	363.339323868749	4490.462295052	4.64107954242801	111.455851718601
49	15.849	4521.70348807595	408.217171824137	4540.09291683004	5.15865018397002	113.945899712314
50	12.589	4573.20047469413	451.791847098798	4595.46281182293	5.64201012319139	116.420945706065
51	10	4630.38930826738	501.840803841434	4657.50462571075	6.18556328536286	119.125995699236
52	7.9433	4696.65547704545	557.05892679637	4729.57580740435	6.76411307505833	121.971047692053
53	6.3096	4763.67517257688	620.344373999861	4803.89719833581	7.41952726701688	124.6060946854
54	5.0119	4840.28550981808	686.425868366236	4888.71601643184	8.07158669315478	127.261146678696
55	3.9811	4922.2105335364	760.330336212059	4980.58819384026	8.78103621679103	129.96119567188
56	3.1623	5009.58145826281	841.848978932826	5079.82441530224	9.539297474808	133.016253664166
57	2.5119	5120.68993457437	937.714266222844	5205.84032132461	10.3771781675472	135.891303656907
58	1.9953	5212.09243723344	1039.58741967014	5314.75771577618	11.2800048128684	139.016363649017
59	1.5849	5327.12595083059	1152.58094999812	5450.3865681538	12.208379651722	141.951416641607
60	1.2589	5427.5254126036	1346.39890531266	5592.03202035584	13.9320473681674	145.291478633174
61	1	5547.73419962479	1511.15270226996	5749.86410615628	15.237182456735	150.906585618997
62	0.79433	5690.00759526739	1723.92055504816	5945.42584802116	16.8554090061476	154.526650609858
63	0.63096	5834.59135755485	1986.48397964129	6163.48723621825	18.8019981690548	158.566726599658
64	0.50119	5981.73860453563	2313.10344268075	6413.39568945604	21.1411956433256	162.691801589243
65	0.39811	6134.6289367649	2684.88611939651	6696.43828209604	23.6371064569855	167.391886577376
66	0.31623	6336.60703089291	3163.55123569259	7082.41802528018	26.530664667566	172.806988563704
67	0.25119	6526.24508245941	3734.88546270222	7519.39121843185	29.781946615656	178.887103548353
68	0.19953	6818.53475696688	4461.08215991053	8148.23111291262	33.195046037172	185.492224531677
69	0.15849	7115.1884145368	5319.1645785872	8883.66016844721	36.7810136107818	193.14736451235
70	0.12589	7432.82225618902	6310.26531157063	9750.19461316083	40.3303575606716	202.167534489576
71	0.1	7702.53598107094	7588.07845162539	10812.4000632475	44.5711218199747	212.797730462737
