Index	Frequency (Hz)	Z' (Ω)	-Z'' (Ω)	Z (Ω)	-Phase (°)	Time (s)
1	1000000	2605.48656898432	1893.7100381678	3220.97779716272	36.0102642690831	42.1885698934841
2	794330	2891.9895377065	1768.47738277158	3389.85482573789	31.4461576312257	45.7386338845211
3	630960	3235.8445748626	1693.25829544111	3652.0971739191	27.6222399639996	49.2636998756211
4	501190	3560.60689678503	1591.67547154748	3900.17336539788	24.0857724167873	52.1537548683244
5	398110	3895.87896433257	1451.96971653553	4157.65426201666	20.4401098036829	62.068938843291
6	316230	4151.64390548344	1325.80785908367	4358.20072933153	17.7106366258949	64.9239918360827
7	251190	4288.68900846417	1160.50072965113	4442.92869117232	15.1413814222257	75.1641828102287
8	199530	4483.81829323546	1049.56739101324	4605.02097661143	13.174529439464	78.0492338029446
9	158490	4644.8966803004	935.458167757291	4738.15862485518	11.3867558158541	86.3543867819761
10	125890	4773.11363077664	824.985599013124	4843.88428545572	9.80612768215741	92.0744927675343
11	100000	4875.57498852924	722.245206169947	4928.77972794559	8.42625377453786	101.964675742564
12	79433	4960.7483746785	630.434279935038	5000.64713994025	7.24258224655381	116.524946705803
13	63096	5028.96045958748	548.377530008749	5058.77072217281	6.22316807722073	133.87026766201
14	50119	5080.46438329045	475.83455836857	5102.69897964015	5.35069390173584	139.430371647972
15	39811	5129.87322892735	416.3153869335	5146.73856400955	4.63967680851361	160.68076459432
16	31623	5166.11173216572	363.74844578248	5178.90175240171	4.02757679200889	186.631244528801
17	25119	5197.82076253849	323.62196592	5207.88554562234	3.5626986767561	190.001306520293
18	19953	5229.20389574599	287.677397319601	5237.11100399959	3.14887369121314	193.806375510686
19	15849	5254.68486215973	257.563296837313	5260.99342828789	2.80616037423021	196.931433502796
20	12589	5281.73977899268	233.74289286243	5286.90938384207	2.53396589545798	199.961491495146
21	10000	5302.85314970706	216.469824833978	5307.2696099239	2.3375953657327	216.086791454433
22	7943.3	5326.05255809103	200.043805943253	5329.80800553306	2.15098903280826	219.821858445003
23	6309.6	5349.11419167081	188.22561022183	5352.42482580348	2.01530287329401	223.456924435825
24	5011.9	5371.27885451909	178.539337507359	5374.24532637295	1.90378973736058	227.587003425398
25	3981.1	5390.16233420181	170.899372632606	5392.87090375934	1.81599978753567	233.517110410426
26	3162.3	5410.1501353056	164.291216529649	5412.64409419057	1.73937897609591	246.382349377944
27	2511.9	5428.33329225305	159.290794960619	5430.66993004934	1.68082383582374	260.292606342824
28	1995.3	5448.07482747465	156.317463243615	5450.31691510483	1.64349328058934	263.397663334985
29	1584.9	5467.36355793854	153.717750627565	5469.52405804494	1.61047617591321	267.557743324482
30	1258.9	5487.43162775204	151.190855824017	5489.51405355139	1.5782259405266	272.527834311933
31	1000	5507.26083425046	149.429350756874	5509.28770598674	1.55423381279039	276.327905302339
32	794.33	5526.83682321504	148.899377157721	5528.84222011839	1.5432412740811	279.702965293818
33	630.96	5545.15216377703	147.496791054476	5547.11346763454	1.52366448152701	282.828024285928
34	501.19	5569.26400591128	147.128717287332	5571.2070888623	1.51328690199119	286.76809627598
35	398.11	5588.12134209738	147.786377231792	5590.07521839371	1.51492100430384	291.238181264694
36	316.23	5608.16333644321	149.533189332902	5610.15652036	1.52734338116959	296.208272252146
37	251.19	5627.31316181087	151.159376292757	5629.34299702292	1.53869384461561	301.643372238424
38	199.53	5648.9150504022	155.734830848804	5651.06136793788	1.57918624309601	330.358903165924
39	158.49	5666.6603540788	160.263782338384	5668.92618124614	1.62000026506791	335.599001152694
40	125.89	5686.79485963883	168.53135165561	5689.29157207692	1.69749569063589	338.904065144349
41	100	5706.33995226557	177.864419848138	5709.11126206786	1.78530937364299	342.389126135551
42	79.433	5727.82410650576	188.570645848879	5730.92731445307	1.88560281735081	346.059197126285
43	63.096	5751.18521224517	202.552417819015	5754.75097875763	2.01708054658134	349.559260117448
44	50.119	5780.00995601995	243.952658914073	5785.15583121846	2.41680672727985	357.829412096568
45	39.811	5797.34445695991	239.305427024816	5802.28143406086	2.36373937884966	369.854637066207
46	31.623	5829.28959911913	260.167306498169	5835.09248065264	2.55547483542235	379.464815041943
47	25.119	5862.63932710166	287.220351779205	5869.67080935168	2.80477200657748	384.159902030089
48	19.953	5899.36531502736	320.769741814077	5908.07958201405	3.11231315433931	389.034991017781
49	15.849	5938.30315381915	352.03618120562	5948.72875659467	3.3926540909039	396.705133998416
50	12.589	5979.7382441526	391.399221465537	5992.53392307003	3.74490974022558	400.895211987837
51	10	6031.27894838975	432.281490369242	6046.7506183243	4.0995656193709	404.690279978255
52	7.9433	6084.09261152888	476.009210048696	6102.68528384936	4.47361261179759	408.965361967462
53	6.3096	6144.39562059779	530.011120268422	6167.21244404873	4.93008894078263	413.325439956454
54	5.0119	6200.71334214617	585.157272563124	6228.26259763532	5.39099984426273	417.470518945988
55	3.9811	6263.40009680189	649.197136167379	6296.95463650691	5.91753766998953	421.865597934892
56	3.1623	6339.29542625266	726.002270880234	6380.73238732288	6.53328528231196	426.390682923467
57	2.5119	6419.12193327553	802.028004728585	6469.0320230022	7.1218328158301	431.170771911398
58	1.9953	6505.10774660318	959.792534233112	6575.53256426324	8.39311947580381	435.840858899608
59	1.5849	6537.37593456425	1089.94234257602	6627.6133275833	9.46555994358337	440.520943887792
60	1.2589	6649.02241477783	1201.23241820886	6756.66029890314	10.2407650911146	445.861041874309
61	1	6761.22376208691	1376.43375731222	6899.90700294412	11.5068940829197	455.491223849995
62	0.79433	6878.29135679147	1605.62848940507	7063.20995262788	13.1395034057968	459.806303839101
63	0.63096	6996.73169938827	1859.6782339186	7239.65866646594	14.8846417567543	465.536406824634
64	0.50119	7106.94390035838	2189.37442407548	7436.53225446088	17.1220405426454	471.851523808689
65	0.39811	7214.26989669135	2580.71444687652	7661.9695378293	19.683327632959	478.831652791066
66	0.31623	7359.00997026338	3078.8324548703	7977.10705880261	22.7032594132608	487.766819768507
67	0.25119	7512.20620911236	3701.14605092848	8374.46859320219	26.2287438706264	500.432052736531
68	0.19953	7776.21387559795	4442.45662295133	8955.72013217509	29.738803508936	507.402181718933
69	0.15849	7993.27387537133	5407.64367845018	9650.64958434281	34.0793048813625	515.412332698709
70	0.12589	8286.00794071308	6504.01534254276	10533.7620615615	38.1297706301868	524.552499675632
71	0.1	8499.61903172765	7801.51250391764	11537.2059456911	42.5477695185618	535.662705647582
