Index	Frequency (Hz)	Z' (Ω)	-Z'' (Ω)	Z (Ω)	-Phase (°)	Time (s)
1	1000000	2291.9810502637	1520.03028446621	2750.21257368632	33.5521370543164	76.82321380604
2	794330	2525.12694315068	1411.42990352686	2892.81877268441	29.2031839185601	78.2582378024169
3	630960	2777.65448181367	1343.87001414361	3085.66865286179	25.8183786993267	79.6532617988948
4	501190	3039.39032813861	1248.07653819785	3285.66410516694	22.3247126169464	81.1732907950571
5	398110	3272.68688127823	1124.79163916025	3460.5831379141	18.9673628090474	85.4333697843015
6	316230	3464.47138366885	1019.85006568868	3611.46177118706	16.4030543629375	86.7483937809814
7	251190	3566.38237851006	886.902791024366	3675.00745992085	13.965264050871	90.8434717706423
8	199530	3716.83055320603	798.655508497672	3801.66805264472	12.1270571988522	92.2334957671328
9	158490	3837.53725696774	709.121963162452	3902.50511303378	10.4693448765988	93.5335187638506
10	125890	3935.32913193732	623.190114558101	3984.36711355235	8.99851169247389	94.7685407607324
11	100000	4008.70275930089	544.292873079263	4045.48545221849	7.73221069513331	96.2335697570336
12	79433	4071.60597927593	473.048821061465	4098.99383234266	6.62704782142184	97.5385947537387
13	63096	4121.58441814115	411.08500384482	4142.03440307417	5.69581821533982	98.8636167503934
14	50119	4163.87919851527	357.105836681956	4179.16433733115	4.90185043650648	100.168641747098
15	39811	4197.89739064336	311.24324630344	4209.41977720681	4.24030257586941	101.573669743551
16	31623	4225.87013325108	271.52325801707	4234.58419006491	3.67635076648164	102.933691740117
17	25119	4250.63172671452	240.57297610725	4257.43413724571	3.23931306503233	104.218715736873
18	19953	4273.31815709225	214.826170196306	4278.71456808415	2.8779227823491	105.493739733654
19	15849	4293.51742195836	192.660969083667	4297.83784031787	2.56928278571681	106.808765730334
20	12589	4312.12009458052	175.149326629616	4315.67572886378	2.32595652055011	108.148790726951
21	10000	4330.50164175961	161.094746960696	4333.49696974407	2.13042177462082	109.48381572358
22	7943.3	4346.69072211793	149.5746566791	4349.26347921884	1.97083639990163	110.833840720171
23	6309.6	4362.37889310646	140.213733568175	4364.63165663518	1.84094288955329	112.078863717028
24	5011.9	4379.18696583353	133.210642347666	4381.2125669683	1.74234505730375	113.388886713721
25	3981.1	4392.71387752624	127.20049725296	4394.55517388427	1.65865927547743	114.728910710337
26	3162.3	4410.23274112439	122.397040697178	4411.93085467769	1.58971977406658	116.003933707118
27	2511.9	4425.09964694101	118.490793910524	4426.68577534017	1.53384128049701	117.288957703874
28	1995.3	4440.17109447704	115.060210199117	4441.66164855007	1.48439987072008	118.733987700225
29	1584.9	4453.92028951523	112.504843221541	4455.3409841564	1.44696847274321	119.834007697448
30	1258.9	4468.75028207911	110.427827328954	4470.11447153546	1.41555483536999	121.08902969428
31	1000	4482.8576830734	108.117047290665	4484.16127080695	1.38158520174415	122.324050691161
32	794.33	4497.83202497029	105.995822465923	4499.08079936653	1.34998136181272	123.694077687702
33	630.96	4512.21003354379	104.586217500812	4513.42194611853	1.3277919344628	124.969102684483
34	501.19	4527.12257976079	102.903397749918	4528.29194746192	1.30213290643893	126.304127681113
35	398.11	4543.29948274142	101.742285501821	4544.43854425798	1.2828626892275	127.549149677969
36	316.23	4558.9293216189	100.803998602862	4560.04364076167	1.26667958374842	128.899174674561
37	251.19	4571.1434412898	101.233142943737	4572.26426511822	1.26867247714333	130.219197671228
38	199.53	4587.39909522613	100.671927289583	4588.50360093852	1.25717225256195	131.439222668148
39	158.49	4601.22084093498	101.611604361543	4602.34268011361	1.26509249063292	132.704243664954
40	125.89	4615.32019523451	103.344627011562	4616.47707851687	1.28273259629873	134.079270661482
41	100	4626.87066724655	104.800968911696	4628.05741262048	1.2975566140755	135.469296657973
42	79.433	4641.85095904575	106.909675780439	4643.08195111495	1.31938541462893	136.874320654426
43	63.096	4655.22369348221	110.694358374309	4656.53958184982	1.36215250203122	138.369348650651
44	50.119	4666.80295251417	105.623364750129	4667.9980819165	1.29654927775938	139.799376647041
45	39.811	4685.32241256933	119.904165367595	4686.8564218031	1.46596174903433	148.844542624204
46	31.623	4697.90076237893	125.750594319523	4699.58346932281	1.53329298669205	150.549574619899
47	25.119	4713.16174276521	132.230455171449	4715.01627852338	1.60704439249004	152.189606615758
48	19.953	4729.01065587571	141.616669165408	4731.1306327739	1.71528757951058	154.064640611024
49	15.849	4745.27839746097	151.895794456646	4747.70885815288	1.83340503778547	155.969674606214
50	12.589	4762.66725882856	167.139107079428	4765.5991123292	2.00988994590848	158.024712601026
51	10	4779.12762653111	183.268129168415	4782.6402831325	2.1960802367172	160.274755595345
52	7.9433	4796.67052517068	201.409949370823	4800.89721768199	2.40441052877315	162.579798589525
53	6.3096	4818.95239429629	225.422834675467	4824.22197176779	2.67825192740629	164.989840583441
54	5.0119	4839.10832057983	256.6126525274	4845.90748897893	3.03548968660745	167.419886577305
55	3.9811	4857.98785968637	290.027542457216	4866.63765039518	3.41656958215134	169.779932571347
56	3.1623	4882.67104588894	334.220636324434	4894.09644123482	3.91580911050426	172.324976564921
57	2.5119	4906.05796070952	382.361836967258	4920.9354078478	4.45643404469788	174.915024558382
58	1.9953	4936.26103041735	441.999271922891	4956.01012073193	5.11669357323436	177.615074551565
59	1.5849	4952.86735882805	553.863639270419	4983.73956031514	6.38069822768493	180.490128544306
60	1.2589	4997.87968283822	641.973737199541	5038.94151616994	7.31951827446596	183.355181537073
61	1	5050.025754477	731.250460561215	5102.69412731667	8.23923852455825	188.460279524184
62	0.79433	5107.04272582784	861.644920615687	5179.21976485396	9.57658442445732	191.575335516319
63	0.63096	5154.86474504949	1030.6072226296	5256.87947237621	11.3060237569905	195.055400507532
64	0.50119	5208.99759273359	1216.29695394802	5349.11527276124	13.1430366518583	198.805467498064
65	0.39811	5281.6769148407	1467.26625388023	5481.69511123493	15.5254582546536	203.010545487448
66	0.31623	5333.16990991607	1764.19919524388	5617.39264147819	18.3040854481405	207.765634475442
67	0.25119	5457.0259020262	2155.65026606544	5867.36395368251	21.5551555241124	213.215736461682
68	0.19953	5552.18611323802	2624.01795142415	6141.02929853207	25.2958802972718	219.485852445851
69	0.15849	5687.44387600079	3167.93474427904	6510.20955013502	29.1180260529172	226.775985427446
70	0.12589	5791.31761520646	3793.85123689654	6923.34217902756	33.2285246888853	235.391147405694
71	0.1	5898.35444351092	4733.49847993334	7562.84291789908	38.747450855241	245.591335379941
