Index	Frequency (Hz)	Z' (Ω)	-Z'' (Ω)	Z (Ω)	-Phase (°)	Time (s)
1	1000000	2700.02716104198	2107.46862851753	3425.13805423226	37.973322767136	18.1191279542536
2	794330	3036.48522922452	1977.46108228271	3623.6162709704	33.0735251186909	19.6641559503528
3	630960	3418.44766651248	1919.53928209222	3920.51214819948	29.3152416814582	21.6441929453537
4	501190	3805.32543530536	1832.43288613195	4223.5425830409	25.7128769658281	23.7692319399885
5	398110	4189.66702086036	1713.5756567165	4526.54959952681	22.2445831604552	29.0093309267585
6	316230	4490.19096370533	1599.6657618895	4766.62830943451	19.6088401973664	30.6143599227062
7	251190	4676.80150157214	1423.85486522768	4888.74574531545	16.9329004507001	35.5944549101326
8	199530	4923.90217503441	1311.4342968657	5095.55419403073	14.9139655458435	37.1844829061182
9	158490	5130.96798520844	1190.6389977351	5267.30041749677	13.0642470254797	38.804510902028
10	125890	5306.15417623868	1068.06504820181	5412.58118546091	11.380872306315	40.4145388979631
11	100000	5447.93556064543	950.36246094276	5530.20711005603	9.89536122746725	42.1445738935952
12	79433	5570.75928876296	841.657745710514	5633.98143538416	8.59154964033469	43.8346058893283
13	63096	5669.54664921676	741.469628500539	5717.82619687183	7.45091849756051	45.639635884771
14	50119	5754.29926669108	649.198330706179	5790.80465248424	6.43687474996675	47.3096688805546
15	39811	5824.52560335051	571.26404770277	5852.47307693794	5.60160100761414	49.0697008761109
16	31623	5883.15349869018	501.578307756228	5904.4962433693	4.87306545766607	50.8297358716673
17	25119	5927.23861381075	445.404944970937	5943.9501301789	4.29743964242864	52.7047678669333
18	19953	5975.53874961942	395.862114066132	5988.63675318148	3.79014114821527	54.3597978627547
19	15849	6016.89298611848	354.264993920984	6027.31323993698	3.36959330430554	55.999829858614
20	12589	6050.7670793596	319.480940257668	6059.19551754603	3.02241471795815	57.6498588544481
21	10000	6084.36584256884	289.648967161283	6091.25637536264	2.72553360654434	59.469893849853
22	7943.3	6111.6483653252	266.688082558962	6117.46420298158	2.49857541403203	61.2099248454598
23	6309.6	6139.45298770933	246.66185987017	6144.40599744252	2.30070770443001	62.7899558414706
24	5011.9	6166.97854959826	230.952904503231	6171.30161921321	2.14472055450353	64.3199838376077
25	3981.1	6189.74273546457	218.020850708218	6193.5812114301	2.01729102748207	65.7750088339341
26	3162.3	6216.16193305713	209.6424327423	6219.69606392424	1.93158991418599	67.4350408297429
27	2511.9	6238.65197533986	201.843964339943	6241.91632876895	1.85308855752012	69.0000688257916
28	1995.3	6260.47630249206	196.50330368954	6263.5594578822	1.79780486405515	70.5700988218276
29	1584.9	6286.90759522601	193.30020842694	6289.87854266586	1.76108809336084	72.1001258179647
30	1258.9	6307.97849603432	192.11401319202	6310.90330305386	1.74444487368173	73.5851558142153
31	1000	6334.02753384162	192.519996803154	6336.95263897662	1.74094418106693	75.070183810466
32	794.33	6353.95394540441	193.587359112475	6356.90229639629	1.74510370608767	76.6952108063632
33	630.96	6378.93338542448	196.772901535036	6381.96762060585	1.76686008618287	78.275242802374
34	501.19	6406.08332148667	201.592700526248	6409.25449164995	1.80244305843252	79.8602697983722
35	398.11	6429.47672005269	208.569254992317	6432.85877567878	1.85799706692447	81.3252987946734
36	316.23	6456.20096411328	217.475419019656	6459.86272662934	1.92926368705055	82.8703287907725
37	251.19	6483.24067721607	230.075260904385	6487.32181292013	2.03244217061632	84.4353547868212
38	199.53	6512.22001773652	244.252863365163	6516.79898574985	2.14797738822433	85.9303827830466
39	158.49	6543.7078205544	262.556316807594	6548.97303859776	2.29767347475963	87.5054137790701
40	125.89	6577.40329243419	283.397206042948	6583.50575664038	2.46714794568943	89.1954427748032
41	100	6612.36791043632	309.8200963471	6619.62218522089	2.68261098674022	90.6854707710412
42	79.433	6647.15869880935	337.739606850591	6655.73337876393	2.90867547019301	92.4555037665723
43	63.096	6687.55643517952	370.922115859368	6697.83504497868	3.17463025974518	94.180534762217
44	50.119	6736.03163488695	416.760369509188	6748.91186724136	3.54039480961202	95.9505677577481
45	39.811	6781.4327833491	449.209844819579	6796.29458453389	3.78980120210288	105.500747733636
46	31.623	6836.31952340152	498.334074404218	6854.45851076167	4.16920637130128	107.430782728763
47	25.119	6895.95877752831	553.386015858128	6918.12717026199	4.58803267424587	109.325817723979
48	19.953	6962.62776788935	613.754513564345	6989.62660212292	5.03759261404527	111.51585871845
49	15.849	7033.46600283337	681.190696081922	7066.37564649952	5.53183928601142	113.810898712655
50	12.589	7112.59351251698	763.42532261329	7153.44705002462	6.12634833626143	116.105940706861
51	10	7197.40112461022	854.663483828141	7247.96748193104	6.77194095532723	118.810992700031
52	7.9433	7290.28957993836	956.58886467708	7352.78072673067	7.47530882047927	121.636045692899
53	6.3096	7396.83437770574	1084.17872525141	7475.86799773092	8.33865693086945	124.381095685968
54	5.0119	7505.80044122752	1220.33864897957	7604.35840039937	9.23469114955856	127.081145679151
55	3.9811	7635.77831143307	1387.04301030171	7760.73441974266	10.2955466240145	130.076199671589
56	3.1623	7773.83754573241	1584.13985850769	7933.60254101197	11.5179381387869	132.946255664343
57	2.5119	7944.78490968342	1775.06764385678	8140.66781053008	12.5944900256399	135.826307657072
58	1.9953	8046.86927065971	2034.42784982873	8300.06034527739	14.1883348947211	138.80136264956
59	1.5849	8369.24704406781	2401.70008100002	8707.03505010249	16.0117471181437	141.891419641759
60	1.2589	8497.25135059556	2717.6184257474	8921.25161752318	17.7354840893671	145.011478633881
61	1	8736.09232499982	3193.44816652382	9301.47409302392	20.0797094034181	150.761586619364
62	0.79433	9007.39214529694	3719.50646450068	9745.1445139936	22.4376555241225	154.33164861035
63	0.63096	9301.44133721872	4337.36124290446	10263.0167836349	25.000141243478	158.18172260063
64	0.50119	9624.74811671648	5083.01115494374	10884.5201415368	27.8393798950842	162.351799590101
65	0.39811	10017.5072106756	6017.21627198855	11685.7752151845	30.9919756928898	167.051886578235
66	0.31623	10460.1416131515	7117.73882138829	12652.144818041	34.2338362830295	172.161979565333
67	0.25119	10960.0260503969	8383.05929928821	13798.4728952432	37.4115013097532	178.0370875505
68	0.19953	11551.3788665317	10041.1030777456	15305.4926329102	40.9989903318711	184.727213533609
69	0.15849	12204.091101796	11963.4299526798	17089.8652965321	44.4294651754596	192.42235451418
70	0.12589	13032.3612637508	14214.5631559354	19284.611632672	47.4844169832869	201.287518491798
71	0.1	13743.2300162541	16914.3152655532	21793.8163748847	50.9054292944627	211.952715464871
