Index	Frequency (Hz)	Z' (Ω)	-Z'' (Ω)	Z (Ω)	-Phase (°)	Time (s)
1	1000000	2901.35518978949	2240.79369003206	3665.92666301522	37.6798624329924	13.9350459648174
2	794330	3263.11056715063	2074.6311028842	3866.77964028267	32.447518033881	15.2350689615351
3	630960	3660.63620880843	1981.57623697125	4162.55952944441	28.427577388413	16.6100969580635
4	501190	4054.70817152716	1888.04944756623	4472.73843106259	24.9687461260412	18.0751209543647
5	398110	4462.42715855745	1728.52900092259	4785.50610201905	21.1739643166433	22.1001969442024
6	316230	4756.58441650162	1591.63219517244	5015.81382788631	18.5010974917016	23.3802199409706
7	251190	4944.39444537739	1399.41734383036	5138.61901036572	15.8031622349547	27.5352969304801
8	199530	5183.99665571103	1273.13917218104	5338.04315064659	13.7982015714853	28.8603209271347
9	158490	5378.39706589651	1140.9769291142	5498.08906359428	11.9772010446204	30.1403439239029
10	125890	5540.73737360715	1011.38833287921	5632.28878904227	10.3446962793389	31.4303699206459
11	100000	5670.77778664721	889.49276870727	5740.11481515083	8.91452263643894	32.8503959170607
12	79433	5778.0260821625	777.596893212277	5830.1151218894	7.66471694442149	34.1504189137785
13	63096	5862.91844358852	678.644515389796	5902.06498222775	6.60271661359752	35.5304459102942
14	50119	5937.58111094117	591.859291044964	5967.00652500076	5.69245096680853	36.9954709065954
15	39811	5996.44382398562	512.364084114166	6018.29340335825	4.88375617135502	38.3504999031743
16	31623	6047.01418304182	444.897697205747	6063.3583508554	4.2078477967323	39.6055199000057
17	25119	6083.30166282209	393.150586896844	6095.99265951586	3.69775941742377	40.9355458966477
18	19953	6119.22674722595	347.390745772252	6129.07956500923	3.24921479883304	42.2655678932897
19	15849	6151.53531160647	308.376373138671	6159.25991312686	2.86983419949724	43.5905948899443
20	12589	6180.73402761408	277.474317498358	6186.95927875541	2.57047782504286	44.8956188866495
21	10000	6207.40501641341	250.785274695427	6212.468936888	2.31354770052541	46.2406418832536
22	7943.3	6235.40116306669	228.358242164571	6239.58132819326	2.0973981146176	47.5606688799209
23	6309.6	6257.54798046569	212.028184581724	6261.13908796852	1.94064419478919	48.8906908765629
24	5011.9	6279.58465408336	197.950938387862	6282.70387666074	1.80553323724846	50.2157178732175
25	3981.1	6300.43149174135	186.742075291842	6303.19836153126	1.69772518626668	51.5207418699226
26	3162.3	6322.20077998942	177.059679341012	6324.67966244514	1.60420740203791	52.8057658666783
27	2511.9	6342.55861004381	170.947471270483	6344.8619181015	1.54388765697204	54.2057918631435
28	1995.3	6361.73880129036	164.832673780271	6363.8738505873	1.4842017708345	55.4708148599497
29	1584.9	6382.49186966879	161.144874354124	6384.52583493236	1.44629405861083	56.7408378567432
30	1258.9	6399.42179883133	158.074212344538	6401.37382254512	1.41499406028556	58.0358628534735
31	1000	6421.43654211813	155.678712308763	6423.32337080394	1.38878367833766	59.3558868501408
32	794.33	6440.87153205237	155.090802300834	6442.73848990947	1.37936792730323	60.7459128466313
33	630.96	6461.61670783766	155.154500901953	6463.47920226846	1.37550563241848	62.070934843286
34	501.19	6481.16613536448	155.821205414672	6483.03900360411	1.37724873200685	63.4159628398901
35	398.11	6500.72388959817	158.804938506476	6502.66330800591	1.39938929579227	64.6809848366962
36	316.23	6523.13725828475	162.099978242892	6525.15103988935	1.42350730575189	65.981008833414
37	251.19	6543.78595292571	168.077187789951	6545.94412890633	1.4713190002091	67.3610348299297
38	199.53	6563.89699263972	176.018724321671	6566.25664448905	1.53608651073876	68.6510598266727
39	158.49	6585.88067196129	185.131648942605	6588.48221920296	1.6101824584819	70.0310848231885
40	125.89	6609.72542554449	197.438875176266	6612.67361288308	1.71097144561924	71.421107819679
41	100	6630.16143790702	213.559307933095	6633.59994804587	1.84487483862597	72.7811348162453
42	79.433	6653.37087875287	229.245305977725	6657.31908958476	1.97337479720268	74.2111618126348
43	63.096	6684.69873473389	248.129914587598	6689.3023274977	2.1257910649617	75.6561888089865
44	50.119	6677.28269473309	252.192679935942	6682.0434997982	2.1629623974618	77.1412158052372
45	39.811	6747.50121594965	301.832506346276	6754.24870145669	2.56127522162462	86.2713857821857
46	31.623	6781.99417346369	332.178580488334	6790.12426824655	2.80407687667115	88.0764187776284
47	25.119	6820.40998644426	366.705927740279	6830.26102141261	3.07759963129716	89.8014507732731
48	19.953	6863.6138003812	410.371834300716	6875.87081344397	3.42161102409444	91.7314857684003
49	15.849	6913.27073925822	453.793858476891	6928.14846696253	3.75556332272287	93.6815227634769
50	12.589	6963.28640933915	508.089855436398	6981.79868799472	4.17330298915135	95.7215587583263
51	10	7020.50882766259	563.842138779654	7043.11452105899	4.59177289340624	98.0616027524183
52	7.9433	7081.25602152796	632.679152794422	7109.46339415337	5.1055699766852	100.341643746662
53	6.3096	7145.69857566674	711.64830959473	7181.04807467787	5.68739852373716	102.811689740425
54	5.0119	7214.95994802972	805.470971052875	7259.78171413451	6.37006741669352	105.271735734214
55	3.9811	7292.97865793021	917.438303924733	7350.45785965295	7.17000095033712	107.716782728041
56	3.1623	7366.72782321732	1048.65699800532	7440.99189092621	8.10164943044307	110.256829721628
57	2.5119	7466.95278957629	1186.8838231157	7560.6929028585	9.03169582451127	112.99687971471
58	1.9953	7549.05244851703	1364.44600754681	7671.36922445866	10.2452591425499	115.566925708222
59	1.5849	7657.16684829873	1578.21082907687	7818.1170088264	11.6460900621126	118.35197970119
60	1.2589	7761.59566196132	1912.39351417584	7993.72354868735	13.8415050331935	121.222030693944
61	1	7908.91583166228	2257.15366123667	8224.70013330288	15.9284052265995	126.302127681118
62	0.79433	8070.84459053789	2679.90894291907	8504.14277555077	18.3686508059987	129.532186672963
63	0.63096	8232.88509075657	3162.14756985805	8819.27288222566	21.0111542908033	133.037250664113
64	0.50119	8409.98556728885	3800.40440700686	9228.80983111061	24.3178255228058	136.882320654405
65	0.39811	8626.33182918537	4548.42561421673	9752.01396611385	27.8014385335475	141.107400643738
66	0.31623	8932.25109536096	5511.8602816421	10495.9855847329	31.6776582740209	145.822489631834
67	0.25119	9228.63311880788	6577.99405137353	11333.0346766196	35.4805484509766	151.277588618061
68	0.19953	9655.96917637979	7899.32031050797	12475.4559877866	39.2857879637905	157.617704602054
69	0.15849	10089.8240006115	9531.0654607153	13879.6886557212	43.368786696259	164.962840583509
70	0.12589	10647.9270893105	11613.5866270817	15756.07012056	47.4838181727135	173.473000562023
71	0.1	11442.5150360054	13896.6379300525	18001.3248431382	50.5319012959352	183.678188536257
