Index	Frequency (Hz)	Z' (Ω)	-Z'' (Ω)	Z (Ω)	-Phase (°)	Time (s)
1	1000000	2291.49880192572	4138.8607578582	4730.87044127881	61.0286971344427	131.899227666986
2	794330	3052.44479325076	4526.46907707705	5459.51843312012	56.0060655338305	133.424254663136
3	630960	4186.47900564428	5044.9846900673	6555.79720459028	50.3130988682455	134.88428365945
4	501190	5265.54110773093	5591.1610946681	7680.29983423398	46.7179304946649	136.429312655549
5	398110	6486.85537895741	5947.53227131221	8800.70638220642	42.5164372393344	142.474423640287
6	316230	7684.03640857064	5881.92468047093	9676.85142362805	37.4330913651822	143.809449636916
7	251190	8655.96938656922	5798.06855701951	10418.4166269699	33.8155475820888	148.899543624065
8	199530	9684.60930563561	5748.57245239789	11262.2263626368	30.6924420535688	150.304569620517
9	158490	10696.2682869277	5618.31302390191	12082.0361073985	27.7111124967687	151.734593616907
10	125890	11662.0785308327	5459.69660636199	12876.8149281113	25.0870248043633	153.084620613498
11	100000	12578.9053743862	5227.70821793567	13621.9599775376	22.5674409063766	154.599649609673
12	79433	13401.297583211	4919.95483313441	14275.8793940639	20.1594614190624	155.964672606227
13	63096	14219.0879780607	4597.84000056144	14943.9819191069	17.9189709125185	157.394698602617
14	50119	14909.0829025173	4256.5090257515	15504.793519439	15.9339228851971	158.844725598956
15	39811	15527.0593765704	3878.37615141082	16004.1049251551	14.0244739420724	160.204750595522
16	31623	16070.7348004979	3504.34880801814	16448.3730987655	12.3012319005627	161.589777592025
17	25119	16512.0055544182	3152.98996641248	16810.3442307835	10.810567765056	162.944802588604
18	19953	16931.7401198846	2821.73783197915	17165.2564175352	9.46160163410449	164.389828584956
19	15849	17218.9483680839	2544.47211534972	17405.9335069548	8.40585843665238	165.804856581383
20	12589	17571.7731086136	2285.74083524425	17719.8143711073	7.41143428336614	167.254881577722
21	10000	17722.790115425	2090.85712468925	17845.6990053982	6.72840418195538	169.679927571599
22	7943.3	17964.0455098961	1909.63570216923	18065.2605737259	6.06793710378418	171.014950568229
23	6309.6	18168.9252131046	1748.47032645002	18252.8625667829	5.49688110721112	172.424976564669
24	5011.9	18362.372666708	1614.70083163522	18433.2305558941	5.02539526614079	173.925004560882
25	3981.1	18540.8904557436	1513.03920193828	18602.5241974976	4.66531464803357	175.355030557271
26	3162.3	18709.3876352291	1437.25846842688	18764.5116533932	4.39284425448824	176.80505755361
27	2511.9	18874.0959654804	1373.38809844372	18923.9978171398	4.1618363303991	178.275086549899
28	1995.3	19050.5728500429	1325.63519856577	19096.6393534169	3.98051370521533	179.785115546086
29	1584.9	19209.8594976554	1287.37293670584	19252.9486312571	3.83401595823427	181.155137542627
30	1258.9	19364.6304134686	1265.28568818795	19405.923294782	3.73839432271681	182.590164539004
31	1000	19531.243061963	1242.60240240169	19570.7311124529	3.64032369246634	183.990191535469
32	794.33	19704.0262545197	1232.66222449018	19742.5456007701	3.57969600047596	185.505218531644
33	630.96	19866.1903283693	1226.22396099357	19903.9981753794	3.53205299906049	186.910246528097
34	501.19	20045.0698741254	1222.23915634333	20082.2980461368	3.48926452806184	188.350274524461
35	398.11	20217.1279049189	1223.11241421729	20254.0925420435	3.46210736253762	189.730296520977
36	316.23	20389.5922537977	1227.31037296307	20426.4965921156	3.44464766435568	191.125325517455
37	251.19	20576.9254235673	1231.48212787675	20613.7431855141	3.42493673662097	192.650351513605
38	199.53	20764.4093526535	1243.77859858496	20801.6268826951	3.42789512350115	194.150379509817
39	158.49	20932.229468392	1248.18160998431	20969.4107654202	3.41248677330222	195.610405506131
40	125.89	21128.2162157934	1257.57941655726	21165.609522295	3.40630188458382	197.200438502117
41	100	21306.4620967454	1265.79190127868	21344.0285845337	3.39987890438346	198.555462498696
42	79.433	21491.8585783098	1272.3972953584	21529.4909374863	3.38816656750183	200.020489494997
43	63.096	21667.9693559677	1325.88039654078	21708.4972956924	3.50160861174639	201.575516491071
44	50.119	22153.2753415165	1325.39738272427	22192.8881982309	3.42383966736545	219.895857444816
45	39.811	22097.3294396398	1306.66502083745	22135.9287548693	3.38408828417006	229.121029421525
46	31.623	22279.602100587	1291.10735748008	22316.9807090704	3.31659247577676	230.936061416942
47	25.119	22487.9139433724	1275.21378322505	22524.0414605694	3.24557459705088	232.621091412688
48	19.953	22663.7292655755	1356.14812127745	22704.267483232	3.42437129706273	234.721130407386
49	15.849	22868.4394627803	1248.62763073178	22902.5019249661	3.12527347514329	236.901170401882
50	12.589	23079.067849656	1345.87056066883	23118.2771930588	3.33746009964283	239.056210396441
51	10	23264.2223764382	1335.21439815415	23302.5071670283	3.28479991857638	241.53625839018
52	7.9433	23430.5050757224	1364.01899574552	23470.1750296883	3.33174308234183	243.971301384032
53	6.3096	23644.5283191378	1343.38681228086	23682.6604831873	3.25181928183852	246.421350377846
54	5.0119	23780.5662874394	1398.53511645456	23821.6547163134	3.36568818908233	248.98639637137
55	3.9811	24018.6091609694	1391.90144997429	24058.9063690319	3.3166359569326	251.661445364616
56	3.1623	24256.6408851733	1569.48145964209	24307.363063163	3.70205786145325	254.386494357736
57	2.5119	24640.0315733287	1932.24072116591	24715.6774161496	4.48388777845764	257.186546350666
58	1.9953	24376.9382783684	1641.97345435946	24432.1754383887	3.85348868619057	259.98159834361
59	1.5849	24543.228480526	1468.23447849767	24587.1059039317	3.42349020465142	263.331661335151
60	1.2589	24963.6976867585	1783.59133463941	25027.3330629708	4.08669019264617	266.32671532759
61	1	24965.8133376584	2137.54496837317	25057.1533519397	4.8936659150073	273.226846310169
62	0.79433	25147.2489796653	2384.6787803465	25260.0638188171	5.41708050815644	276.456905302013
63	0.63096	25357.4826344432	2689.59241702053	25499.722212718	6.05455484917425	280.056969292924
64	0.50119	25532.0258299214	3085.47875200564	25717.7861043452	6.89063140525243	284.012048282939
65	0.39811	25744.6083751428	3629.18093054066	25999.1502671928	8.02403198167993	288.422124271804
66	0.31623	25995.4041913732	4242.38902033471	26339.3034014326	9.26882628382021	293.312217259458
67	0.25119	26208.838349714	5091.44006866081	26698.8009021792	10.9935917238774	298.882318245395
68	0.19953	26510.26654464	6010.78584057866	27183.1524788638	12.7749264268158	305.162435229539
69	0.15849	26902.7160751128	7253.91848589166	27863.5149544721	15.090090545532	312.417571211221
70	0.12589	27527.9116222409	8642.4983776312	28852.7069178832	17.4298902825604	321.082731189344
71	0.1	27856.6716885654	10198.1380635207	29664.729520546	20.1073347627051	331.412922163263
