Index	Frequency (Hz)	Z' (Ω)	-Z'' (Ω)	Z (Ω)	-Phase (°)	Time (s)
1	1000000	3202.43364570362	9221.17598356554	9761.43779240642	70.848333630789	15.041039962025
2	794330	5586.98805177206	10137.5609349782	11575.1707201682	61.1400681301742	16.7310719577581
3	630960	8241.55211155156	11473.3993623819	14126.6441215218	54.3096231774738	18.4311019534659
4	501190	10933.3914980024	12794.9337182724	16830.0142157865	49.485799007865	20.1711329490728
5	398110	14531.1373887507	15531.8522447393	21269.5178121923	46.9065161294018	24.2062099388852
6	316230	17921.8349462565	16412.7391898229	24301.6496467629	42.4833180334991	25.5612339354641
7	251190	20667.3130416526	16589.22329097	26501.7010352038	38.7532894129424	28.9312989269555
8	199530	23987.4591777739	16807.924115873	29290.0070141732	35.0187870011688	30.1863189237869
9	158490	27190.0439968649	16625.0177903743	31869.8871833854	31.4431875063523	31.5413459203658
10	125890	30266.6304409399	16103.1030773438	34283.7986076221	28.0148300852642	32.8313699171088
11	100000	33075.1495633288	15341.6522666773	36460.0029197505	24.8838631447943	34.1863949136877
12	79433	35577.6425628053	14310.9575336921	38348.0397915966	21.912250447472	35.4464169105064
13	63096	37850.1816481063	13219.1302768511	40092.1645221483	19.2516934035116	36.7964409070979
14	50119	39821.3395330042	12041.4718591893	41602.1168540551	16.8246558578865	38.1514659036768
15	39811	41511.1427946133	10833.0385985034	42901.3950984282	14.6261010147892	39.4514929003946
16	31623	42813.9738386878	9593.89603165351	43875.7244604123	12.6303808488255	40.7365158971502
17	25119	43924.9333554268	8700.3330436069	44778.2934617696	11.2037178671508	42.0165398939184
18	19953	44907.8640540319	7885.1352041143	45594.8638673543	9.95874933311817	43.3065638906614
19	15849	45830.0944514668	7140.40845364879	46383.0032481222	8.85558611669972	44.5765868874549
20	12589	46594.5735539788	6509.32766633957	47047.0576268582	7.95283068120998	45.8816118841601
21	10000	47275.9821296308	5934.11672847848	47646.9540229842	7.1543922069348	48.1666558783909
22	7943.3	47959.8540564316	5511.21215175991	48275.4705880318	6.55527838275013	49.3766748753359
23	6309.6	48582.5328153747	5167.19167365625	48856.5488399382	6.07110030801068	50.7867008717759
24	5011.9	49175.6719077161	4888.66393265005	49418.0710127554	5.67724873172773	52.1967288682159
25	3981.1	49764.6783296153	4668.13020822927	49983.1436475445	5.35889697624937	53.4767498649842
26	3162.3	50311.9421472871	4499.05618786122	50512.7016621908	5.10998170171601	54.976779861197
27	2511.9	50876.182396574	4370.64145555597	51063.5725540476	4.91007721894694	56.3318038577759
28	1995.3	51440.3649209597	4282.98945184953	51618.3605110251	4.75954048588776	57.636827854481
29	1584.9	51981.8530272103	4220.41721623478	52152.899877395	4.64167478134416	58.8318508514639
30	1258.9	52539.6489180728	4182.49222021106	52705.8625734033	4.55151225888895	60.2318778479291
31	1000	53133.3439405656	4164.31462324282	53296.2827464336	4.48138382120177	61.6719048442934
32	794.33	53694.662688401	4158.5948356054	53855.4613036402	4.42865678343303	63.1319288406072
33	630.96	54288.4675268309	4166.84164337997	54448.1429958155	4.38905867040144	64.4969568371608
34	501.19	54869.4732017561	4175.97949994566	55028.1554681073	4.35224933840031	65.9319828335377
35	398.11	55489.6600791383	4191.86321775449	55647.7680858333	4.32009769262155	67.1820038303817
36	316.23	56103.3803940261	4213.91615811806	56261.4111183184	4.29541168064972	68.6420308266955
37	251.19	56727.1432630559	4229.61864915476	56884.6065003929	4.26412641631315	69.9570588233754
38	199.53	57345.9660054404	4243.05299474658	57502.7244207903	4.23162877908401	71.2070808202194
39	158.49	57967.2517103499	4248.39671997703	58122.724863356	4.19169047676339	72.6821058164953
40	125.89	58594.6475811687	4243.88375209662	58748.1342211194	4.14257595170538	74.1421358128091
41	100	59202.6407386962	4235.61164746609	59353.9642859959	4.09221397753679	75.4771578094385
42	79.433	59832.3857788158	4221.42403300346	59981.1204367796	4.03576822443388	76.9621868056892
43	63.096	60490.4214069124	4186.82618162198	60635.1432377376	3.9593953440098	78.3872108020913
44	50.119	61127.7615702356	4166.32509399081	61269.5805386032	3.8991158938644	79.8122377984935
45	39.811	61711.5835680925	4133.68342757183	61849.8737683517	3.83217097645579	88.982409775341
46	31.623	62343.6033862293	4091.78814186034	62477.7369418685	3.7550993627413	90.7574397708595
47	25.119	62956.5759890588	4036.5814960356	63085.8498432118	3.66860699434073	92.4774747665168
48	19.953	63570.4638927534	3998.30877031852	63696.0779998476	3.59891748991774	94.3425067618081
49	15.849	64136.1278905952	3932.91502828752	64256.6006058406	3.50906153126357	96.3875467566448
50	12.589	64696.1772799983	3877.83191397327	64812.2899996443	3.43015467784945	98.557585751166
51	10	65303.3755834267	3807.2077712171	65414.2621574478	3.33658549796416	100.882627745296
52	7.9433	65837.5183409078	3740.27205146703	65943.6763936343	3.25151530877285	103.262672739287
53	6.3096	66355.1059024588	3657.61216096066	66455.8365085154	3.15505301632199	105.952723732495
54	5.0119	66875.9949880677	3597.70746611269	66972.6974569173	3.07935519303707	108.357768726423
55	3.9811	67375.8941541993	3526.98828655269	67468.146257707	2.99658001241504	110.997817719757
56	3.1623	67836.6031929486	3488.41463855548	67926.237710093	2.94377261287292	113.617864713142
57	2.5119	68255.9682292208	3474.01669246171	68344.319375409	2.91366293702323	116.287913706401
58	1.9953	68712.1629929419	3475.2498482213	68799.9905863088	2.89537715403903	119.267968698877
59	1.5849	69085.9543446278	3530.2334323402	69176.0915041809	2.9252212720469	122.323027691164
60	1.2589	69487.9244781899	3629.61479958191	69582.65410201	2.99005601551726	125.448082683274
61	1	69887.0846126998	3816.68857997116	69991.2259313919	3.12594426692452	128.933149674475
62	0.79433	70294.3626278872	4026.84827217707	70409.6081814694	3.27863454715292	132.478212665525
63	0.63096	70767.2316585346	4312.28810549913	70898.4972006991	3.48707680370843	136.10827965636
64	0.50119	71199.972567212	4698.35876072745	71354.8223220845	3.77537241212211	140.163356646122
65	0.39811	71641.9144396317	5225.36280918021	71832.2234172316	4.17160849854111	144.628439634848
66	0.31623	72182.3818318729	5789.808833517	72414.2122324821	4.58592396899144	149.453526622666
67	0.25119	72705.927782397	6487.27237987059	72994.7713033595	5.09878129004384	155.158634608262
68	0.19953	73370.0979355208	7278.82383188124	73730.2688686504	5.66560123176795	161.528750592179
69	0.15849	74050.2969466445	8295.05000475298	74513.4506815218	6.39157792760986	168.7688865739
70	0.12589	74883.1401196593	9543.13599253785	75488.7814099062	7.26264721066831	177.509048551833
71	0.1	75700.9875188453	10753.3254453655	76460.9280578148	8.08477640504075	187.794238525865
