Index	Frequency (Hz)	Z' (Ω)	-Z'' (Ω)	Z (Ω)	-Phase (°)	Time (s)
1	1000000	2321.4118912078	3230.79715899943	3978.31666050351	54.3017704661304	132.896238664469
2	794330	2949.22983751748	3387.16212861504	4491.1940416806	48.95364337767	134.291261660947
3	630960	3730.03111164535	3569.65008470048	5162.89974927311	43.7413590357492	135.6962876574
4	501190	4506.10667974244	3683.36784262795	5819.98248049984	39.2631451429569	137.196314653613
5	398110	5457.64599465036	3754.94662335656	6624.61500369492	34.5285857171821	142.226412640913
6	316230	6071.82109449259	3637.30797161231	7077.92488543639	30.9236027011973	143.556431637555
7	251190	6641.28397111263	3350.59203123785	7438.62351142683	26.771386449302	148.476525625133
8	199530	7247.45075356637	3191.64266293537	7919.09876900389	23.7678010879949	149.786552621825
9	158490	7768.86957975351	3005.84882835109	8330.09374053612	21.1519235554839	151.181576618303
10	125890	8238.96597276462	2793.57496870699	8699.69087991978	18.7301860853302	152.481597615021
11	100000	8654.05635036208	2576.74877934683	9029.52521382534	16.5809213027104	153.901624611436
12	79433	9021.97279967662	2361.66681393133	9325.95643020754	14.6690780613498	155.201647608154
13	63096	9358.7881092779	2146.19434643383	9601.72198342703	12.9159709181379	156.516674604833
14	50119	9631.36278913566	1959.86983750905	9828.74554335011	11.5019818051409	157.821698601539
15	39811	9877.90744805839	1761.80370667309	10033.793293329	10.1128199345154	159.126722598244
16	31623	10086.7580839874	1596.2370018852	10212.2799222834	8.99252723910901	160.46674659486
17	25119	10253.861580947	1440.56781429579	10354.5600074946	7.99715912808161	161.761771591591
18	19953	10415.0031932607	1333.45558130931	10500.0188239334	7.29601045404517	163.066794588296
19	15849	10585.5925409223	1219.49761123156	10655.6062176786	6.57170524657562	164.391819584951
20	12589	10736.1742703473	1133.69872275067	10795.8654473476	6.02787554489485	165.711842581618
21	10000	10844.3137503879	1077.76412517374	10897.7390419464	5.67571347294663	167.941885575988
22	7943.3	10969.4007729412	1016.37445885342	11016.3864473798	5.29365044996038	169.161906572907
23	6309.6	11089.1870377995	969.12702784521	11131.4543683833	4.99461023790793	170.481932569575
24	5011.9	11208.7245159118	930.558584144583	11247.2860971937	4.74586452543045	171.826958566179
25	3981.1	11322.5916931366	905.278629380614	11358.7240500991	4.57126284926141	173.136982562871
26	3162.3	11441.8107203287	883.871641154203	11475.8991646783	4.41728501445892	174.432005559602
27	2511.9	11553.6950049321	872.132711942377	11586.5647943743	4.31679542591093	175.767028556231
28	1995.3	11670.5346680108	866.728500882852	11702.6748109774	4.24735351022778	177.087056552898
29	1584.9	11787.0571051096	861.467878248663	11818.4957631827	4.18008245443664	178.297079549843
30	1258.9	11899.1431652186	858.704536143296	11930.0872396961	4.1276083865997	179.597099546561
31	1000	12026.9632787165	866.005637365562	12058.1014870312	4.11849435705364	180.922124543216
32	794.33	12143.7421287844	871.085626092134	12174.9440679782	4.10286975310872	182.34215153963
33	630.96	12267.4741075601	878.6738263035	12298.90192955	4.09688833844457	183.662174536298
34	501.19	12395.483496729	886.883279554725	12427.1707588346	4.09247636777287	184.997199532927
35	398.11	12524.3122284201	896.073032738418	12556.3268384888	4.09234982980889	186.282225529683
36	316.23	12659.5985301864	908.796610156946	12692.1765755181	4.10605750965058	187.60225052635
37	251.19	12792.5822481713	919.636173896977	12825.5951623528	4.11181908236504	188.957275522929
38	199.53	12927.8689438078	932.32518105791	12961.4438112236	4.12488538499982	190.182297519836
39	158.49	13070.2037652144	947.94552826402	13104.5346040514	4.14824019100916	191.54732351639
40	125.89	13211.4977596653	962.151716739288	13246.486665515	4.16531738108838	192.962349512817
41	100	13349.4521483956	977.726905101862	13385.209096733	4.18891937576691	194.322372509383
42	79.433	13492.5735515261	991.769158852226	13528.9743553527	4.2039554392035	195.732398505823
43	63.096	13649.0626148239	1001.4638634131	13685.7531810678	4.19640658222424	197.212426502086
44	50.119	13664.5667918992	1082.28300565799	13707.3601439012	4.52857873097243	207.147611477003
45	39.811	13967.6975652515	1043.7952381407	14006.6442723979	4.27372563066715	216.242778454039
46	31.623	14115.6742260555	1053.19051806515	14154.9097179554	4.26701330867757	218.54782244822
47	25.119	14273.8534582932	1080.47474098167	14314.6888968894	4.32881057689449	220.132850444218
48	19.953	14429.8851435097	1103.61552625461	14472.0265507175	4.37353809818299	222.097890439257
49	15.849	14586.4762631528	1117.49305249287	14629.2200919219	4.38096269067885	224.07292343427
50	12.589	14761.1420450166	1135.43654897284	14804.7468951651	4.39856676596913	226.057959429259
51	10	14894.3611303519	1150.02746781284	14938.6932714365	4.41517719798803	228.348002423477
52	7.9433	15070.4249447683	1174.26343242603	15116.104082224	4.45539350190188	230.64804941767
53	6.3096	15228.5193188413	1236.90221144764	15278.669042983	4.6435273293388	233.063090411572
54	5.0119	15403.1537423948	1267.9302871854	15455.2512896107	4.70576574955676	235.463134405513
55	3.9811	15543.9667746399	1306.58153167477	15598.7838753546	4.80482479025238	237.933181399276
56	3.1623	15690.6439342415	1405.00830537515	15753.42360915	5.11686570122111	240.488227392826
57	2.5119	16008.0461303456	1527.07099509896	16080.7178551004	5.44918231448676	243.198278385983
58	1.9953	16016.4041031212	1375.34576457252	16075.3468505848	4.90800991958114	245.818328379368
59	1.5849	16188.0142208313	1725.98864373758	16279.7678488407	6.08596339536869	248.538376372501
60	1.2589	16546.2139993692	1915.16688816575	16656.6822003197	6.60240765796972	251.438430365179
61	1	16475.7237628366	2032.47244581846	16600.6149811478	7.03257133291347	256.553526352265
62	0.79433	16677.4133782258	2288.68178768927	16833.7215526907	7.81402920737873	261.828626338946
63	0.63096	16854.4269860607	2597.57205459454	17053.4187073226	8.7613820498946	265.253686330299
64	0.50119	17044.9596809709	2968.0657212281	17301.4468947384	9.87795999204933	269.113760320553
65	0.39811	17253.870025063	3476.49959517988	17600.6272694201	11.3920514097363	273.348837309861
66	0.31623	17416.9661575006	4064.40888572078	17884.9134669936	13.1354265680562	278.11392429783
67	0.25119	17703.0577369693	4928.57792367765	18376.3199141785	15.5573427358429	283.569028284057
68	0.19953	17968.7030210909	5870.72680551782	18903.4314738141	18.0932278529729	289.809142268302
69	0.15849	18333.6404642853	7049.3486193312	19642.1915434746	21.0319255616322	297.184277249682
70	0.12589	18709.1522806211	8288.70620859598	20463.0161430784	23.8947550805094	305.784436227969
71	0.1	18936.7804571887	10222.4576383403	21519.7651997281	28.3610721100425	315.939625202329
