Index	Frequency (Hz)	Z' (Ω)	-Z'' (Ω)	Z (Ω)	-Phase (°)	Time (s)
1	1000000	2411.21855535337	2661.62656448996	3591.41071035867	47.8259656291932	70.1320888229335
2	794330	2923.06552649309	2677.03412822465	3963.68815572717	42.4844194487677	71.6121168191968
3	630960	3554.85344435463	2690.30730436666	4458.10906133627	37.1183768271325	73.0821448154853
4	501190	4132.49419926447	2637.14490699194	4902.24862358367	32.5439215156296	74.7421718112942
5	398110	4709.60925561255	2566.13297640672	5363.34390032501	28.5847177737106	80.9172907957035
6	316230	5190.32154692192	2413.45390382199	5724.00187860867	24.9380136287945	82.2923137922319
7	251190	5483.60913378551	2175.05491365934	5899.22308525195	21.6355839566659	86.5873967813878
8	199530	5841.76633843191	2023.69176172334	6182.35895911125	19.1069953991836	87.9824207778657
9	158490	6147.19608882895	1868.01630450876	6424.75716805114	16.9030320011956	89.342445774432
10	125890	6427.08750525006	1720.94492582719	6653.50323046978	14.9901184403932	90.6624677710993
11	100000	6664.98740438849	1566.82833574246	6846.67862064101	13.2290830457528	92.0724957675393
12	79433	6877.23915704407	1431.79947272799	7024.70413279338	11.7606339437493	93.4025197641813
13	63096	7071.02661926524	1285.89457387291	7186.99814286002	10.3068337924321	94.8325467605708
14	50119	7218.54128120034	1176.36482124388	7313.76595339594	9.25580464507578	96.1975717571245
15	39811	7361.29133163444	1065.52299428428	7438.00707989344	8.2361753422792	97.5375947537412
16	31623	7488.99617015738	969.098680608241	7551.43800142652	7.37327327352007	98.8476207504337
17	25119	7591.57079410818	897.759626201402	7644.4698618278	6.74432843335887	100.177643747076
18	19953	7707.37300098736	816.150569482769	7750.46452339574	6.04464926478621	101.497670743743
19	15849	7798.90882766271	775.418571206234	7837.36262162003	5.67806014011613	102.822692740398
20	12589	7888.82383177067	715.63391975366	7921.21665881036	5.1833939887879	104.13271673709
21	10000	7968.62856171943	682.404175200968	7997.79448429268	4.89465896692958	105.527745733568
22	7943.3	8052.19511831438	655.289252973367	8078.814902476	4.65248936127199	106.862769730197
23	6309.6	8137.80424880327	631.613187733102	8162.27867759726	4.43809691442366	108.177791726877
24	5011.9	8214.84882510651	616.439155029374	8237.94503812736	4.29141082778544	109.492818723557
25	3981.1	8289.02350758235	606.379006091241	8311.17357587248	4.18398856509677	110.827840720187
26	3162.3	8364.56614761396	600.754477241009	8386.11189883217	4.10800677424156	112.187867716753
27	2511.9	8444.4129249145	598.30881957151	8465.58226526919	4.05278363073832	113.532890713357
28	1995.3	8520.95958698011	594.61160857193	8541.68105515517	3.99175660481879	114.852915710024
29	1584.9	8608.81510365779	602.277426727506	8629.85721711038	4.00192355298825	116.037936707032
30	1258.9	8691.78367190702	608.724842589109	8713.07347227226	4.00614078248942	117.347963703725
31	1000	8772.50854560896	613.312461184544	8793.92167112185	3.999212946929	118.667988700392
32	794.33	8860.02853192923	622.590629755906	8881.87619137195	4.01954407229259	120.098014696782
33	630.96	8949.90985090287	630.416996365665	8972.08514942848	4.02916603960996	121.433036693411
34	501.19	9042.11321122891	639.945411537919	9064.7306333078	4.04829425430724	122.858063689813
35	398.11	9137.75027038077	649.479583158163	9160.80257034192	4.06554819096828	125.683117682681
36	316.23	9238.56422347762	660.942199695628	9262.17649921762	4.0920632063765	126.958141679462
37	251.19	9330.84109318728	669.118010060705	9354.80167709075	4.10168001886091	128.298163676078
38	199.53	9435.75129032096	680.271787462583	9460.24165217841	4.12361253676713	129.62818867272
39	158.49	9543.09931866207	692.408045275227	9568.18548665369	4.14987421599975	131.013219669223
40	125.89	9643.99727577234	699.670731838556	9669.34447561446	4.14953111661687	132.438243665626
41	100	9713.16492837183	710.226614154005	9739.09619878586	4.18202484952981	133.828268662116
42	79.433	9858.7521985024	719.732486412882	9884.98911296689	4.17543779887099	135.273295658468
43	63.096	9960.61325876211	731.905214105954	9987.4672331409	4.20253742184719	136.758321654718
44	50.119	10128.705241518	810.701659126116	10161.0977285756	4.57619902423013	138.153348651196
45	39.811	10181.0057601239	737.978488828948	10207.7172050195	4.14588027136182	147.358518627956
46	31.623	10297.8086848627	750.749666961722	10325.1386805445	4.16970477895369	149.028550623739
47	25.119	10412.7804632711	748.267922590236	10439.6313086363	4.11023979267181	150.613578619737
48	19.953	10520.7644485724	755.744498145797	10547.8734505502	4.10870535528823	152.548612614852
49	15.849	10636.7191841919	753.462002738499	10663.3718866467	4.05183244753544	154.513649609891
50	12.589	10734.9594338096	761.878849966419	10761.9614117299	4.05957482072595	156.498686604879
51	10	10846.6746102511	760.793782891225	10873.3231939804	4.01219734574192	158.798729599072
52	7.9433	10947.6397105595	771.316911317972	10974.7776747369	4.03011955441838	161.133774593176
53	6.3096	11059.2657528251	777.616013874845	11086.5705092532	4.02204889920833	163.468817587281
54	5.0119	11169.476578442	795.695517072233	11197.7827444656	4.07477529424588	165.853859581259
55	3.9811	11261.610716147	807.675273238677	11290.5365359242	4.10219160719159	168.34890757496
56	3.1623	11329.3801324889	877.498181973317	11363.3118960012	4.42890649604097	170.893952568534
57	2.5119	11333.0474333531	1032.70955576462	11380.0023353776	5.20662578983362	173.529002561881
58	1.9953	11733.6304893688	1181.50371901157	11792.9655091111	5.7499480639698	176.229051555064
59	1.5849	11560.1159642087	1018.51764037924	11604.8980732153	5.03511035529856	178.939103548222
60	1.2589	11642.2346569851	1095.47309800136	11693.6602104196	5.37540473947366	181.899158540749
61	1	11803.9990704695	1263.1964454119	11871.3966876415	6.10822007110608	188.669286523656
62	0.79433	11910.3638555766	1434.32343356982	11996.4182523082	6.86686195671235	191.874343515564
63	0.63096	11977.0940214915	1634.94464024776	12088.1688098869	7.77317118122635	195.384406506702
64	0.50119	12089.5303503907	1918.95200156138	12240.8790892368	9.01922502894867	199.209479497044
65	0.39811	12183.3532102331	2269.26797085461	12392.8879833897	10.5509905879142	203.449555486339
66	0.31623	12328.2697580256	2708.91871239971	12622.3799585117	12.3927861363539	208.194644474359
67	0.25119	12426.8622192441	3235.67345942041	12841.2027221781	14.5944659191409	213.619743460662
68	0.19953	12594.4534059583	3850.4468882953	13169.89741169	16.999734007639	219.914860444768
69	0.15849	12762.5915720329	4685.11844666242	13595.3697446514	20.1580717042254	227.269998426198
70	0.12589	13081.0982244772	5711.20885491875	14273.5082352911	23.58608667484	235.885157404447
71	0.1	13301.9645923507	6717.38084526451	14901.861207127	26.7933937292656	246.065346378745
