Index	Frequency (Hz)	Z' (Ω)	-Z'' (Ω)	Z (Ω)	-Phase (°)	Time (s)
1	1000000	3162.89595166939	7827.8714377542	8442.71769320132	67.9985490166727	100.92863874518
2	794330	5146.26803738561	8437.02198415686	9882.68256465637	58.6183698589678	104.083692737214
3	630960	7263.06958175981	9478.3468347802	11941.157333771	52.5377686100504	106.428739731293
4	501190	9460.98483843732	10462.6659733727	14105.9424847655	47.8781782522049	108.913781725019
5	398110	12163.3812986446	12338.529097373	17325.9096414283	45.4095622982976	118.798967700061
6	316230	14835.2629193836	13233.5612189464	19879.9438737346	41.7340515460162	121.079006694305
7	251190	16948.7584191102	13241.5398401724	21508.1098492692	37.9994090773436	126.839117679762
8	199530	19508.6478729461	13488.8748365707	23717.8642838531	34.6611655738233	128.809153674788
9	158490	22039.4135188205	13435.2606013482	25811.663558936	31.3665496646255	130.829187669688
10	125890	24506.0467021651	13167.8531974036	27819.753463988	28.2505067581783	132.664221665055
11	100000	26788.2737373892	12667.9572998041	29632.5623593194	25.3090870758045	134.839266659564
12	79433	28918.4070159359	11993.5252328919	31306.8508772656	22.525580225697	136.979302654161
13	63096	30871.8332016044	11192.8756909552	32838.248300737	19.9285925737397	139.39934864805
14	50119	32541.0332139006	10307.7140788069	34134.5545182388	17.5761451200157	141.514385642711
15	39811	34103.1351323996	9443.26503374776	35386.4250858477	15.4775769556688	143.794430636954
16	31623	35357.1944896561	8522.95736677872	36369.9326979759	13.5527655382446	145.614463632359
17	25119	36393.936296643	7809.97126402985	37222.4965620131	12.1117206136431	147.759501626943
18	19953	37343.5283598564	7130.94196848434	38018.2777584847	10.8107814172189	149.834541621704
19	15849	38233.3379854561	6473.7979053608	38777.547535005	9.61036238711765	151.879579616541
20	12589	38993.147065883	5923.454014372	39440.49727833	8.63776958439913	154.084617610974
21	10000	39784.5411623441	5442.60973578798	40155.095769209	7.78982941960035	157.619688602049
22	7943.3	40447.5997673347	5050.97817349708	40761.7554510063	7.11808182758308	159.754725596658
23	6309.6	41021.6467745794	4716.55783513894	41291.9050409469	6.55891227318567	162.069769590813
24	5011.9	41578.8463571601	4442.75206833173	41815.5295354847	6.09898531308028	164.239808585334
25	3981.1	42108.3981724901	4217.1712725815	42319.0468961112	5.71912275618255	166.414849579843
26	3162.3	42619.5961367571	4040.69437676536	42810.7134477657	5.41593083269108	168.659891574175
27	2511.9	43101.3601044993	3900.79640113961	43277.5167427715	5.17134358321657	170.564923569365
28	1995.3	43619.2954565455	3796.81111421736	43784.2290187056	4.97473236804142	172.66996356405
29	1584.9	44102.1086674367	3719.292815552	44258.6616151258	4.82055692954413	174.449997559556
30	1258.9	44605.6550386055	3666.66314569493	44756.1043886426	4.69924818416282	176.345030554772
31	1000	45086.156065655	3632.63271349691	45232.2615973131	4.6064226122832	178.355070549697
32	794.33	45569.2986413073	3613.02823895427	45712.3063486861	4.53329594945567	180.455109544395
33	630.96	46089.2788452515	3606.21961229163	46230.1464887083	4.4739482865874	182.405142539471
34	501.19	46611.3028660959	3607.48112610388	46750.6949140878	4.42558372394133	184.510182534157
35	398.11	47125.7129693163	3610.06664681494	47263.7853336022	4.38058935039892	186.715222528589
36	316.23	47653.8006121862	3623.8539168862	47791.3907518596	4.34871253381112	188.71526252354
37	251.19	48180.2661809697	3632.42780726744	48317.0009525022	4.3115120338482	190.900301518023
38	199.53	48715.7462454035	3641.33346843873	48851.6452299706	4.27471209015524	192.900337512973
39	158.49	49257.6670050191	3648.88998207646	49392.6326174122	4.23659598187021	195.055377507533
40	125.89	49785.296478958	3649.02612170092	49918.8455108349	4.19201286320017	196.955412502735
41	100	50341.2538705984	3645.74875680432	50473.0950632293	4.1421689030643	198.825447498014
42	79.433	50870.2023604524	3629.80691006223	50999.5390802477	4.0813820563338	201.00548749251
43	63.096	51412.5452448372	3620.65382839221	51539.8772087932	4.02832138705879	203.23552948688
44	50.119	51943.8853726093	3612.18273836498	52069.3296647664	3.97794999173643	205.755576480517
45	39.811	52463.4298268747	3569.16820127022	52584.6976871443	3.89192349203608	215.71576145537
46	31.623	53009.8746096277	3539.09530559105	53127.8834672576	3.81956669246936	218.180805449146
47	25.119	53539.1448753615	3510.99450927741	53654.1435159404	3.75197512545697	220.590851443062
48	19.953	54054.6756559653	3488.76845410333	54167.1437829055	3.69283213573342	223.195899436485
49	15.849	54551.4489792226	3462.07391723682	54661.1977689946	3.63137098897275	226.125956429087
50	12.589	55052.0202548222	3428.88866042029	55158.7002347128	3.56403615887208	229.171008421399
51	10	55523.0768386858	3389.94755835471	55626.466776913	3.49384247171612	232.386068413282
52	7.9433	56029.1706478571	3366.02984949088	56130.1890290275	3.43799100068322	235.446128405556
53	6.3096	56493.9189182349	3345.03414917173	56592.8628733273	3.38855646152819	238.481183397893
54	5.0119	56925.6023161169	3340.1324848804	57023.5099241466	3.35800266484107	242.056249388867
55	3.9811	57365.4591303838	3362.19559387953	57463.9039785084	3.35427437054855	245.296310380686
56	3.1623	57775.9711756433	3407.1376909356	57876.3460537529	3.37491142866256	248.626373372279
57	2.5119	58177.9315085284	3439.98439981063	58279.5436433914	3.3838840055753	252.116435363467
58	1.9953	58621.5494957858	3594.39802236758	58731.6419183906	3.50871535223393	255.566499354757
59	1.5849	59062.1662489894	3777.7557642348	59182.8600241445	3.65978797132453	260.216586343016
60	1.2589	59309.7011730439	3994.36945987005	59444.0547121216	3.85291834584888	263.856651333826
61	1	59748.6757077017	4322.27020307703	59904.8100617347	4.13761798382594	270.4417743172
62	0.79433	60210.4742430987	4735.75681775625	60396.4287124311	4.49724764540718	274.396847307215
63	0.63096	60703.5265591452	5253.50977175649	60930.431654788	4.9462663128988	279.196935295096
64	0.50119	61125.7038930489	5919.10938169149	61411.6237555491	5.53099347276254	283.537015284138
65	0.39811	61699.254021003	6708.45731215403	62062.8821942491	6.20529875661522	288.437109271766
66	0.31623	62273.5940574837	7681.27586709782	62745.5378157103	7.03175807579137	293.947210257855
67	0.25119	63063.334767827	8889.50045794835	63686.7914911003	8.02363252379601	300.022322242516
68	0.19953	63846.1021021328	10037.2308713072	64630.2619304602	8.93433135958456	306.987450224931
69	0.15849	64832.7605073843	11556.6744377784	65854.7155416273	10.1070244557221	314.952597204821
70	0.12589	65728.6809357688	13411.2411588703	67082.9403572732	11.532298083242	324.147768181606
71	0.1	66791.5378821526	15788.0777117568	68632.156679617	13.2993721577225	335.242972153593
