Index	Frequency (Hz)	Z' (Ω)	-Z'' (Ω)	Z (Ω)	-Phase (°)	Time (s)
1	1000000	2818.11487876785	7395.71248700088	7914.43836670129	69.1408023239376	60.49688884726
2	794330	4666.55126245861	8187.54720133908	9424.04530227383	60.3187118935736	74.9821538106883
3	630960	6470.7069217392	9237.5395388685	11278.3946020346	54.9895461284922	83.8173197883816
4	501190	8498.50456473976	10448.6837447471	13468.465830771	50.8765946423611	100.507628746243
5	398110	11089.943775443	12442.3275063663	16667.2843234333	48.2891318894229	116.792929705126
6	316230	13381.5153136961	13716.3973491802	19162.5809412845	45.7080379510068	119.712984697754
7	251190	15526.9893428013	13937.685685424	20864.9581911188	41.9124983088006	140.523368645213
8	199530	18029.8362501755	14669.0168559863	23243.3872473302	39.1316912188601	166.558851579479
9	158490	20605.8472441022	15244.7615669705	25632.0833308776	36.4950346791507	189.289270522091
10	125890	23252.644503835	15647.0366758447	28027.0446739744	33.9371734570241	195.544388506298
11	100000	25912.6991469754	15899.3017038613	30401.5751524829	31.5321049059292	202.639519488384
12	79433	28674.9050358852	16007.598332333	32840.423005594	29.1721839745694	207.034599477288
13	63096	31443.720925908	15892.5012524829	35231.7922014557	26.8132599344508	213.759723460309
14	50119	34093.551626976	15611.7048851595	37497.9411696508	24.6034152040844	222.869891437308
15	39811	36825.0041394445	15059.3503581253	39785.2354910572	22.2417938977702	226.914967427095
16	31623	39245.5278471343	14238.2862171779	41748.5359072923	19.94078280258	230.060025419154
17	25119	41429.0227257092	13369.6404170183	43532.8750358588	17.8855101118526	236.205140403639
18	19953	43541.1501526976	12578.5354314358	45321.6428455506	16.1133950874869	241.210232391003
19	15849	45272.3992361966	11602.0189434363	46735.393185095	14.3739266555675	271.385791314817
20	12589	46794.536159546	10597.7875882153	47979.5968735877	12.7607912756631	280.720962291248
21	10000	48200.031395656	9618.77657349669	49150.4210491942	11.2856651043688	285.536054279091
22	7943.3	49428.6414905329	8776.68465382649	50201.8006959148	10.0686538462405	287.751096273498
23	6309.6	50533.6239432446	8010.5501361298	51164.5977441503	9.00753260161499	290.471144266631
24	5011.9	51510.5732537385	7314.24403054996	52027.2747956992	8.08168751564174	293.306198259473
25	3981.1	52357.5008491366	6705.40419931949	52785.1337086834	7.29811978694431	297.591276248654
26	3162.3	53150.3879959236	6178.49586359561	53508.2942659705	6.63061945171884	300.081325242367
27	2511.9	53870.8443579664	5725.26775229676	54174.2241538883	6.06649004704559	304.51640523117
28	1995.3	54543.4947956635	5343.29818525249	54804.5952454819	5.59507002277917	307.45145822376
29	1584.9	55169.1754973644	5024.00460492688	55397.4597552029	5.20331284278843	309.791502217852
30	1258.9	55800.4238462849	4750.53375491134	56002.2756000289	4.86610626276318	312.191548211792
31	1000	56356.3565362325	4537.81988186136	56538.7542427242	4.60353048602226	314.336586206376
32	794.33	56950.0745371928	4360.00638214224	57116.728245271	4.37793303222676	316.561628200759
33	630.96	57504.3636968086	4214.35443995486	57658.5867631215	4.19157412513098	318.361662196214
34	501.19	58068.7879958071	4098.28489714834	58213.2294105059	4.03703477837302	320.111692191796
35	398.11	58613.3642796058	4006.02046075547	58750.1035922981	3.90988765039972	321.721722187731
36	316.23	59132.0917075397	3928.12411628978	59262.4200381815	3.80055461770468	323.736760182643
37	251.19	59703.4640492977	3871.80549033706	59828.8767840479	3.710469938698	325.456794178301
38	199.53	60248.4657679766	3829.79811188445	60370.0669286762	3.63721176570315	327.276827173705
39	158.49	60770.7616819323	3790.9614813091	60888.8894984543	3.56956200069255	329.171861168921
40	125.89	61287.8503156406	3750.9717942643	61402.5275189363	3.50227841449199	331.11689816401
41	100	61798.1289071268	3721.97572647542	61910.1109652561	3.44664493249765	333.126935158935
42	79.433	62330.0875999331	3696.06354127831	62439.5764392784	3.39356415854316	334.961969154302
43	63.096	62912.6736090587	3645.48773815578	63018.2043657942	3.31630731577753	336.752003149783
44	50.119	63458.6898986883	3626.32945046357	63562.2182506336	3.27059465579119	338.717039144822
45	39.811	64233.3370494618	3620.51057687817	64335.2911343926	3.22606178336969	348.392221120394
46	31.623	64758.1444552687	3580.25766948934	64857.0390803449	3.16446732412051	350.347254115458
47	25.119	65330.4318990772	3548.46441706896	65426.729490623	3.10900212653261	352.167289110863
48	19.953	65751.3473338047	3512.15464495756	65845.0826293105	3.05758871952903	354.292325105498
49	15.849	66345.7947891676	3470.27531697015	66436.4907033921	2.99417767915835	356.372364100246
50	12.589	66813.1262346941	3425.71217678331	66900.8919310597	2.93515856284802	358.627408094553
51	10	67362.6092427611	3356.43628953069	67446.1769751155	2.85248337727838	361.07245308838
52	7.9433	67824.3336264455	3309.26676802269	67905.0180650393	2.79334513034294	363.732502081664
53	6.3096	68400.9691968224	3263.70027944682	68478.7874204757	2.73175276715018	366.477553074733
54	5.0119	68853.5710429567	3224.5721257345	68929.0367752339	2.68133484440883	369.287603067638
55	3.9811	69250.4104576158	3199.48176594252	69324.2816920511	2.64527721890882	371.982653060834
56	3.1623	69707.5745191647	3181.65265951269	69780.1465962252	2.61332916005233	374.552701054345
57	2.5119	70068.3340501401	3189.22232636568	70140.8766384411	2.60606951816887	377.28775404744
58	1.9953	70324.9970151275	3259.2755403485	70400.4835368736	2.65352589358844	381.577832036609
59	1.5849	70642.6416483094	3300.04054998335	70719.679627972	2.67460321836481	386.177916024994
60	1.2589	71005.9529684946	3469.07413538533	71090.6451814926	2.79702448339666	389.912987015564
61	1	71239.5999251743	3675.39023962831	71334.3472032404	2.95338277153948	395.878097000504
62	0.79433	71619.3026419609	3941.60276214539	71727.6846360966	3.15012287006727	399.108156992349
63	0.63096	72010.5473158639	4264.89765291046	72136.7331996679	3.38944124443863	402.863223982868
64	0.50119	72343.7976231847	4745.54738382692	72499.2777516883	3.75306322699707	409.183344966911
65	0.39811	72685.7056825958	5352.84861491118	72882.541111511	4.21187334779627	421.158565936677
66	0.31623	73097.3907951097	6115.5015605721	73352.7634134553	4.78236404749106	426.113654924166
67	0.25119	73447.0880187903	6975.39032634573	73777.5765978038	5.42520206082261	431.72876190999
68	0.19953	73935.1251240386	8088.95194607508	74376.2991193644	6.24367383793986	437.998874894159
69	0.15849	74434.8896536171	9586.51133020991	75049.6768629312	7.33875760950304	445.229008875905
70	0.12589	75192.9834706181	11487.0044450075	76065.3405588397	8.68574960940462	453.894170854027
71	0.1	76017.937598136	13629.5875445428	77230.1268502678	10.1648075979479	465.644387824361
