Index	Frequency (Hz)	Z' (Ω)	-Z'' (Ω)	Z (Ω)	-Phase (°)	Time (s)
1	1000000	4335.96346561902	8647.55989831355	9673.72065805621	63.3704061674129	96.4616167564578
2	794330	6533.11026135933	8937.64655289038	11070.8200053777	53.8344888520978	127.162182678946
3	630960	8936.96029818862	9524.62778849098	13060.9262259877	46.8232180862089	132.257276666082
4	501190	11047.6868753247	10259.2018087481	15076.5581963472	42.8806731662026	135.357332658256
5	398110	14207.9828054871	11917.5963371316	18544.4298336678	39.989782973647	144.532503635091
6	316230	16430.5729185731	12498.783042471	20644.2075162819	37.2603503362295	146.757544629473
7	251190	18492.5298690358	12180.7832860447	22143.7382214198	33.3723644224465	153.467671612531
8	199530	20683.3928750535	12292.7451918203	24060.638503058	30.7242539193505	155.617709607103
9	158490	22793.8095003753	12270.1288901129	25886.5566369763	28.2940113386273	158.077755600892
10	125890	24882.1855802105	12141.2535236574	27686.3359145582	26.0100454807125	160.772803594088
11	100000	26843.2383176094	11917.559434339	29369.8428025581	23.9397262323967	163.507856587182
12	79433	28751.5101469923	11612.8269073708	31008.1777038438	21.9939399688147	166.472908579696
13	63096	30672.6378571133	11273.4142742245	32678.7481784708	20.1803875910719	169.512966572021
14	50119	32445.3982233445	10815.6520933046	34200.6168961147	18.4357742370813	173.928048560874
15	39811	34170.0895393984	10218.9030289587	35665.4033798268	16.6498143427834	193.008401512701
16	31623	35693.9569093817	9545.53884273662	36948.2864507543	14.9720976774124	203.518594486165
17	25119	37109.1947207436	9015.00574008589	38188.5147827962	13.6544616779141	206.368648478969
18	19953	38429.3635983855	8388.75718767572	39334.3009818491	12.3139486256011	209.613709470776
19	15849	39612.9695709208	7717.61693826859	40357.7621955498	11.0245772926164	212.478760463543
20	12589	40691.1474761979	7093.8451542093	41304.8680182081	9.88920891786151	215.763823455249
21	10000	41743.5145243727	6398.95189440689	42231.1211098337	8.71514991901295	220.728915442713
22	7943.3	42571.79014679	5806.71619608393	42965.9780440779	7.76711106536032	223.118958436679
23	6309.6	43308.933054944	5251.06256767112	43626.1084724184	6.91317619272268	225.599004430417
24	5011.9	43973.6536123746	4737.7604253843	44228.1424646055	6.14937709903372	228.839064422237
25	3981.1	44524.2608487385	4270.72335275783	44728.6136838858	5.47899282140017	232.089125414031
26	3162.3	45033.0973492563	3853.85164493198	45197.6993813705	4.89135238915717	234.489169407972
27	2511.9	45499.0604526513	3481.51672827948	45632.0661465521	4.37565653197618	237.584227400157
28	1995.3	45889.296463655	3150.80881555392	45997.3382503966	3.92782566673619	240.439278392949
29	1584.9	46224.6857306636	2856.69746831951	46312.8739264162	3.53639633508409	243.794342384478
30	1258.9	46560.2570409133	2606.40327788085	46633.1520890757	3.20402463621529	247.264403375717
31	1000	46843.5284702573	2378.87040646021	46903.8930575548	2.90717309797733	250.369464367878
32	794.33	47134.7339240852	2186.41021034179	47185.4165150865	2.65584068345087	253.824525359155
33	630.96	47385.2462067112	2018.10326746152	47428.2015141706	2.43871192251533	256.914584351353
34	501.19	47626.1194476463	1871.32025728023	47662.8691241598	2.25010201346137	260.219644343009
35	398.11	47865.6544256277	1753.54967570798	47897.7641446737	2.09808233559612	263.0746983358
36	316.23	48019.2350839126	1646.79761243339	48047.4648698595	1.96416265696392	268.064790323201
37	251.19	48232.8748349484	1565.31679159455	48258.2680118324	1.85878572726467	271.294849315046
38	199.53	48421.4791664668	1495.00565098716	48444.552702704	1.76843651480867	273.884901308507
39	158.49	48604.8992959933	1442.0118126967	48626.2854189132	1.69935467456603	277.119957300339
40	125.89	48779.8003115666	1402.90977260742	48799.970023212	1.64737570479414	280.140014292714
41	100	48914.8476368751	1381.50292343565	48934.3526540013	1.61777567559836	282.920064285696
42	79.433	49111.620350863	1365.58700280094	49130.6022897086	1.59274354919289	285.86512027826
43	63.096	49245.3172783582	1377.45499158298	49264.5781073989	1.6022190278769	288.595169271367
44	50.119	49463.1421582191	1383.19926875291	49482.4784381428	1.60181558161078	291.405221264273
45	39.811	49587.3079914629	1420.15965609335	49607.6402108485	1.64047861735032	301.755413238141
46	31.623	49761.0337336561	1465.39200876386	49782.605917945	1.68679211342716	305.270477229266
47	25.119	49934.3509435413	1528.54895966207	49957.7408023504	1.75334339261847	308.190532221894
48	19.953	50123.2922440615	1633.34334247079	50149.8976654787	1.86640924834464	311.830599212703
49	15.849	50307.2706513625	1744.93498789837	50337.5235634554	1.98653880676698	315.61067120316
50	12.589	50509.6466418141	1882.67928871968	50544.7216352518	2.13463508199504	319.385742193629
51	10	50746.3669761836	2046.98477011654	50787.6353843195	2.30991981533251	323.415814183454
52	7.9433	50969.9441996305	2230.68192758437	51018.7333591838	2.50593082489291	328.675912170173
53	6.3096	51233.7942844764	2443.38550798301	51292.0248140456	2.73041822292075	333.325998158433
54	5.0119	51507.4741598117	2707.4661614026	51578.5834173334	3.00895647090566	337.311073148371
55	3.9811	51781.7689007252	3003.94839382565	51868.8277912744	3.32010440879301	341.476151137856
56	3.1623	52097.2057506711	3365.93383704123	52205.8268550849	3.69666910017443	345.361224128047
57	2.5119	52416.1723638401	3786.36855185443	52552.7517080339	4.13167843546693	349.151292118478
58	1.9953	52756.3078000755	4235.29640751085	52926.0403615818	4.58988330237492	353.141365108404
59	1.5849	53127.4342636224	4877.41558366264	53350.8524225365	5.24539089557795	358.431463095048
60	1.2589	53549.4463850411	5597.42646981883	53841.196041966	5.96735345473226	362.966548083598
61	1	54030.423201848	6518.77529339995	54422.2478651575	6.8794891141086	371.046698063197
62	0.79433	54577.4450934313	7613.89817166587	55105.9793334173	7.94186612062129	376.276795049992
63	0.63096	55194.1161322926	8899.60916711298	55907.0076014837	9.1596480328436	382.141901035184
64	0.50119	55800.6543763683	10358.4236877248	56753.9423311309	10.5162631507761	387.386999021942
65	0.39811	56595.1706210894	12411.2634545351	57940.079376612	12.3691019278162	392.222090009734
66	0.31623	57697.595923682	14617.3458248549	59520.4114093299	14.2164334465061	398.097198994901
67	0.25119	58939.7232366458	17321.0447328348	61432.1541690447	16.3768632595748	404.257310979348
68	0.19953	60395.7328067954	20927.6451473809	63918.7834105478	19.1116446743302	411.292440961586
69	0.15849	62011.6928511019	24445.6629633099	66656.1361614604	21.5148815899439	419.417592941072
70	0.12589	64193.9921941889	29030.2182945176	70452.9787025	24.3337388774532	428.737765917541
71	0.1	67102.7951796072	34359.556221513	75388.090734914	27.1144252402561	440.002973889099
