Index	Frequency (Hz)	Z' (Ω)	-Z'' (Ω)	Z (Ω)	-Phase (°)	Time (s)
1	1000000	3868.43447257724	4044.76394289814	5596.86524961901	46.2765082187167	24.086275939188
2	794330	4663.6911573666	3786.56497537248	6007.33630854949	39.0739904683756	25.9363059345171
3	630960	5498.35882291584	3701.6724830651	6628.29758817585	33.9497114190308	28.3563499284071
4	501190	6298.9551513455	3624.67553655737	7267.40041170015	29.9178770202888	30.5563939228525
5	398110	7253.71967218468	3523.4201091053	8064.17623492237	25.9076893074495	38.1515339036766
6	316230	7866.58744705179	3309.69897507293	8534.47745135644	22.8178865086462	41.6165958949282
7	251190	8340.06968400094	2992.46483556358	8860.67763357161	19.7382775992291	48.8967348765476
8	199530	8870.41422232798	2774.60084664952	9294.22715097424	17.3693019902464	50.6767658720535
9	158490	9317.76080280893	2526.93970310171	9654.3301498071	15.1734269327892	52.5618008672942
10	125890	9699.14479555832	2281.44957585568	9963.85577637382	13.2365896814588	57.0168838560462
11	100000	10019.0289132661	2035.47211596104	10223.7022208062	11.4839512932657	58.8969188512996
12	79433	10287.9882583811	1807.45773714343	10445.5543594462	9.96439007772871	60.7219518466918
13	63096	10504.3411756001	1594.08266072126	10624.6074309887	8.62906223512383	62.4919858422229
14	50119	10694.8225399373	1403.01521889605	10786.4582169127	7.4737477196314	64.0970148381706
15	39811	10849.4686985688	1223.23795395301	10918.2087419693	6.43272454071822	65.8770458336764
16	31623	10962.1897911165	1061.78392969121	11013.4912779649	5.53233952316527	68.2420938277053
17	25119	11076.4359778699	941.053159104017	11116.3400011024	4.85618319780281	70.2771298225673
18	19953	11169.3419766823	832.755130979011	11200.3429099403	4.26392520118846	72.5821718167476
19	15849	11242.379033183	738.428843732304	11266.6039019311	3.75793860571987	74.5972098116602
20	12589	11320.4380355126	659.185826814109	11339.6138942273	3.33255347766656	76.3222408073049
21	10000	11379.6469073737	582.311294106114	11394.5359791324	2.92934431458908	79.7673067986069
22	7943.3	11448.7379360039	527.464391981871	11460.8821219007	2.63785650559383	81.9123437931912
23	6309.6	11507.3522858322	481.243019298568	11517.4107973047	2.39474167048233	84.0323817878386
24	5011.9	11556.6794611266	440.782423634815	11565.0823305419	2.18425516878148	89.1924797748106
25	3981.1	11602.8517239199	405.547817256456	11609.9370006625	2.00181157804124	91.1325157699125
26	3162.3	11654.8647026834	374.944443015892	11660.894244148	1.84260633632415	92.9425487653426
27	2511.9	11694.6559053097	349.059792248379	11699.8640796446	1.70964558986039	94.7525807607727
28	1995.3	11737.6127471977	326.141363441859	11742.1429557013	1.59161127792765	96.5926137561271
29	1584.9	11776.6078730269	305.444364374991	11780.568290824	1.48572071608744	98.3326487517339
30	1258.9	11816.8843176597	286.942461200652	11820.3676318883	1.39100640841384	100.012679747492
31	1000	11856.9039919766	270.581756794116	11859.9910102015	1.30729761133292	102.047717742354
32	794.33	11889.0554473022	255.285398659314	11891.79591415	1.23008330321715	103.84774773781
33	630.96	11923.7239730442	241.273132774482	11926.1647695287	1.15920546345923	105.307775734123
34	501.19	11955.8485549098	229.398171073983	11958.0490962711	1.09920549890855	106.997806729857
35	398.11	11984.8837630928	217.590915541633	11986.8588304598	1.04011618650887	108.627837725741
36	316.23	12015.5340859986	207.159330818257	12017.3197660767	0.987736326114808	110.197873721777
37	251.19	12041.9827244269	198.920051548266	12043.6255804597	0.946375955974216	111.90789971746
38	199.53	12070.9299354536	190.869794438148	12072.4388913367	0.905905543795899	113.442928713584
39	158.49	12090.5378175918	184.932385307118	12091.9520634906	0.876306672846671	115.062957709494
40	125.89	12114.6790060969	179.422117679722	12116.0075815872	0.848506060761852	116.857992704962
41	100	12137.2179714609	175.569207114857	12138.4877407872	0.828746180707785	118.648024700443
42	79.433	12157.6473450256	172.328652974841	12158.8686205026	0.812085022727474	120.523060695709
43	63.096	12178.3157767515	170.461224260976	12179.5087005696	0.801922954419055	122.253090691341
44	50.119	12148.4824111173	168.268189942117	12149.6476935331	0.793551022397896	150.468613620103
45	39.811	12205.4442883225	174.036383298595	12206.6850101924	0.816920244573481	159.943788596181
46	31.623	12229.7035855896	172.896835536574	12230.9256848009	0.809962318171758	162.17383059055
47	25.119	12235.9855203543	176.659430707597	12237.260731421	0.827161536979451	164.648873584302
48	19.953	12247.1052887602	189.955401773247	12248.5783260198	0.888599382266997	167.023920578305
49	15.849	12283.3617143902	206.623174809002	12285.0994356137	0.96370356214921	169.728971571476
50	12.589	12294.2166195472	215.782269212305	12296.1101278436	1.00552515017551	172.174015565302
51	10	12310.8290598093	240.936229954931	12313.1865252967	1.12119719394525	174.939067558321
52	7.9433	12322.514978436	267.928119023048	12325.4274112805	1.24558436528029	177.619114551555
53	6.3096	12362.4590645597	294.947953927854	12365.9770507001	1.36672384255361	180.174161545104
54	5.0119	12380.9815618828	339.263581892288	12385.6289389631	1.56962582112245	183.204218537454
55	3.9811	12413.2187057657	387.494913697676	12419.2653142331	1.78798233517416	186.229275529816
56	3.1623	12438.7756723363	449.625113155812	12446.8993315237	2.07017239363975	189.374331521876
57	2.5119	12433.7565322545	509.578851665113	12444.1943133915	2.34686815523072	192.499392513986
58	1.9953	12498.704456898	587.844101006653	12512.5206808209	2.69277382983216	196.109459504871
59	1.5849	12431.5822628672	750.63578268053	12454.2238472205	3.45540152300355	199.529520496236
60	1.2589	12517.0813991444	886.478308759226	12548.4329916012	4.05100844066014	203.399593486465
61	1	12637.1820241034	1054.01120587588	12681.0610412707	4.76775123984212	209.479706471115
62	0.79433	12704.5717941085	1259.08083593478	12766.8096650289	5.65979096151955	213.119773461924
63	0.63096	12796.8829060291	1523.84593150912	12887.2929094359	6.79077353790804	217.344851451257
64	0.50119	12849.9571105373	1843.8722742567	12981.5739687613	8.16577353546707	221.654931440375
65	0.39811	12976.1951206995	2224.31579606486	13165.4555778025	9.7268287800049	226.345016428534
66	0.31623	13074.3666442521	2737.17174755714	13357.8131564997	11.8243281085905	231.770119414837
67	0.25119	13247.6883322119	3283.51580862839	13648.5428604279	13.9205559646055	238.175237398665
68	0.19953	13387.699383986	3979.79012007563	13966.7184476466	16.5557473064667	244.890361381711
69	0.15849	13622.1471185595	4765.3456342692	14431.611522409	19.2810308299823	252.70550536198
70	0.12589	13888.5484229999	5871.18020440524	15078.5454965197	22.9154983075991	261.735673339181
71	0.1	14302.8389493161	7140.68998787264	15986.2645891084	26.5306558372633	277.115956300349
