Index	Frequency (Hz)	Z' (Ω)	-Z'' (Ω)	Z (Ω)	-Phase (°)	Time (s)
1	1000000	3658.90888350806	4160.8962836202	5540.81872116916	48.6730261068509	30.1433909238953
2	794330	4514.41569959301	3992.25546446838	6026.44611709999	41.4874523395508	32.4884309179746
3	630960	5408.60041030366	3983.80130534256	6717.41254046423	36.3741671089649	35.5734899101856
4	501190	6281.35227704162	3942.59921924551	7416.16309366854	32.115146801287	38.0685369038862
5	398110	7327.00442700499	3847.78712068205	8275.89630187797	27.7062756351799	45.9236808840539
6	316230	8079.15654638212	3623.56938359881	8854.54829896499	24.1566339356484	47.8687158791431
7	251190	8558.13453496923	3286.25708064096	9167.3961580536	21.0064009607247	54.7188448618482
8	199530	9135.58815219437	3043.68299891174	9629.27708005011	18.4264079156392	57.9939048535795
9	158490	9629.46064265477	2774.98917716619	10021.3311092802	16.0757652446327	60.7989578464974
10	125890	10044.2557109271	2495.73725015482	10349.6752223585	13.9539283485848	63.3840058399708
11	100000	10384.9510471445	2223.24330872615	10620.2645476176	12.0836615289136	65.7790488339239
12	79433	10675.4268420845	1968.42583628943	10855.3875349372	10.4473369607728	68.254095827675
13	63096	10915.2215811422	1731.8527759842	11051.7589642155	9.01562523818285	70.6891378215271
14	50119	11118.4059361749	1518.64331708119	11221.6410602943	7.777798633247	72.8141798161619
15	39811	11274.4129054753	1320.13431058491	11351.4378367294	6.67842007784728	75.4942268093954
16	31623	11405.4884696008	1147.984154988	11463.1162800654	5.74757239977638	77.709267803803
17	25119	11506.2561919744	1008.61464978931	11550.3781352438	5.0096246907396	79.8893087982989
18	19953	11609.9103495719	889.549310061915	11643.9390371183	4.38143215888772	82.2743537922772
19	15849	11691.8741264705	789.015564548097	11718.4668856608	3.86070035144175	84.4343957868236
20	12589	11771.0789953863	701.356598903065	11791.9549606692	3.40982506998421	86.5844347813953
21	10000	11842.2049669691	618.032066038143	11858.3212182147	2.98749535163002	90.2095007722429
22	7943.3	11908.112292327	558.882608298414	11921.2200775142	2.68708705467582	92.4345417666252
23	6309.6	11965.807539917	508.36182624609	11976.6014306529	2.43272189100879	94.2295757620932
24	5011.9	12020.2565182828	464.972673215875	12029.2462919402	2.2152352360829	96.3196127568164
25	3981.1	12071.072936346	427.398618450105	12078.6369849267	2.02781572814821	98.0746457523853
26	3162.3	12117.6585658868	396.031115664108	12124.1284125493	1.87188289224283	99.7696767481058
27	2511.9	12170.2836513292	369.892877553057	12175.9034529136	1.74086153334467	101.694716743246
28	1995.3	12202.7554740809	345.915428687302	12207.6573774011	1.62374702539392	103.774752737994
29	1584.9	12249.6981302763	325.331237743066	12254.0174921185	1.52132125720461	105.524783733576
30	1258.9	12288.6742501456	307.733230549606	12292.5267771674	1.43450226609053	107.334817729006
31	1000	12324.5738721781	291.384318530549	12328.0179247056	1.35436585465297	109.099849724549
32	794.33	12360.9572791737	276.773735450698	12364.0555061109	1.28269333855486	110.864881720093
33	630.96	12398.0471304884	263.91619710759	12400.8557934082	1.21946631736725	112.544915715851
34	501.19	12430.5627928692	253.191075840333	12433.1410781166	1.16686385320442	115.00496070964
35	398.11	12464.9184978059	243.607750208993	12467.2987408221	1.11961576957002	116.999996704603
36	316.23	12499.8275907503	234.928834167349	12502.0350885608	1.07672254038957	118.925033699743
37	251.19	12522.3352417136	228.069931460482	12524.4119941616	1.04341559714732	120.705067695249
38	199.53	12560.3747704768	224.311321877744	12562.3775593616	1.02311644558282	122.450098690843
39	158.49	12583.9766105823	220.772016427601	12585.9130625839	1.00508826717954	124.940142684556
40	125.89	12612.2384710061	218.815964645636	12614.1365013983	0.993953103350636	127.280187678648
41	100	12642.0562429632	218.638364650012	12643.9467250041	0.990804546938256	128.91521867452
42	79.433	12668.0218773786	219.102061492844	12669.9164953481	0.990870712590965	130.585249670304
43	63.096	12690.7130048824	221.79695544272	12692.6510415175	1.00126256119193	132.380280665772
44	50.119	12587.8636311543	180.079336386518	12589.1516538618	0.819605492786416	160.615804594484
45	39.811	12723.7355829802	229.271024351532	12725.8010509438	1.03231008795097	170.235983570195
46	31.623	12740.825189724	242.05187755389	12743.1242490424	1.08838184662124	172.321023564931
47	25.119	12769.6083739426	256.417956974258	12772.1825931406	1.15036359119705	174.246057560071
48	19.953	12799.7455773455	267.768023037784	12802.5460967316	1.19844101801706	176.701103553873
49	15.849	12831.1285162055	289.69649192122	12834.3984298763	1.29338326155378	178.901144548318
50	12.589	12862.5907835984	312.704458363502	12866.3913256434	1.39265234192842	181.331186542183
51	10	12880.9621726458	342.029387082096	12885.502341576	1.52102275750451	184.476245534242
52	7.9433	12917.5903396905	375.845861357835	12923.0569253395	1.66658853729434	187.636305526264
53	6.3096	12953.9825400554	410.841670673366	12960.4959213149	1.81655378173	190.686359518563
54	5.0119	12994.7476373863	466.921770628171	13003.1335492351	2.05784238551065	194.496433508944
55	3.9811	13032.5471469605	526.642053463225	13043.1835450639	2.31404945756823	197.581489501155
56	3.1623	13081.1089898624	602.508624759972	13094.9772450191	2.63714800065814	200.08653549483
57	2.5119	13096.4060054278	691.017911746145	13114.6237465418	3.02034993098896	203.746604485589
58	1.9953	13195.025203123	916.012158124107	13226.782238507	3.9711604724757	207.086666477156
59	1.5849	13272.328123006	1000.65589231602	13309.9964695549	4.31160945784784	212.036757464659
60	1.2589	13321.8319646203	1073.49651142384	13365.014091037	4.60703948552713	215.441820456062
61	1	13411.5097440369	1307.42198431079	13475.0861169588	5.56788978271432	223.496970435724
62	0.79433	13520.2872882582	1540.81190662843	13607.8017948765	6.50154682845914	227.007035426862
63	0.63096	13619.4428416789	1828.22660013297	13741.6023745119	7.64548216855952	231.037109416687
64	0.50119	13719.6208643945	2159.16073492144	13888.4834212363	8.94371418064241	236.057201404013
65	0.39811	13882.4198150068	2591.57495855497	14122.2463045333	10.5742808907592	240.797287392045
66	0.31623	14022.4282500368	3037.38030175321	14347.6190751257	12.2219516721597	250.882474366583
67	0.25119	14157.0529941945	3689.92110918602	14630.0262225482	14.6086598826692	256.71758435185
68	0.19953	14485.7417212629	4492.47656066778	15166.3792272014	17.2302799953911	263.832714333886
69	0.15849	14623.0750007538	5325.67708162789	15562.6848215675	20.0114617688573	272.607880311731
70	0.12589	14899.1036307756	6404.03211773302	16217.1180043048	23.2593229783631	282.098054287771
71	0.1	15384.8923825928	7867.19547898289	17279.6897636645	27.0833175384934	292.52324926145
