Index	Frequency (Hz)	Z' (Ω)	-Z'' (Ω)	Z (Ω)	-Phase (°)	Time (s)
1	1000000	3362.11216944934	3399.27026792681	4781.09156933546	45.3148735934123	21.0811809467751
2	794330	4014.91754297481	3247.51082932227	5163.90254201726	38.9680500928138	22.8562119422936
3	630960	4700.99929499746	3203.50003127392	5688.74387030552	34.2725075984294	24.7512469375091
4	501190	5415.84959504212	3132.54949987195	6256.54003465701	30.0452634997582	26.6962849325984
5	398110	6165.23608616912	3040.46048478394	6874.19347689127	26.2507662871224	34.3564279132584
6	316230	6733.4691415404	2832.57873562499	7305.00574767685	22.8151040899517	35.9664539091934
7	251190	7115.21508952342	2574.34165472394	7566.60562771898	19.8905285598934	42.6265818923782
8	199530	7567.87146558906	2376.39154390561	7932.2074663755	17.4328392516767	44.5216138875937
9	158490	7953.42278875272	2155.84436632816	8240.4246849589	15.166097000206	46.2216438833016
10	125890	8279.19010337627	1931.78428011249	8501.57510539861	13.133846781838	48.2866818780878
11	100000	8536.30453164185	1710.39393158249	8705.97165502642	11.3301511456284	50.961731871334
12	79433	8756.41109395886	1503.42502714678	8884.53837059963	9.74236298557329	52.7067668669282
13	63096	8930.59793908731	1314.8456631643	9026.87092339159	8.37544658100467	54.366796862737
14	50119	9085.60727868105	1135.73298611765	9156.31743869651	7.12521551670367	56.4068328575864
15	39811	9205.58884779033	991.257438082724	9258.80431498128	6.14592629392062	59.9418998486613
16	31623	9291.47514077553	856.569038869808	9330.87460048628	5.26713587822713	61.6019308444701
17	25119	9365.58056871703	747.635819795557	9395.3743250693	4.56413046714347	63.1219568406324
18	19953	9443.14553754223	657.251262596823	9465.99053799384	3.98141606416159	64.7319888365674
19	15849	9500.37727141573	576.668706752521	9517.86294798261	3.47356666337116	67.3520368299525
20	12589	9554.97225811984	511.680186218502	9568.66299262381	3.06532954072731	69.102069825534
21	10000	9605.46875825614	457.502687861309	9616.35787474838	2.72690264576361	70.937102820901
22	7943.3	9640.35615909577	408.900886461563	9649.02413766101	2.42877545375998	74.7171738113573
23	6309.6	9678.60631182153	371.382353970905	9685.72893447223	2.1974452371164	80.0422707979127
24	5011.9	9718.96009874316	339.610058605835	9724.8917933758	2.00127472842534	82.0073067929515
25	3981.1	9751.41050200275	312.237808247268	9756.40811095295	1.83397041959543	83.8423407883184
26	3162.3	9786.01156885054	289.39636095657	9790.28971376289	1.69388304161819	86.0723837826881
27	2511.9	9817.7041918192	271.64356195272	9821.46149118423	1.58489799864724	88.0824217776133
28	1995.3	9864.43448696945	255.164007978	9867.73410761963	1.48174346289567	91.5924857687512
29	1584.9	9894.51474456696	241.304732768759	9897.45674426059	1.39703695363773	93.2425147645853
30	1258.9	9906.80786579428	230.449726586872	9909.48783571822	1.33256000417598	97.9976037525798
31	1000	9934.09246730193	218.136740289965	9936.48714518211	1.25792128689838	99.462631748881
32	794.33	9958.329760512	208.296212136932	9960.50796551509	1.19826859462362	101.152662744614
33	630.96	9983.57585293073	201.256939097212	9985.60419637972	1.15485791424703	102.877692740259
34	501.19	10014.2787099981	193.135960820697	10016.1409525267	1.10487275840031	104.462722736257
35	398.11	10036.2248349304	185.181536528763	10037.9331108922	1.0570624743753	105.922749732571
36	316.23	10068.8218832021	179.600044015029	10070.4235408179	1.02189049540932	107.492779728607
37	251.19	10085.5820715861	176.587726860193	10087.1278839904	1.0030851640866	109.407813723772
38	199.53	10108.8782274176	171.041011272709	10110.3251206029	0.969345245592055	111.142845719391
39	158.49	10137.2552515477	168.113335334467	10138.649127401	0.950089692742098	112.957879714809
40	125.89	10153.566657133	167.234791682499	10154.9437879484	0.943607479484437	114.722914710352
41	100	10178.9819960766	169.503891781052	10180.3932166582	0.954020751993994	116.282943706414
42	79.433	10195.2624258672	168.505788200405	10196.6548501436	0.946889948140595	117.982975702122
43	63.096	10218.470999462	166.412639434581	10219.8259639491	0.9330064260832	119.438001698448
44	50.119	10267.3253734733	173.70964236587	10268.7947376807	0.969276762003126	121.133031694168
45	39.811	10327.591722658	178.957939653442	10329.1421102665	0.992729849861115	130.513205670486
46	31.623	10343.7972724862	184.963711908829	10345.4508644629	1.02443140121816	132.408239665701
47	25.119	10365.6185793964	194.537047079806	10367.4439085155	1.07517398162719	134.403277660664
48	19.953	10389.2752744016	208.147694139519	10391.3601703467	1.14775947111346	136.67831965492
49	15.849	10414.564991683	225.30956722011	10417.0018895587	1.2393483422571	138.878359649366
50	12.589	10440.682318325	244.325567092637	10443.5406953254	1.34055120961394	141.383405643041
51	10	10453.5415709801	265.283343272563	10456.9071253611	1.45370391428884	144.313461635644
52	7.9433	10485.0281977355	299.955358523002	10489.3178769839	1.63866892704907	146.898508629117
53	6.3096	10508.6967960736	326.969878054529	10513.7822715216	1.78213840281274	149.378553622855
54	5.0119	10540.3850093161	361.962999660605	10546.5981888824	1.96679776406085	152.043605616127
55	3.9811	10571.2745548077	411.599947612806	10579.2844857297	2.22972484503882	154.728652609348
56	3.1623	10613.7734682632	480.888597660786	10624.6619277494	2.59418167280542	157.578707602152
57	2.5119	10666.7965988456	531.601940003857	10680.0351265228	2.85309350347394	160.663765594363
58	1.9953	10726.5650171655	665.924138500659	10747.2160127968	3.55246416136916	163.728820586624
59	1.5849	10805.5829403291	701.883843748845	10828.3546123337	3.71646454056239	166.868880578697
60	1.2589	10794.3579761958	770.844765157174	10821.8466894625	4.08466195101196	169.933934570958
61	1	10890.0861508751	1012.58235996117	10937.060821317	5.31220408339908	175.429040557084
62	0.79433	10982.4863221846	1189.57390757952	11046.7231294428	6.18192235781488	178.764100548664
63	0.63096	11079.4024619275	1382.26808942554	11165.2955171105	7.11148587648952	182.454169539348
64	0.50119	11182.55054325	1638.08305481733	11301.8915561432	8.33373758048035	186.734246528541
65	0.39811	11267.8844178535	1930.06131500762	11431.9882756148	9.71979332276633	191.419334516713
66	0.31623	11392.2014315202	2317.54142968994	11625.5430726766	11.4988981640233	196.349427504265
67	0.25119	11589.6260064447	2766.26240924184	11915.1852140889	13.4244365965539	202.234534489407
68	0.19953	11706.4633343011	3286.45518168418	12159.0325050374	15.6814767197217	208.87965647263
69	0.15849	11875.193424728	3914.11283933593	12503.6194037469	18.2424334997814	216.584803453176
70	0.12589	12142.3894098666	4740.54406996308	13034.9675358285	21.3263092244675	225.524966430604
71	0.1	12422.9517383903	5555.04523637132	13608.3892313715	24.0922763439431	235.97515740422
