Index	Frequency (Hz)	Z' (Ω)	-Z'' (Ω)	Z (Ω)	-Phase (°)	Time (s)
1	1000000	2306.27660017323	1903.46234298294	2990.33119364072	39.5342208027958	23.6342289403293
2	794330	2628.16968532013	1838.53596419814	3207.4117893538	34.974710408516	25.664263935204
3	630960	2983.12286802287	1807.12855378343	3487.79810992844	31.2068167609035	27.7743009298766
4	501190	3340.11025319119	1766.2406871485	3778.35184550245	27.8697571250322	30.1393469239055
5	398110	3703.5767488804	1661.71228394233	4059.28176522058	24.1647100613124	36.2794599084032
6	316230	4003.11364161608	1572.73472790224	4300.97818548786	21.448764707568	38.5595029026466
7	251190	4200.56418217663	1403.66955299444	4428.88560053077	18.477677052657	46.2796458831551
8	199530	4448.66071282515	1300.93439958448	4634.97707112519	16.3006521968186	48.3746838778657
9	158490	4660.56805777526	1186.759968694	4809.29244738243	14.2861012877496	50.334719872917
10	125890	4835.61488823146	1069.83216796091	4952.54603359622	12.4751759650176	53.5297808648503
11	100000	4980.62929209178	955.829046602736	5071.51627342082	10.863512908224	57.2648468554202
12	79433	5105.6184712823	850.817559104834	5176.02458390415	9.46102447302303	60.1499008481361
13	63096	5207.21761448338	754.046758253224	5261.53036655859	8.23961256594241	62.5999458419503
14	50119	5293.05232079344	665.825171272555	5334.76578955036	7.16970845895881	66.5150198320657
15	39811	5364.85311361376	592.070197178958	5397.42494612373	6.29773041183621	69.6800788240747
16	31623	5423.00939558849	525.209421059489	5448.38286472332	5.53174859922856	71.9501208183434
17	25119	5476.95509485036	469.400916108613	5497.03322993875	4.89854851321469	74.3001648124101
18	19953	5525.78351638065	425.63278551579	5542.15181477466	4.40460668627928	77.1552148052018
19	15849	5570.02786018047	388.453142229541	5583.55677027597	3.98934225920519	79.6202617989782
20	12589	5610.15941502509	356.636887232739	5621.48365926022	3.6373885911501	81.8703017932974
21	10000	5646.40625000152	332.145569798568	5656.16691935387	3.36650137235883	84.9103617856219
22	7943.3	5683.11958013581	312.171232559362	5691.6868361287	3.14407208578572	87.3204027795372
23	6309.6	5717.35095471918	295.863664830921	5725.0010696589	2.96232154480465	89.485446774071
24	5011.9	5752.18306177107	284.907907545662	5759.23454044963	2.83556539642072	91.5554817688446
25	3981.1	5786.66243751379	276.667290973312	5793.27256010172	2.73729566201234	94.3355337618257
26	3162.3	5819.71194901979	270.473361604844	5825.9937357417	2.66092875998721	97.4555937539483
27	2511.9	5849.74953309008	267.901654260244	5855.88088132289	2.6221492380759	99.3056257492774
28	1995.3	5884.60706740915	266.805786751666	5890.65239728554	2.59599040365919	102.925692740138
29	1584.9	5917.18419370696	268.306190055195	5923.2640489748	2.59621622132698	105.185735734432
30	1258.9	5952.05171339814	271.110434456162	5958.22292857835	2.60796700766076	107.065769729685
31	1000	5986.91149242009	275.644706496352	5993.25364241254	2.63610594895991	109.200810724294
32	794.33	6021.63570481509	282.454915018897	6028.25657553843	2.68558607903987	111.280848719043
33	630.96	6058.4796423701	289.939295291465	6065.41345432998	2.73990078258531	113.990897712201
34	501.19	6096.87127411683	301.320241788783	6104.31267394312	2.82937618083546	116.375941706179
35	398.11	6136.57945245791	314.015009370913	6144.60843361388	2.92932828167286	118.26097770142
36	316.23	6178.40212316747	328.182819854215	6187.11215017214	3.04056539800168	120.211014696496
37	251.19	6222.87940041793	345.98230573393	6232.49001507638	3.18227890574697	122.261051691321
38	199.53	6269.11677163688	367.99814421329	6279.9082581327	3.35941631870012	124.346088686056
39	158.49	6314.9975923052	391.32695974743	6327.11082408437	3.54596329145991	126.761133679959
40	125.89	6368.43558513354	420.237859802316	6382.28577085095	3.77533831272579	129.506185673028
41	100	6422.10444718627	452.64531226457	6438.03644827246	4.03167652803824	134.521276660366
42	79.433	6480.18671253429	490.202899589403	6498.70130965194	4.3259812876102	136.956324654219
43	63.096	6544.40087592661	532.893959995297	6566.06113262955	4.65517947671021	140.696391644776
44	50.119	6618.05594112195	564.856536897592	6642.11768542951	4.87841895363606	143.996452636444
45	39.811	6685.32599857046	627.441172377803	6714.70521556657	5.36170282830352	154.936654608823
46	31.623	6767.20551665447	686.162241046084	6801.90334580521	5.78973045697514	157.916712601299
47	25.119	6856.97991228322	750.049610736121	6897.87995952531	6.24247114339882	159.881747596337
48	19.953	6951.20037804117	826.234616949561	7000.13216574698	6.77849621067618	162.026786590922
49	15.849	7063.81938774489	904.336669300332	7121.47240071334	7.2955353189948	164.426831584862
50	12.589	7184.26116084868	994.437259005888	7252.7590535863	7.88074015554081	166.966880578449
51	10	7309.65874156257	1088.4978830509	7390.25970852909	8.46980501651338	170.891951568539
52	7.9433	7449.50588291086	1195.41460728322	7544.80973801391	9.11647483617884	173.632002561621
53	6.3096	7605.50065456177	1312.28569830839	7717.88403388676	9.78966785861631	176.597056554135
54	5.0119	7770.24440241431	1439.58209899069	7902.47396028518	10.4960963468097	179.387110547091
55	3.9811	7964.39637776172	1582.99094094241	8120.18903605143	11.2415156231493	182.677169538784
56	3.1623	8158.65591634343	1740.75132918054	8342.29474133643	12.0441742296371	185.5622225315
57	2.5119	8363.9694485844	1922.08965337836	8581.98191401482	12.9422025279981	188.582280523876
58	1.9953	8585.07809584907	2097.41510753063	8837.57410408112	13.7289657940929	192.112344514963
59	1.5849	8848.71100782892	2243.66234277929	9128.72976971488	14.2279543104145	195.692410505924
60	1.2589	9135.81801409666	2585.68625491072	9494.67978372769	15.8029632741264	199.077475497378
61	1	9373.15225267197	2872.64989329364	9803.47390271477	17.0390656911152	209.367664471397
62	0.79433	9671.62204851103	3228.68573660014	10196.3074019456	18.4605996496746	213.142736461866
63	0.63096	9977.83414008439	3631.56483039125	10618.1654368525	19.9996460772831	216.962805452222
64	0.50119	10307.4884748242	4148.82932353699	11111.125209198	21.9250971746264	221.162882441617
65	0.39811	10632.0493508309	4767.06600120172	11651.8406982896	24.1499164886328	225.99797342941
66	0.31623	11019.7217085343	5517.97752933434	12324.0554424175	26.598802606295	231.183069416319
67	0.25119	11529.6045947869	6482.08196717842	13226.8351748009	29.3452166311706	236.743172402281
68	0.19953	12014.3657354117	7605.4221628639	14219.2626496459	32.3349293635108	243.298291385731
69	0.15849	12613.7152211832	8871.9946541829	15421.3521075475	35.121056468652	251.28344136557
70	0.12589	13314.5310522827	10469.8389619334	16937.9533896814	38.1796272167218	260.413610342519
71	0.1	14360.954768933	12322.576899709	18923.0791184887	40.6316104182938	274.898879305947
