Index	Frequency (Hz)	Z' (Ω)	-Z'' (Ω)	Z (Ω)	-Phase (°)	Time (s)
1	1000000	2596.40906755802	2115.86450538446	3349.36152889522	39.1772642052111	27.9693149293843
2	794330	2952.77506571096	2007.88988457331	3570.78456046513	34.2157398138688	30.8443639221255
3	630960	3348.49679610226	1947.21121928301	3873.50775473713	30.1787725916132	33.4594109155231
4	501190	3738.955446176	1872.09217863353	4181.44914518759	26.5970933596804	35.8344559095267
5	398110	4141.66019478695	1734.20910514845	4490.08133439278	22.7201904652322	44.6946208871569
6	316230	4454.2132847972	1598.62853124636	4732.4020504791	19.7431921207863	46.8596608816907
7	251190	4636.24017393418	1413.18036142759	4846.83419195724	16.9518360547856	54.389799862679
8	199530	4881.2897613232	1287.44722480278	5048.21850662697	14.7753634916917	56.3148338578187
9	158490	5083.11662503641	1154.15063776422	5212.49827993958	12.7924418755486	58.8148808515067
10	125890	5245.54235543763	1021.28631459739	5344.03783099204	11.0174302891936	61.3349278451442
11	100000	5379.39879167884	896.581579293578	5453.60338567486	9.46247883598282	63.4049658399179
12	79433	5486.47118860417	781.519877847825	5541.85342848897	8.10695402837503	66.3400208325075
13	63096	5570.0449060389	680.286481043093	5611.43385879045	6.9632217623819	69.0950728255517
14	50119	5644.25725131876	590.217691315111	5675.03276133326	5.96970035080379	71.7501208188484
15	39811	5700.64269053257	511.71202813046	5723.56325070806	5.12934650837755	74.5801748117032
16	31623	5748.7695348035	443.592893878481	5765.85863681935	4.41237666961577	77.1902238051134
17	25119	5785.52445011999	389.365019294894	5798.61175465186	3.85019242233174	80.7302867961756
18	19953	5821.78542063584	345.172461610909	5832.009045962	3.39308283868796	83.0203307903938
19	15849	5854.83013628709	306.868676902326	5862.86656079083	3.0002930841414	84.8653647857356
20	12589	5883.04638954443	275.769616925058	5889.50623593785	2.68379282071282	86.7753977809132
21	10000	5908.71937601271	250.487428919481	5914.02643015017	2.42747765443073	88.9704387753712
22	7943.3	5935.67275968095	229.402227459803	5940.10408090481	2.21326910494407	90.7704717708266
23	6309.6	5961.68905431459	212.369686052255	5965.47041429998	2.04015064788476	92.3005007669636
24	5011.9	5981.7245140899	198.300029448195	5985.01053166519	1.8987158867369	93.9955337626841
25	3981.1	6004.48477907238	186.880511020657	6007.39226183135	1.78266905787206	95.5855637586697
26	3162.3	6022.22544921339	177.587159566761	6024.8432809822	1.68908438276442	97.0905907548698
27	2511.9	6045.11937891226	169.682314128128	6047.50034254057	1.60783067423275	98.795620750565
28	1995.3	6066.45337856719	163.775864104691	6068.66370200166	1.54643685381434	100.745656745642
29	1584.9	6088.72655086821	158.178820108387	6090.78086540457	1.48815038116955	102.680692740756
30	1258.9	6108.08015743404	152.862989910202	6109.99265984205	1.43360534077304	107.085777729634
31	1000	6128.147159618	148.247537004831	6129.94004392883	1.38578621220534	108.845806725191
32	794.33	6150.51851518445	144.215682989781	6152.20904788247	1.34320970528971	110.375835721328
33	630.96	6167.65756235399	140.606306865381	6169.26008043044	1.3059662706497	113.560895713286
34	501.19	6190.67541475621	137.013137867184	6192.19142879281	1.26787347307235	116.650950705485
35	398.11	6206.27399942128	133.620459365747	6207.71225034261	1.23338186159762	118.730989700233
36	316.23	6225.25283079082	130.552399030771	6226.62161498206	1.20139781920468	123.561079688038
37	251.19	6241.98803852181	128.869181910506	6243.3181833938	1.18273399270014	130.986219669292
38	199.53	6264.35016038261	125.86833717652	6265.61455646524	1.1510777714594	133.156259663813
39	158.49	6281.69317460295	124.603771019021	6282.92887430738	1.1363710159521	137.29633665336
40	125.89	6301.7010425056	122.973292498825	6302.90079723489	1.11794520841247	139.491376647818
41	100	6315.93088642234	123.713917204674	6317.14239948522	1.12214321667853	141.636415642402
42	79.433	6331.61974133402	122.982762924603	6332.81401186134	1.11274959843945	144.376466635484
43	63.096	6348.92196218442	126.1577194134	6350.1752615243	1.13835920304744	146.781510629412
44	50.119	6353.15193155883	118.176265996798	6354.25094683194	1.0656475057438	148.90154962406
45	39.811	6378.23466104584	126.188082652874	6379.48280220036	1.13340161571013	158.856732598925
46	31.623	6393.34144447924	127.738638724421	6394.61742292055	1.14461448379466	162.046793590871
47	25.119	6407.91801310039	131.373377534916	6409.26456209614	1.17449781960707	165.026846583347
48	19.953	6428.31626497214	141.099558670507	6429.86462438848	1.25742277116181	167.53689357701
49	15.849	6440.96328597828	147.544061826741	6442.65297074896	1.31225307093328	171.021957568211
50	12.589	6459.7227863568	158.536748633545	6461.66792533047	1.40589059489957	173.477003562013
51	10	6477.05249730211	171.919185344816	6479.33370487253	1.52043409945713	176.897069553378
52	7.9433	6488.18085676196	191.775937041401	6491.01446925521	1.69304059381806	179.812122546018
53	6.3096	6509.32813944683	211.334277458804	6512.75786467019	1.85953299460377	182.632173538898
54	5.0119	6527.03479658309	235.729446196958	6531.29019471733	2.06838710815623	185.48722553169
55	3.9811	6546.89400316866	270.951602735837	6552.49844408611	2.3699068391039	188.442282524229
56	3.1623	6568.45928291947	306.024712958239	6575.58426881689	2.66748314367648	191.52733751644
57	2.5119	6599.83373203683	367.48634314648	6610.05684566557	3.18700405628027	195.307409506896
58	1.9953	6626.46831943267	429.686843503174	6640.38501684387	3.71009448134027	198.382464499132
59	1.5849	6648.57811771847	524.348970754021	6669.22280558504	4.50937415681024	201.502524491255
60	1.2589	6690.81876022559	579.598898487958	6715.87600878062	4.95094508880091	205.062590482267
61	1	6729.51088838455	691.48067847766	6764.94363062946	5.86675108872416	211.017700467232
62	0.79433	6782.33025659275	824.851350041434	6832.30440328581	6.93412701440122	214.612767458155
63	0.63096	6844.44808365558	968.237654517108	6912.59384930732	8.0518184607566	219.027847447008
64	0.50119	6892.19503967689	1142.32104313563	6986.21856446942	9.41072522745802	223.647934435343
65	0.39811	6982.58325791271	1370.64734298081	7115.83748356462	11.1056807723311	229.738046419967
66	0.31623	7046.12188884725	1661.73588666907	7239.4198544867	13.2699866999476	235.873158404478
67	0.25119	7117.4556356292	1979.84620194179	7387.69014702791	15.5448489935657	242.793288387006
68	0.19953	7261.98743726165	2358.77018686063	7635.46058423253	17.994343747687	249.438411370229
69	0.15849	7319.03877042638	2867.96202881977	7860.88638270243	21.3977069375016	258.35357434772
70	0.12589	7450.77501268301	3511.22933718743	8236.67285667867	25.2324824771325	268.24376032275
71	0.1	7562.96792465017	4235.85527490247	8668.38818577055	29.2522475566341	288.949142270474
