Index	Frequency (Hz)	Z' (Ω)	-Z'' (Ω)	Z (Ω)	-Phase (°)	Time (s)
1	1000000	2298.5473059637	1953.09167466299	3016.27034719882	40.3547881765969	186.966231527956
2	794330	2634.6958515263	1873.42910913764	3232.8561454253	35.4151431801903	190.596296518791
3	630960	3005.88459727014	1840.44831875951	3524.5697930571	31.4783756271163	194.106362509929
4	501190	3376.49651085889	1780.1828695462	3817.03808428315	27.7994451353974	258.942561346233
5	398110	3752.44519869335	1668.04090300229	4106.48334019334	23.9661543536994	288.033100272786
6	316230	4053.73348965658	1564.52479662073	4345.16893163021	21.1039271081802	293.948209257852
7	251190	4246.78526188221	1399.29942166343	4471.37830338784	18.2368529434278	302.158365237123
8	199530	4494.27703565827	1287.05179023511	4674.93619036588	15.9804266145064	303.91839523268
9	158490	4698.26592445368	1162.6900810991	4839.99492991148	13.899848457491	305.853431227794
10	125890	4873.04350162438	1037.97476761281	4982.36335356269	12.0244922718737	307.808467222858
11	100000	5009.95020038409	916.433560378554	5093.07878212351	10.3660930417851	309.953507217443
12	79433	5123.41541352351	803.799548231215	5186.08515291322	8.91630810413057	311.928542212456
13	63096	5215.69021472391	702.504395422581	5262.78793431341	7.67103651077387	314.213585206687
14	50119	5292.03628859871	610.958650745864	5327.18673905532	6.58556753266462	316.283623201461
15	39811	5353.74429651871	531.839487259876	5380.09583861807	5.67313429916484	318.383662196159
16	31623	5402.75623623273	463.628993109404	5422.612542991	4.90473098843056	320.493702190831
17	25119	5448.8353087488	409.932772091396	5464.23380717755	4.30243404305313	322.57374118558
18	19953	5487.44265729014	361.948111197312	5499.36663191742	3.77372559460997	325.638795177841
19	15849	5522.29897909641	322.043005681704	5531.68127354042	3.337528539131	327.798837172387
20	12589	5551.4409538804	289.559166260305	5558.98742354989	2.98580088661944	330.288881166101
21	10000	5579.79199058178	263.059290049234	5585.98951379626	2.6992108734758	332.568925160344
22	7943.3	5604.71840126524	240.73719639671	5609.88616241098	2.45949059798866	334.693965154979
23	6309.6	5630.23829799989	222.686282797775	5634.64040315005	2.26497291209752	336.939006149311
24	5011.9	5657.38768486047	208.38685924142	5661.22429337642	2.10950579347802	338.994042144122
25	3981.1	5681.3044549062	196.947068483693	5684.71709561007	1.98541004050061	341.01908013901
26	3162.3	5701.88601045195	187.293375866602	5704.96125182557	1.88135345747641	343.109122133733
27	2511.9	5723.1552816678	179.416039259664	5725.96686099611	1.79558578347418	345.819171126891
28	1995.3	5746.51211974702	173.54218690404	5749.13197213586	1.7297820892638	347.789205121917
29	1584.9	5766.61455514394	168.565302158492	5769.07771560496	1.67434997970723	349.95424911645
30	1258.9	5787.38435186718	164.526445375996	5789.72249658523	1.62839239999788	351.854281111653
31	1000	5809.18654108614	161.015705602683	5811.41758322245	1.5876851035456	353.894320106503
32	794.33	5833.43357946459	158.783456437424	5835.59418671854	1.55918053458597	356.044360101074
33	630.96	5853.46962496375	156.323376368054	5855.55664718328	1.52978350323771	357.984394096176
34	501.19	5873.32066776562	155.011920403803	5875.36589174411	1.51183086781688	360.014432091051
35	398.11	5895.15038381969	154.116485572693	5897.16456773717	1.49753827238988	362.214472085496
36	316.23	5916.82457585601	153.859226795836	5918.8246910281	1.48956556716122	364.349512080106
37	251.19	5937.69961433399	154.439656128809	5939.70776364016	1.48992815690673	366.479554074728
38	199.53	5961.98207613698	155.315314314824	5964.00478898527	1.49227213720277	368.389587069906
39	158.49	5981.46148306835	157.804569360013	5983.54274285236	1.51124252881068	370.404627064818
40	125.89	6003.68262155524	161.089877062897	6005.84340195918	1.53698265407021	372.539666059428
41	100	6023.64015765848	165.71151042952	6025.91910447234	1.57582056783785	374.864707053558
42	79.433	6048.72864539315	170.511049340579	6051.13148456938	1.61471566886419	376.814745048634
43	63.096	6066.66410977575	178.42720285066	6069.2874118432	1.68464568141355	379.429791042032
44	50.119	6102.35270794733	180.727220742738	6105.02832921433	1.69637541877651	381.664833036389
45	39.811	6111.66733689979	196.709620463078	6114.8321572804	1.84348083172599	391.465015011646
46	31.623	6137.14262614856	206.757686776495	6140.62442710274	1.92954030727605	393.790058005776
47	25.119	6164.77411182828	222.722021878545	6168.79606964745	2.06909188894839	395.975098000259
48	19.953	6192.43460145778	241.778262396439	6197.15281572909	2.23592851972667	398.705149993366
49	15.849	6219.20969301213	260.261219214419	6224.65301104271	2.39631311557165	401.650205985931
50	12.589	6249.75987197084	286.59964188163	6256.32782165573	2.6256134683956	404.420255978937
51	10	6282.89907630714	313.83732462891	6290.7324429983	2.85960684561915	407.410309971388
52	7.9433	6320.31316611511	351.950777180705	6330.10488596565	3.18726126795402	410.600369963334
53	6.3096	6360.27198342328	386.695864552225	6372.01643083106	3.47922253879819	413.96043095485
54	5.0119	6404.2751876283	426.246949190159	6418.44429286143	3.80779782679955	417.015488947137
55	3.9811	6446.03905799298	475.989204821483	6463.58919334123	4.22317724192587	420.050543939474
56	3.1623	6498.80356857995	537.375230760011	6520.98305178152	4.72693878255477	429.360715915968
57	2.5119	6554.61165407601	616.424926624569	6583.53352128727	5.37254902240552	472.661517806644
58	1.9953	6649.15781537854	678.975444467026	6683.73453302857	5.8305204162896	506.502146721205
59	1.5849	6684.07264429203	780.255331513791	6729.45952484512	6.65820402690214	511.042230709742
60	1.2589	6752.42671143834	903.100545383157	6812.55143748782	7.61779383382319	517.597349693192
61	1	6842.84047339805	1013.81663789334	6917.53495977027	8.42748104868984	524.147472676655
62	0.79433	6937.64155270597	1166.22559271557	7034.98062875352	9.54227260955598	538.127729641358
63	0.63096	7033.48643806439	1347.88641950602	7161.47535598109	10.8485450585272	562.573182579639
64	0.50119	7148.13639655092	1561.81381503796	7316.76952872915	12.3250037235242	573.343382552447
65	0.39811	7262.23492611989	1822.21817270758	7487.35835866705	14.0856822068575	595.343791496901
66	0.31623	7385.98026603392	2142.14766176313	7690.35116851238	16.1736858957202	617.674202440523
67	0.25119	7523.89592486833	2521.33276101791	7935.11996002785	18.5265158749285	666.035100318423
68	0.19953	7671.07267315583	2990.06987308152	8233.21770650745	21.2950958047411	705.705835218264
69	0.15849	7834.60243979081	3570.22509330347	8609.73301597848	24.4987347457698	749.90165210668
70	0.12589	8004.19858484187	4286.28586792524	9079.61681609749	28.1692581809543	793.377454996914
71	0.1	8203.41210270629	5155.7229304614	9689.03757152967	32.1487528327965	813.437828946267
