Index	Frequency (Hz)	Z' (Ω)	-Z'' (Ω)	Z (Ω)	-Phase (°)	Time (s)
1	1000000	2397.56870727479	2025.71432179217	3138.76635314214	40.1945857970245	24.8182499373399
2	794330	2744.52224809203	1950.76916988706	3367.18023343777	35.404698241177	26.8982849320884
3	630960	3136.00418819685	1909.71407633282	3671.72032182899	31.33991574605	29.0033249267736
4	501190	3527.55401437024	1849.93422063811	3983.2014692942	27.6735981299167	31.2283689211559
5	398110	3903.80330674302	1747.16156638082	4276.94444630463	24.1110787050502	37.6484889049467
6	316230	4212.45297441272	1635.74143500304	4518.89478786842	21.2217343162216	39.7485258996446
7	251190	4424.57576973841	1461.65204176448	4659.75293694317	18.2808955822033	46.1886468833849
8	199530	4683.72533729914	1348.09500850427	4873.87353007975	16.0571612248784	48.1486808784363
9	158490	4895.58030010542	1222.29238440338	5045.86019898994	14.0185882675007	50.1287178734372
10	125890	5076.76569412131	1095.38146828207	5193.59321414979	12.1756940560202	52.3687598677816
11	100000	5221.94986856883	972.110586909029	5311.66258557776	10.545387863583	56.3488318577329
12	79433	5346.80193858507	857.990924481644	5415.20446492558	9.11642336925589	59.4688898498555
13	63096	5447.32905123065	752.338915265603	5499.03697348949	7.8634612541428	62.5189458421548
14	50119	5531.34238616744	660.457719563399	5570.63308721221	6.80903922318985	65.6590048342269
15	39811	5603.90710815187	576.665293213981	5633.4995994668	5.87529333856484	69.0590688256426
16	31623	5659.12344893519	502.9721173412	5681.4310839005	5.07899432188275	72.3741298172729
17	25119	5704.84625841672	444.731872033398	5722.15494985706	4.45758337684765	74.4541668120213
18	19953	5749.02975628398	393.195147436478	5762.46002698555	3.91255481987888	78.3592398021619
19	15849	5787.16356693072	351.050094636069	5797.80116245411	3.47131586279967	80.514280796721
20	12589	5821.65413117237	314.461124847736	5830.1408749735	3.09187087397074	82.7543207910654
21	10000	5852.98406906523	282.707777563224	5859.80769310957	2.76532160529947	85.5593737839833
22	7943.3	5883.07854943932	258.38732595017	5888.75005659815	2.51483892653	87.7394127784793
23	6309.6	5911.33828327472	237.633003959864	5916.11272237779	2.30202375448741	91.3344787694026
24	5011.9	5932.88260869174	221.127869339734	5937.00207033109	2.13451581286954	95.289553759417
25	3981.1	5957.23538027191	206.036497579945	5960.79729686377	1.9808379823278	97.4945937538498
26	3162.3	5976.67694337863	194.394275694955	5979.83749109762	1.86291588292913	99.4296287489643
27	2511.9	6000.69783028419	185.540373822008	6003.56558061086	1.77100977717181	102.644687740847
28	1995.3	6023.89435057123	178.290379843728	6026.53222063807	1.69529948935989	105.204735734384
29	1584.9	6042.71093984814	172.734886036116	6045.17930614257	1.63739183034048	107.004770729839
30	1258.9	6063.37305880343	168.780859260633	6065.72170715703	1.59448119931398	109.959823722378
31	1000	6085.47940372596	165.27883464728	6087.72343872118	1.55574468965941	112.589874715738
32	794.33	6104.2051385896	163.069547139288	6106.38289424991	1.53025249891938	114.759912710259
33	630.96	6125.38545587936	162.060546771768	6127.52891498019	1.51553233561224	116.899953704856
34	501.19	6149.01239112274	162.289936123058	6151.15366492724	1.51184769918204	119.44499869843
35	398.11	6167.27423894273	163.63174571499	6169.44461734866	1.51983015760731	122.405053690957
36	316.23	6192.83315453317	165.950044230941	6195.05624648119	1.53499407769159	124.490092685693
37	251.19	6211.36704466136	170.669283155777	6213.71133604693	1.57391597795042	127.190142678876
38	199.53	6234.88469919386	175.419137065478	6237.35192897519	1.61159763678429	132.740245664863
39	158.49	6258.78253120462	183.117817518717	6261.46076471017	1.67586680733599	134.760283659763
40	125.89	6277.30104574264	192.648950190517	6280.2565263603	1.75784277892094	138.130347651254
41	100	6305.09924681134	204.846753495628	6308.42600848727	1.86083152807946	142.615428639931
42	79.433	6329.96769323412	218.131419946883	6333.72499511589	1.97363821465069	145.340478633051
43	63.096	6352.58794859471	235.355374902119	6356.94626350783	2.12176596919991	147.680521627143
44	50.119	6359.35472693096	256.421152329093	6364.52231909834	2.30902283747973	150.440573620174
45	39.811	6410.32519773414	277.838635563339	6416.3434640079	2.48178113865132	160.605763594509
46	31.623	6442.08932820461	304.835113583432	6449.29758648499	2.70917494256599	163.935824586102
47	25.119	6478.41413099917	332.908155564651	6486.96211587297	2.94168741981586	167.230883577783
48	19.953	6517.83322863479	373.975973446968	6528.55328729202	3.28387924840615	169.77093057137
49	15.849	6557.34468539571	418.062215312817	6570.65790761927	3.64794388405009	172.660986564073
50	12.589	6597.09729156577	467.200413739677	6613.61995438073	4.05087171514484	175.301033557407
51	10	6649.16637101951	523.545232834867	6669.74610013911	4.50209379627061	178.616097549038
52	7.9433	6705.57031359167	594.371649947362	6731.86087859687	5.06537340819093	181.626152541438
53	6.3096	6766.17434179923	672.253882994836	6799.48825330435	5.67400621993478	184.67120653375
54	5.0119	6832.30929317395	764.000765041818	6874.89254072932	6.38040852958189	187.931269525519
55	3.9811	6914.57360927192	875.452475952318	6969.77368611713	7.21581153899774	190.996324517781
56	3.1623	6999.72711553542	1001.61214294446	7071.02585038802	8.14334679356853	194.076381510004
57	2.5119	7107.3438992747	1146.4465550717	7199.2136380436	9.16313876266529	197.196443502127
58	1.9953	7239.03364674162	1341.47605929787	7362.27995639439	10.4984732447243	200.556502493644
59	1.5849	7302.73466179719	1535.80210792799	7462.48093165605	11.8765189184294	203.93656548511
60	1.2589	7480.47862322417	1774.88895884474	7688.15915865058	13.3477129199825	207.276627476677
61	1	7612.39283156874	2056.68080137799	7885.33198672547	15.1189382012029	213.296740461477
62	0.79433	7790.20356801726	2402.89574487597	8152.37263573568	17.1424285514691	216.571797453209
63	0.63096	7965.3209690577	2794.47610121623	8441.29343290345	19.3324172534792	220.661873442882
64	0.50119	8170.26784123463	3271.32075833425	8800.84178368304	21.8208346283786	224.966953432013
65	0.39811	8386.02330898674	3860.3724877128	9231.89377553483	24.7182275691135	230.02204841925
66	0.31623	8644.08875498481	4572.60602235122	9779.00793739823	27.8782347509311	235.272145405995
67	0.25119	8920.37106185355	5454.63553186217	10455.9107047931	31.4449847226143	241.367256390606
68	0.19953	9321.60312558781	6540.22288260815	11387.1330977187	35.0542662939419	248.107383373589
69	0.15849	9719.71001888971	7842.59103358667	12489.1551744463	38.8991921879623	255.84252635406
70	0.12589	10038.3131350651	9421.62024496887	13767.158698803	43.1848818336464	266.617724326855
71	0.1	10668.6910431621	11368.6424350925	15590.6061264927	46.8192211276987	277.232922300054
