Index	Frequency (Hz)	Z' (Ω)	-Z'' (Ω)	Z (Ω)	-Phase (°)	Time (s)
1	1000000	3042.42705023731	2705.07126901909	4071.08989417923	41.6408149336615	21.8961929447174
2	794330	3540.64941532402	2557.66544049291	4367.81991246504	35.8432864668905	24.271237938721
3	630960	4073.34883267525	2483.90426203427	4770.9486578257	31.3745941639977	26.3412769334947
4	501190	4580.23926777302	2391.9519751651	5167.20678912177	27.5750479936887	28.8263229272205
5	398110	5134.5644438865	2234.33133104211	5599.64182116141	23.5165070012927	35.5714459101907
6	316230	5507.61280136058	2056.78724369528	5879.13025332307	20.4778652971837	37.356480905684
7	251190	5783.89263279967	1822.60090219123	6064.26318990383	17.4905076471554	43.1165858911411
8	199530	6100.73975862282	1658.70069189886	6322.20796777099	15.2102007118386	44.8116178868615
9	158490	6360.63123036547	1485.27713940742	6531.74385823165	13.1436739954063	46.6516548822159
10	125890	6568.47354648246	1313.70007169428	6698.55600926121	11.3099774503277	48.5166848775071
11	100000	6736.3435406444	1150.65465242127	6833.91033206613	9.69330902369991	50.841726871637
12	79433	6875.18009002385	1002.25521958476	6947.84979655183	8.29408316761769	52.7067638669282
13	63096	6985.56860480673	865.067726094499	7038.92824961242	7.05936375838413	54.631800862068
14	50119	7075.81489981296	753.293738990474	7115.79988150435	6.07683987609321	56.8868418563745
15	39811	7147.12760318167	648.743127764978	7176.51033734249	5.18651173112569	58.8168778515017
16	31623	7207.85178040571	557.593152600614	7229.38707029336	4.42354163815391	60.8369128464016
17	25119	7252.91750782798	486.730144334686	7269.23095029741	3.83925941097624	63.661964839269
18	19953	7296.9080795824	427.662871443669	7309.42973517677	3.3541986332722	65.777005833929
19	15849	7338.58535757925	377.220370045852	7348.27396454801	2.94254666459857	67.7020408290688
20	12589	7371.03170191301	334.638153047423	7378.6239261858	2.59939154844823	69.6120748242464
21	10000	7399.93251953987	302.15744457365	7406.09886614099	2.33822866961626	71.402109819727
22	7943.3	7429.31047271066	271.71744851823	7434.27766980475	2.09458563958972	73.2871438149677
23	6309.6	7455.36772120827	248.545353787505	7459.50954495827	1.90940650227632	75.1471778102716
24	5011.9	7482.14982721984	230.649287907566	7485.70405045365	1.76567529119327	76.9922118056134
25	3981.1	7504.38026078232	213.370566519053	7507.41300962429	1.62864083567308	78.9122488007657
26	3162.3	7528.32860204735	200.262547387565	7530.99174267841	1.52377692889013	80.7922847960191
27	2511.9	7548.42703763546	189.908992341107	7550.81559620404	1.4411861991368	82.5823177914997
28	1995.3	7574.22731121023	180.372145509016	7576.37469194591	1.36418004512657	84.4523497867783
29	1584.9	7594.54180618267	172.989891663889	7596.51174872219	1.30486832272546	85.8073767833572
30	1258.9	7618.93227977852	165.988841076258	7620.7402120275	1.24806933825464	87.5824077788757
31	1000	7638.33529683499	159.767140508797	7640.00599777655	1.19825169969349	89.2824407745835
32	794.33	7657.80926280606	154.715991036929	7659.37202017247	1.15742860134541	91.0124707702156
33	630.96	7678.49582384026	149.156164308037	7679.94437988215	1.1128408780947	93.8975247629315
34	501.19	7700.37206491101	144.777672511879	7701.73295515495	1.07711319876514	98.0226007525167
35	398.11	7716.78758221614	141.06129600457	7718.07676032545	1.04723847602905	99.9626387476186
36	316.23	7736.29548456034	138.685245638379	7737.53846011679	1.02700682085437	101.782672743023
37	251.19	7755.73620695804	136.207661265414	7756.93216670787	1.00613555249109	103.682707738226
38	199.53	7773.60669454609	135.066253837674	7774.77999266973	0.995412811177	105.33273873406
39	158.49	7793.15448254257	134.940704490524	7794.32266348409	0.99199371973203	107.092770729617
40	125.89	7807.49005777304	137.351655094716	7808.69812961047	1.00786019326899	109.017807724756
41	100	7828.21837091331	140.94100234896	7829.48703484767	1.03145464747275	110.857838720111
42	79.433	7841.67557336183	142.753202980953	7842.97483578909	1.04292158209174	112.622873715655
43	63.096	7861.50039050136	150.233983234053	7862.93575196768	1.09479426834605	115.147918709279
44	50.119	7860.73120217396	145.101008447119	7862.07029576076	1.05750102843821	117.022953704545
45	39.811	7890.92844402621	165.48999478415	7892.66359647462	1.20144144517737	126.743134680004
46	31.623	7909.45526056666	181.90349758569	7911.54671359144	1.31746946065207	128.823174674753
47	25.119	7923.54210247755	192.511706591234	7925.88040579146	1.39179404221426	130.928212669438
48	19.953	7951.55982095858	216.799383270054	7954.51479091397	1.56178325993873	133.148251663833
49	15.849	7970.49877717267	238.974656220868	7974.08048888566	1.71735031315275	135.568298657723
50	12.589	8002.03661017886	268.641791132619	8006.54471807818	1.92279327347807	137.953342651701
51	10	8024.89414256323	302.346264087897	8030.58772835174	2.15765777051831	140.798393644518
52	7.9433	8050.02382820055	340.287666253597	8057.21287607576	2.42054519515872	143.813449636906
53	6.3096	8080.5507696022	387.821185470325	8089.85203894473	2.74776805842378	146.748503629496
54	5.0119	8109.95460470274	449.219299809396	8122.38645163233	3.17043637062499	149.683557622085
55	3.9811	8149.67789256799	519.408844952903	8166.21303302986	3.64673772594048	152.843618614107
56	3.1623	8191.10684568256	607.251651041391	8213.58544882076	4.23989397672276	155.903672606381
57	2.5119	8235.32745860213	705.627085429633	8265.50227960153	4.89730968741494	159.173735598125
58	1.9953	8309.34952469162	832.61214950106	8350.95997565487	5.72204324677333	162.328794590159
59	1.5849	8355.66325809643	904.844807641643	8404.51382345337	6.18054414097487	165.428851582332
60	1.2589	8425.44834934763	1143.07527470487	8502.63494283779	7.72611007665044	168.778911573874
61	1	8507.20229855544	1361.7061345836	8615.49386544437	9.09391339389072	175.079031557968
62	0.79433	8598.0162954685	1611.16087870251	8747.66960934187	10.6134289318645	181.049139542895
63	0.63096	8697.41727824942	1926.21205066225	8908.16255891798	12.4876991007263	187.509260526585
64	0.50119	8803.09662195748	2275.52772575123	9092.44392702984	14.4932412328589	191.874341515564
65	0.39811	8915.49373039084	2751.49376582223	9330.4204835579	17.1512374762857	196.789433503154
66	0.31623	9096.38242908334	3314.6822638008	9681.49223033782	20.0215207268468	204.334569484105
67	0.25119	9291.27114076608	3982.53499968501	10108.8230984101	23.2015165159197	211.464701466103
68	0.19953	9495.98040741651	4897.92819530019	10684.7248211807	27.2842142461778	218.419830448543
69	0.15849	9772.43690157999	5928.57544668296	11430.1587837779	31.2436368679775	225.979970429455
70	0.12589	10087.0748878688	7165.22078328272	12372.9329047991	35.3875806286442	235.470148405495
71	0.1	10516.6404884126	8543.23884807735	13549.4153814036	39.0888324703242	246.070345378732
