Index	Frequency (Hz)	Z' (Ω)	-Z'' (Ω)	Z (Ω)	-Phase (°)	Time (s)
1	1000000	2797.8076734725	1903.27056626385	3383.80948431615	34.2263623735137	30.0443219241454
2	794330	3067.67203343479	1728.0485811485	3520.90380492386	29.3929712562458	31.8593559195629
3	630960	3389.87998552541	1601.37466691116	3749.0915086312	25.2859862446402	33.2793809159776
4	501190	3682.7229107368	1495.71258329157	3974.87159152122	22.104192003283	34.8694129119632
5	398110	3992.34653982051	1320.35881219223	4205.01822670847	18.3002125700054	36.3094369083275
6	316230	4211.48518741031	1203.87329787707	4380.17333003134	15.9528394142177	37.6644619049064
7	251190	4316.16556769444	1042.9167248901	4440.37841887451	13.5840268249789	39.9245108992003
8	199530	4489.57448237918	944.074065610653	4587.7614229806	11.875220994575	41.2795298957792
9	158490	4632.59878997445	844.640445735861	4708.96899877729	10.3329756689978	42.5595518925475
10	125890	4747.03070908671	748.171546615994	4805.62807717972	8.95661474256111	43.7945768894293
11	100000	4842.76601170474	663.107714017513	4887.95401824855	7.79687934591754	45.1496018860082
12	79433	4921.79235938725	584.57155764113	4956.38617693635	6.77340794171681	46.5746268824104
13	63096	4985.03897916243	514.473983533687	5011.51644749389	5.89227047544903	47.8946518790776
14	50119	5041.33930920197	452.996172876013	5061.6506757327	5.13459805563233	49.2546788756439
15	39811	5089.06107101519	398.123561161057	5104.61016674866	4.47320922286034	50.639703872147
16	31623	5125.85298215468	350.984016289027	5137.85544506211	3.91711622638998	52.0047298687007
17	25119	5161.47077194684	313.679332246702	5170.99364272867	3.47777311634863	53.4147558651407
18	19953	5192.61511881482	281.498203180551	5200.2397070268	3.10303892275691	54.814779861606
19	15849	5222.29062551746	253.72920596795	5228.45081140951	2.7815743680556	56.1398058582606
20	12589	5247.83113934476	230.281947282097	5252.88125149622	2.51260459956509	57.4498298549531
21	10000	5270.29431657303	211.012672321126	5274.51690026509	2.29279062243656	58.7998558515446
22	7943.3	5293.78265840451	195.191878072805	5297.37998483117	2.11164822071832	60.0898778482876
23	6309.6	5316.39814138886	181.595671438387	5319.49867803801	1.95632862215674	61.5099038447024
24	5011.9	5336.36946854376	170.607930923761	5339.09600690043	1.83116742737548	62.8299278413697
25	3981.1	5354.54390190973	161.602014963032	5356.98194963534	1.72868201118365	64.1649558379991
26	3162.3	5371.97449802516	154.177929488498	5374.18652833841	1.64396170561072	65.4949798346411
27	2511.9	5392.37134922735	147.892181543694	5394.39902726242	1.57101090297261	66.8750048311568
28	1995.3	5408.2552043014	142.873345813709	5410.14206355038	1.51326738192577	68.1350288279756
29	1584.9	5429.45606899957	139.654681809029	5431.25184790279	1.47341829807877	69.3550488248953
30	1258.9	5446.99664224497	136.384151235423	5448.70379607262	1.43429570694377	70.6000738217519
31	1000	5462.05243381068	135.044786234344	5463.72161479575	1.41630282067853	71.9000968184697
32	794.33	5481.15018506566	134.790436058063	5482.80729306603	1.40871287964053	73.3501228148087
33	630.96	5500.85884244568	134.94037074149	5502.51368995741	1.40522846955408	74.5851458116906
34	501.19	5514.88680332763	136.406775502957	5516.57350734316	1.41688117793894	75.9301708082947
35	398.11	5531.93683106942	139.845315859185	5533.70416767197	1.44810767917211	77.1901938051135
36	316.23	5547.9575962817	143.730588194808	5549.81909363924	1.48402620140866	78.5502188016798
37	251.19	5567.20265083003	149.954020460808	5569.22180952252	1.54290334771749	79.870243798347
38	199.53	5584.40768882821	157.313806086407	5586.62302904259	1.61360605407917	81.2302687949133
39	158.49	5602.44842926412	167.277553902488	5604.94515429041	1.71022569273768	82.5452947915932
40	125.89	5623.39695678069	178.457995949231	5626.22791840577	1.81766637292794	83.9403207880711
41	100	5641.32908425075	192.10175024941	5644.59891571246	1.95031489509312	85.3153467845995
42	79.433	5663.43354156548	208.109302792909	5667.25585814138	2.10445168527392	86.665371781191
43	63.096	5690.25959170991	227.393452150955	5694.80131375343	2.28842922399019	88.11539777753
44	50.119	5718.00212610064	249.351284332707	5723.43641330012	2.49697883628687	89.5554237738943
45	39.811	5747.11846479116	273.766285577743	5753.63525325186	2.72724578253095	98.8055937505399
46	31.623	5781.69196152461	301.963694402545	5789.57200583045	2.98970268395465	100.335621746677
47	25.119	5816.67861212792	334.064862043903	5826.26376066504	3.28701390632398	101.990652742498
48	19.953	5856.15842475027	371.308369970612	5867.91797841311	3.62796916653701	103.825687737865
49	15.849	5903.16755864908	411.153608783053	5917.46859015764	3.98419728431809	105.840725732778
50	12.589	5951.18257091791	458.189847370975	5968.79484725609	4.40259664026577	107.835760727741
51	10	6003.93107891877	509.864372801956	6025.54147600524	4.85401202175099	110.18080672182
52	7.9433	6060.47327440881	571.411860292596	6087.3514621637	5.38621099489243	112.425847716152
53	6.3096	6122.87049926667	638.494476508419	6156.07166521978	5.95330106131322	114.81089271013
54	5.0119	6190.4066618165	719.022282622422	6232.02436464827	6.62527781540299	117.205936704083
55	3.9811	6262.95432490998	809.80189960946	6315.09113097505	7.36748524842825	119.565980698125
56	3.1623	6338.76200172956	919.89701064708	6405.16309119197	8.25726150736838	122.056027691838
57	2.5119	6428.45370616214	1053.70017147838	6514.23833641688	9.30868424917386	124.616074685375
58	1.9953	6516.21239362583	1208.29340143659	6627.2918226677	10.5049713547166	127.231119678772
59	1.5849	6622.8757288598	1396.02444596153	6768.40950103068	11.9030285788572	129.96117167188
60	1.2589	6725.78152343846	1619.78209627914	6918.0800183615	13.5407879736011	132.78122366476
61	1	6861.03573878685	1892.4042757485	7117.2329842279	15.4198701451176	137.836318651997
62	0.79433	7014.77889548879	2215.1840039807	7356.2329438434	17.5254990672134	140.971376644081
63	0.63096	7151.96420280581	2607.02878734386	7612.30523929876	20.0277728278939	144.521440635118
64	0.50119	7336.28124390272	3095.22741030376	7962.50307448196	22.8752149901469	148.361512625423
65	0.39811	7519.25063094857	3684.64505217854	8373.51414948134	26.106158136212	152.696592614478
66	0.31623	7787.68651230341	4406.39224457809	8947.86867510864	29.5018458838537	157.461681602447
67	0.25119	8016.20296475793	5257.35655159169	9586.41267016801	33.2585150344084	162.786780589003
68	0.19953	8343.71545935154	6275.39784779382	10440.2205826657	36.9472179118801	169.066896573147
69	0.15849	8723.2215905836	7559.00699686657	11542.6678760632	40.9101880495857	176.342029554779
70	0.12589	9259.62330878171	9118.04259957396	12995.3578122412	44.5586046313062	185.017192532876
71	0.1	9746.21250643009	10828.2086079153	14568.4165192043	48.0103764985779	195.197378507174
