Index	Frequency (Hz)	Z' (Ω)	-Z'' (Ω)	Z (Ω)	-Phase (°)	Time (s)
1	1000000	2815.83066000154	1891.84373093269	3392.34063856713	33.8955708294284	340.621895140012
2	794330	3082.09691736686	1708.74942525054	3524.08087397783	29.0044821995639	341.996919136541
3	630960	3392.1189954722	1589.16690708463	3745.92081310007	25.1025244894112	343.496947132754
4	501190	3690.413593159	1465.49809923923	3970.74768367955	21.6584944730539	345.031975128878
5	398110	3982.79619302899	1317.13636665853	4194.93906077081	18.2993835426458	346.562001125015
6	316230	4203.51660742671	1200.4806018168	4371.5792963471	15.9387905742239	348.087030121165
7	251190	4311.58864091645	1032.57328695326	4433.50924228305	13.4679866154591	350.467077115156
8	199530	4483.3605612994	934.133810741376	4579.6427698004	11.769518146663	351.757099111899
9	158490	4627.29180213645	837.023297523944	4702.3863540459	10.2532688373669	353.12712510844
10	125890	4739.57087160764	743.313487883752	4797.50424577837	8.91317357828197	354.462151105069
11	100000	4836.92987152181	658.613076552825	4881.56345514697	7.75390547893557	355.85217510156
12	79433	4914.85340060508	580.973780697969	4949.07208305736	6.74152162546624	357.187198098189
13	63096	4979.57371909076	511.761512726654	5005.80206058606	5.86780966466263	358.562224094717
14	50119	5036.23314918171	450.892534814595	5056.37700442405	5.11603477941023	360.047251090968
15	39811	5081.86169532915	396.410578732656	5097.29924934615	4.46032473454372	361.577279087105
16	31623	5119.65023578569	349.454756290301	5131.56283830515	3.90481246971852	362.897303083772
17	25119	5154.84592677848	312.386191477538	5164.30263069957	3.46791128167699	364.182327080528
18	19953	5186.09034785684	280.209116873955	5193.65480613731	3.09273515928437	365.457354077309
19	15849	5213.49294111707	252.495040131711	5219.60366238363	2.77272937117213	366.82737807385
20	12589	5240.2406159601	229.964210012432	5245.284096314	2.51277205843941	368.152404070505
21	10000	5263.92128254033	210.356283446346	5268.12272396594	2.28843042194986	369.407426067336
22	7943.3	5286.35771342929	194.368970320575	5289.92978884945	2.10570451221298	370.682450064117
23	6309.6	5308.90619803578	181.218187504803	5311.99821639891	1.95501804670771	371.962472060885
24	5011.9	5327.15795189084	170.293351906416	5329.87914216611	1.83095168369017	373.302497057502
25	3981.1	5349.5274314482	161.27109800116	5351.95778261257	1.72676104132472	374.547521054358
26	3162.3	5368.8353068879	153.841748439258	5371.03899036759	1.64133766486765	375.827546051127
27	2511.9	5383.84300311038	147.713049311615	5385.86897604069	1.57159331279791	377.087566047945
28	1995.3	5403.2508673333	143.184863771331	5405.14771681138	1.51796928095104	378.452594044499
29	1584.9	5424.90652076112	139.745599976634	5426.70614569366	1.47561302788478	379.757616041204
30	1258.9	5439.73057048527	136.419996818273	5441.4409024636	1.43658807112502	381.072640037884
31	1000	5456.76513840528	135.117909422662	5458.43774583551	1.41844189773267	382.542667034173
32	794.33	5476.00931425662	134.233752326191	5477.65430728234	1.40421374448995	383.892698030764
33	630.96	5491.09341147537	135.095637184867	5492.75501772422	1.4093456607124	385.242717027356
34	501.19	5509.11904421569	136.577890977509	5510.81175178792	1.42014251112953	387.357759022016
35	398.11	5526.53851968207	139.395183426747	5528.29621372555	1.44485786276629	388.537778019036
36	316.23	5544.85764556173	144.055850093541	5546.72862122265	1.48821421537435	389.952804015464
37	251.19	5562.20717233789	150.201641564098	5564.23482260909	1.54683724159857	391.382834011853
38	199.53	5579.26033663765	157.558950488967	5581.48463465208	1.61760944603067	392.647857008659
39	158.49	5596.74669325731	167.204972258843	5599.24379280227	1.71122458442464	394.057882005099
40	125.89	5618.22242743966	178.571767882539	5621.05960833637	1.82049846564759	395.432907001628
41	100	5636.50880020331	191.883634870921	5639.77400115471	1.94976689532392	396.772933998245
42	79.433	5660.58630349654	208.589892035218	5664.42821848701	2.1103671440256	398.122957994836
43	63.096	5685.72202278413	227.464299695262	5690.27019815477	2.29096639220196	399.632986991024
44	50.119	5713.46603771586	249.170492664061	5718.89675536699	2.49714917812748	400.97301198764
45	39.811	5742.12835959412	273.970985092269	5748.66055692346	2.731650154439	410.108180964576
46	31.623	5778.8817104733	302.399773901626	5786.78835338727	2.99546572704667	411.98821295983
47	25.119	5815.69008501938	334.146528551994	5825.28154405742	3.28837332020097	413.558243955866
48	19.953	5854.7834033829	371.622731685838	5866.5656184205	3.631882990621	415.473276951031
49	15.849	5898.46611183664	412.217546300966	5912.85259227419	3.99764734171244	418.203328944138
50	12.589	5949.10617182064	457.190624709951	5966.64792919082	4.39456034337539	420.12336493929
51	10	6000.46181022802	510.602352785736	6022.14718341185	4.86380109284921	422.333406933711
52	7.9433	6058.71066810404	569.382750374436	6085.40645119302	5.36874851134716	424.648446927866
53	6.3096	6119.42452075424	637.908124458005	6152.58346066575	5.95119848834572	427.028492921857
54	5.0119	6187.51663955892	719.733732204938	6229.2358126894	6.63484486385133	429.378533915923
55	3.9811	6260.81975573157	811.331254292407	6313.17055194539	7.38373465039893	431.773578909877
56	3.1623	6338.89799213149	920.401004537275	6405.3700723535	8.2615482757852	434.213627903716
57	2.5119	6423.11350746308	1054.06012044215	6509.02679878192	9.31941454654366	436.768670897265
58	1.9953	6517.08115684498	1210.92836841225	6628.62688030707	10.5259963376497	439.463723890461
59	1.5849	6620.24891375854	1391.31213407025	6764.86844916679	11.8685641181212	442.293774883316
60	1.2589	6724.18581381111	1619.89816420837	6916.55585685999	13.5448177163847	445.198829875981
61	1	6856.81027364509	1894.09714756346	7113.61027419783	15.4420635677587	450.148920863483
62	0.79433	7010.41841287693	2215.52085971517	7352.17648070535	17.5382351720958	453.308980855505
63	0.63096	7152.34711848644	2615.4476347415	7615.55222117189	20.0862952573532	456.774041846756
64	0.50119	7337.00686433437	3097.36252428252	7964.00177888726	22.8873383826552	460.694113836859
65	0.39811	7522.14349940705	3696.32351381044	8381.25589302819	26.1691471479623	465.004193825977
66	0.31623	7784.3171393786	4412.63362650422	8948.01256414961	29.5472532832175	469.864283813707
67	0.25119	8015.06761159793	5260.99659268553	9587.46024590115	33.2804262682342	475.369388799808
68	0.19953	8346.1854491725	6269.74891239369	10438.8008399644	36.9142897479959	481.609501784053
69	0.15849	8716.86612272597	7563.54345504764	11540.8381237206	40.9478714792292	488.879636765698
70	0.12589	9242.22346730256	9153.86675620404	13008.1501840152	44.7248095846444	497.414796744148
71	0.1	9763.70826514885	10858.9706029284	14602.9874218326	48.0401000573704	507.639983718332
