Index	Frequency (Hz)	Z' (Ω)	-Z'' (Ω)	Z (Ω)	-Phase (°)	Time (s)
1	1000000	3078.26052661458	2049.96948160783	3698.38650565851	33.6616548928888	60.7749028465581
2	794330	3351.21089594376	1837.63295421004	3821.97715109483	28.7381146509124	62.1849258429982
3	630960	3676.12794450209	1693.83721377995	4047.59202133009	24.7386747732454	63.6399518393246
4	501190	3988.19922675595	1579.93792219339	4289.747884233	21.6111536042627	65.2399838352849
5	398110	4315.17025218419	1441.21263871598	4549.48218760443	18.4686716754511	66.705008831586
6	316230	4558.1166642652	1317.56659544368	4744.72436064322	16.1224363346209	68.0950378280766
7	251190	4685.37794176994	1123.99925950477	4818.3130650251	13.4900507321561	69.3800618248322
8	199530	4876.41044146436	1021.09651017578	4982.16989641218	11.8265813937486	70.8250878211838
9	158490	5029.94171399265	915.033861252134	5112.49455876495	10.310348608572	72.2551138175734
10	125890	5158.104227819	814.271970770158	5221.98028217516	8.97083254164706	73.6401368140765
11	100000	5265.57728473755	720.530981958961	5314.64665217799	7.79184630592315	75.0501658105165
12	79433	5350.79181945737	635.366139139731	5388.38224571505	6.77173349351188	76.3301878072848
13	63096	5421.58112557704	558.955985503581	5450.31867829244	5.88630254821786	77.6952148038384
14	50119	5484.42887273722	491.984032172062	5506.45152053715	5.12603228593142	79.0252388004805
15	39811	5536.30259120592	432.241846416522	5553.15040271618	4.46426043082393	80.2852607972992
16	31623	5577.20955289455	379.526856578888	5590.10796244248	3.89295295367546	81.6302857939033
17	25119	5615.78072497951	337.790658587159	5625.93065013071	3.44220854373674	82.9453097905832
18	19953	5645.53203997191	301.974321235642	5653.60243606103	3.0617808207519	84.2403337873136
19	15849	5680.4141920668	271.818098464953	5686.91396735409	2.7396169540577	85.5703607839556
20	12589	5707.52666201642	245.951175410781	5712.82352066946	2.46748760574014	86.9303827805219
21	10000	5731.10839708965	223.921600873468	5735.4811779422	2.23747995608716	88.2104087772901
22	7943.3	5754.34051981095	205.971643328523	5758.02562826822	2.04997769402948	89.5304317739574
23	6309.6	5777.42069564225	190.307280421686	5780.55419102848	1.88663132860951	90.8654567705868
24	5011.9	5797.16526286001	178.0339511771	5799.89837606509	1.75903023540211	92.2854847670015
25	3981.1	5819.71921315047	166.9260574411	5822.11267741921	1.64295504617988	93.6105077636562
26	3162.3	5839.62493299815	157.167202021264	5841.73954293452	1.5416818909873	94.8905327604244
27	2511.9	5861.14034635796	150.104765787592	5863.06213513188	1.46703363583409	96.240555757016
28	1995.3	5876.42548555769	143.425412277963	5878.1755108366	1.39813559332587	97.5205797537842
29	1584.9	5895.30578525397	137.826169114115	5896.91668200777	1.33927226358874	98.780603750603
30	1258.9	5911.34475127491	134.179289930321	5912.86739664198	1.30031108048317	100.105627747258
31	1000	5930.97175434013	129.436132272687	5932.38397805791	1.25021115599458	101.560657743584
32	794.33	5945.74707702447	126.944400523762	5947.10208292824	1.22310509017631	103.055682739809
33	630.96	5964.33278566723	125.360607159582	5965.65007857588	1.20408712083702	104.450707736287
34	501.19	5979.10839782731	124.373631201853	5980.40182873253	1.19165871092811	105.85573573274
35	398.11	5997.07240866286	124.684658550221	5998.36842306499	1.19106042715215	107.230761729268
36	316.23	6012.21239375894	126.169068426975	6013.53610627693	1.20220207588797	108.700788725557
37	251.19	6026.05494441478	128.689805615565	6027.4289095082	1.22339776201323	110.075813722085
38	199.53	6044.13347582794	133.122976730783	6045.5993251751	1.26174442460552	111.38083571879
39	158.49	6058.75466335503	138.306237944596	6060.33305076385	1.3076924444939	112.69586071547
40	125.89	6073.02211597263	144.669727469267	6074.74501120325	1.3646249363157	114.130888711847
41	100	6092.853303837	152.536681510819	6094.76240892816	1.43412000874059	115.510915708363
42	79.433	6107.8089362818	161.781837059932	6109.95117533081	1.51727889188291	116.965939704689
43	63.096	6132.24627538972	173.501398562125	6134.70024673856	1.62065352695528	118.410966701041
44	50.119	6152.87812525526	185.983543329028	6155.68835327406	1.73135697672241	119.870995697355
45	39.811	6175.66827945075	200.433738860477	6178.9200012209	1.85890451037567	129.096165674064
46	31.623	6201.65445471085	217.612417447632	6205.47122625368	2.00965076336146	130.751197669885
47	25.119	6227.94571884088	237.228051972602	6232.46219607237	2.18139315762496	132.401227665719
48	19.953	6254.95270018048	261.623209624571	6260.42170986183	2.39508981021628	134.331261660846
49	15.849	6288.91426180761	286.359384009168	6295.43042922224	2.6071048644446	136.341298655771
50	12.589	6320.44239516022	314.723859244609	6328.27331727355	2.85066552432605	138.341337650722
51	10	6357.21908248029	349.799102840238	6366.83546787566	3.14946237728671	140.661380644864
52	7.9433	6391.49738624722	386.52477542116	6403.17423161508	3.46073827045618	143.001423638956
53	6.3096	6430.38210347209	432.629358505383	6444.91909634984	3.84899945682363	145.386468632934
54	5.0119	6469.45299605341	487.554131515923	6487.79863276464	4.30980613821266	147.826511626774
55	3.9811	6514.36208978429	552.291668393297	6537.73198623158	4.84598340420524	150.3115566205
56	3.1623	6557.76393799509	633.95790644902	6588.33594268068	5.52178894504319	153.056607613569
57	2.5119	6606.64426843293	732.890777006185	6647.17062972198	6.33007593236713	155.601656607144
58	1.9953	6657.12496329839	853.445930148205	6711.60805862925	7.3054917122115	158.261705600428
59	1.5849	6719.48525817507	999.413317405628	6793.40188078402	8.45979045375615	161.021754593459
60	1.2589	6767.21465112462	1179.54847288342	6869.24513569557	9.88751427731716	163.886811586226
61	1	6846.1094471494	1413.45018519357	6990.49754941463	11.6654007649685	167.176872577919
62	0.79433	6934.17533999823	1668.22681084189	7132.0241403301	13.5271735168306	170.411931569751
63	0.63096	7033.36172952272	2009.27654875037	7314.73645920842	15.943472540467	173.941994560839
64	0.50119	7128.33923909742	2400.21103415763	7521.5844950481	18.6090955819949	177.777065551156
65	0.39811	7262.81558974841	2926.57223696249	7830.28194568064	21.9471106529307	182.132148540161
66	0.31623	7419.00392487881	3522.44570015356	8212.74880584434	25.3977541426003	186.997238527877
67	0.25119	7580.16694398595	4321.52520886203	8725.50921319366	29.6878754515401	192.462339514079
68	0.19953	7785.91072436753	5216.20278585968	9371.72221691571	33.8202699613354	198.792455498097
69	0.15849	8062.03864497187	6346.1815992669	10260.1407399652	38.2087013191125	206.14259047954
70	0.12589	8487.23047317869	7694.75690625024	11456.1060116926	42.1963181615432	214.727752457865
71	0.1	8792.84667933143	9238.73006396837	12754.1477928203	46.4165167719328	224.967941432011
