Index	Frequency (Hz)	Z' (Ω)	-Z'' (Ω)	Z (Ω)	-Phase (°)	Time (s)
1	1000000	2024.8191803564	1101.19977233534	2304.89341439698	28.5395991721653	575.270076547583
2	794330	2147.93739881054	1010.39638839637	2373.71774457146	25.1924382287849	577.475116542015
3	630960	2314.05034931296	939.636782824688	2497.54805815475	22.0999654596193	579.6201525366
4	501190	2473.1264810287	874.575945389703	2623.21132877618	19.475209287408	581.975196530654
5	398110	2619.97167929415	796.300144775062	2738.31070568557	16.9058436146165	584.070235525364
6	316230	2752.17104099064	734.164891548509	2848.41070192659	14.9363269362158	586.165276520075
7	251190	2817.89480798026	633.008373493618	2888.11889467091	12.6606813384086	588.285313514722
8	199530	2926.8591755641	584.979702648124	2984.74553121268	11.3025511978898	590.450353509256
9	158490	3019.4116948659	534.401012983625	3066.33843953516	10.0367527460023	592.52039450403
10	125890	3097.81137653963	486.380890240523	3135.76174079114	8.92304437986638	594.52043149898
11	100000	3162.46701019079	439.698190619609	3192.8877351669	7.91545723676341	596.760471493325
12	79433	3219.05392375434	396.958105698339	3243.43705067909	7.02994687223648	598.86550948801
13	63096	3268.6381510995	357.90833082661	3288.17483356622	6.24886084044485	600.945548482758
14	50119	3309.73834110383	322.090179697464	3325.37365876833	5.55828831311267	603.120589477267
15	39811	3348.41956921855	290.198184999728	3360.97137716209	4.95328842785986	605.280628471813
16	31623	3380.65028955553	261.714117685797	3390.76549759312	4.42674173961621	607.330668466637
17	25119	3406.91506723497	238.515790776175	3415.25402536946	4.00470405909929	609.280703461714
18	19953	3434.91661790823	218.872496405292	3441.88281928145	3.64595142869307	611.290739456639
19	15849	3458.56239349963	202.324240508783	3464.47527455852	3.34795996582477	613.400780451312
20	12589	3480.91403192308	188.836925396209	3486.032398305	3.10520843990895	615.48081644606
21	10000	3501.32859972314	177.865581759488	3505.84342611216	2.90809451709413	617.555858440821
22	7943.3	3522.18853955733	169.737319001454	3526.27606203071	2.75899880798564	619.625893435595
23	6309.6	3541.29391564465	163.592669727594	3545.07054352525	2.64494015215117	621.630932430533
24	5011.9	3560.71269025344	159.203024079545	3564.26997650402	2.56004658284124	623.785970425092
25	3981.1	3580.7910935201	156.599420217732	3584.21375392783	2.50413161197836	625.841008419903
26	3162.3	3599.0578158754	155.287610581945	3602.40633521734	2.47059372265131	627.88604741474
27	2511.9	3618.31494071556	155.273980584777	3621.64507085552	2.45724564337392	629.846085409792
28	1995.3	3638.22154825335	156.691991847982	3641.5942133198	2.46610740048533	631.816119404818
29	1584.9	3659.12241376918	159.310465757714	3662.58879256843	2.49296291148569	633.861159399654
30	1258.9	3679.3826771061	162.821651586683	3682.98354256625	2.5338247810242	635.996198394264
31	1000	3700.56344712553	168.441771821232	3704.39501898702	2.60618303169154	638.001233389202
32	794.33	3722.72877927154	175.465085101203	3726.86162341804	2.69855113580588	640.156275383761
33	630.96	3746.2114060707	183.587458842156	3750.70716719105	2.80560194888773	642.19631237861
34	501.19	3769.29055417203	193.534050209537	3774.25578231802	2.93926804324607	644.23634937346
35	398.11	3793.61453760502	205.498881350109	3799.1763647091	3.10066353280312	646.291390368271
36	316.23	3819.6730223408	219.412425792083	3825.96965620352	3.28761285540858	648.316425363158
37	251.19	3847.95980947105	235.687236496613	3855.17096491866	3.50498333371221	650.446463357781
38	199.53	3878.58324521859	254.327512005796	3886.91271749874	3.7516435290207	652.506503352579
39	158.49	3908.8113999728	275.329831889743	3918.49627751332	4.02915957381945	654.681542347088
40	125.89	3943.16302308944	299.10473404318	3954.49089878671	4.33780778478929	656.776582341799
41	100	3980.18138211587	325.447884014331	3993.46468116987	4.67451046380846	658.83161933661
42	79.433	4024.05729787325	355.377246473111	4039.71906496947	5.04687839034356	661.011661331106
43	63.096	4070.05322634494	388.443194282369	4088.54758813752	5.45175865290316	663.301704325324
44	50.119	4118.55467023536	425.409701858968	4140.46688021451	5.89722612338308	665.421742319972
45	39.811	4170.070094713	467.105878927547	4196.1497228946	6.39128273148836	675.186922295317
46	31.623	4230.44139877703	513.660623306915	4261.51166423636	6.92297066511779	677.631967289144
47	25.119	4291.54954805883	566.438187844762	4328.77000360297	7.51896207775584	679.942010283311
48	19.953	4360.04786501454	627.809178303097	4405.01552205886	8.19377779570513	682.637061276507
49	15.849	4433.85681131969	696.78470575686	4488.27306984131	8.9310412967416	685.367110269614
50	12.589	4514.78716086595	775.662168990176	4580.93384675249	9.7485189277853	688.197165262469
51	10	4605.56489200991	866.195870179385	4686.31233061029	10.651529245894	691.322221254579
52	7.9433	4704.70450698334	969.832646259338	4803.62569938372	11.6478518479743	694.362280246904
53	6.3096	4816.14605227466	1090.36707963058	4938.03231714646	12.7566145818983	697.41733623919
54	5.0119	4937.9603040844	1226.77592344936	5088.06752422453	13.9519694544014	700.477391231465
55	3.9811	5074.53694778626	1385.06239499021	5260.16378760813	15.2666547461445	703.597449223587
56	3.1623	5228.67202608416	1569.81734868563	5459.24332344597	16.7114655492865	706.797507215508
57	2.5119	5401.75329020651	1779.61500719863	5687.35159649053	18.2345379992318	710.112569207138
58	1.9953	5592.28339643059	2021.72993045014	5946.51372635018	19.876005899193	713.512634198554
59	1.5849	5810.54778479837	2300.12758038178	6249.24414993191	21.5963256095321	717.127702189427
60	1.2589	6056.49028265899	2622.74633551098	6599.99037002169	23.4148903355774	720.772769180224
61	1	6338.807289582	2999.60006836562	7012.70835159975	25.3240773051579	727.247888163876
62	0.79433	6659.30849305534	3426.3874684806	7489.09344913253	27.2269988973484	731.08795815418
63	0.63096	7019.38548838143	3930.11457341443	8044.72331374201	29.2442198055513	735.393037143311
64	0.50119	7442.66362752908	4507.26166794657	8701.0717509905	31.1990106910262	740.033124131596
65	0.39811	7920.0336740474	5172.47865846396	9459.46451287333	33.1480697842115	744.963214119149
66	0.31623	8447.73345518535	5969.40413263088	10343.9830930125	35.2460935551977	750.478316105224
67	0.25119	9108.7928428629	6862.84715898421	11404.7699749608	36.9955039895122	756.613432089735
68	0.19953	9774.27894125851	7860.29353916753	12542.7566086331	38.8055946243716	763.623561072036
69	0.15849	10635.9852669233	9007.55296849668	13937.7255346231	40.2610654427948	771.703712051635
70	0.12589	11644.1336873877	10444.4451015423	15642.003797752	41.891170570696	782.263907024973
71	0.1	12652.2519382749	12071.2802090043	17487.0033165742	43.6538693997966	799.524226981395
