Index	Frequency (Hz)	Z' (Ω)	-Z'' (Ω)	Z (Ω)	-Phase (°)	Time (s)
1	1000000	1028.97217911706	401.37644120669	1104.48485410741	21.3095191172926	605.367616471594
2	794330	1069.12863060715	370.058822921423	1131.36181710623	19.0923355525911	607.658655465809
3	630960	1121.00898423428	339.013729720154	1171.14962821696	16.8262818662493	610.089701459672
4	501190	1171.61932313078	307.967572917282	1211.41894664975	14.7274031169733	612.505745453572
5	398110	1207.24847078583	268.630044533601	1236.77442205151	12.5447538502844	614.946792447409
6	316230	1250.65375285516	239.588029985502	1273.39594535362	10.8447750386549	617.262833441561
7	251190	1284.55615061141	211.36537125287	1301.82941441591	9.34392119199896	619.583876435701
8	199530	1311.64101204535	185.543885582092	1324.69946703252	8.05160118761432	621.904919429841
9	158490	1334.23694485223	162.29398913306	1344.07126444892	6.93527683354381	624.220963423994
10	125890	1351.05908409453	141.605498331223	1358.45970344062	5.98336701821431	626.537005418146
11	100000	1366.5995478701	123.797775207293	1372.1953991269	5.17619264173369	634.186149398834
12	79433	1378.19142002903	108.714011279814	1382.47254095341	4.51024629318892	636.532190392911
13	63096	1388.77783271322	95.8464258874875	1392.0813216156	3.94800482148306	638.853235387051
14	50119	1397.11530540787	85.0529992470543	1399.70182156267	3.48372900616097	641.134276381292
15	39811	1405.12171402726	76.159419617441	1407.18417004575	3.10246982461739	643.40031737557
16	31623	1412.51667660232	68.819314274601	1414.19215798168	2.78930565951075	645.941364369155
17	25119	1418.65072285806	63.4339282983254	1420.0682155182	2.5602334551698	648.282411363244
18	19953	1425.09917670125	59.2984316584898	1426.33234816845	2.38270509294916	650.683452357182
19	15849	1430.38269344256	56.2527574184487	1431.48839409098	2.25211444040206	652.939496351486
20	12589	1436.14562226829	54.0018104647102	1437.16054910154	2.15341590178863	655.230540345702
21	10000	1442.35876018854	52.7864964216339	1443.32435969781	2.09593781341229	657.476580340031
22	7943.3	1449.29317895148	52.5619389024759	1450.24600533029	2.07705242426306	659.657620334525
23	6309.6	1454.86167777559	52.8764367876477	1455.82224843123	2.08147881059248	661.933662328778
24	5011.9	1461.42318269523	53.9097195312691	1462.41716920275	2.11259787238131	664.089702323335
25	3981.1	1467.18497680637	55.3559575985622	1468.22887800505	2.16070851069102	666.165741318093
26	3162.3	1473.97114079091	57.5887673718651	1475.09572232173	2.23743587403502	668.271778312776
27	2511.9	1482.0919435118	60.2888014128601	1483.31765599901	2.32940371047976	670.387817307433
28	1995.3	1489.36600016221	63.5766220210758	1490.72233139065	2.44430314265666	672.593858301864
29	1584.9	1497.55408983342	67.5195853565955	1499.07543051827	2.58152219036324	674.759898296395
30	1258.9	1505.99295562016	72.1370080468678	1507.71964579211	2.74236967559438	676.825936291179
31	1000	1514.72078716203	77.3774760147626	1516.69586168591	2.92433594943754	678.921975285887
32	794.33	1524.93098684545	83.4311704224014	1527.21160119988	3.13161244004072	681.153016280254
33	630.96	1535.92432997099	90.4602556811091	1538.58591091129	3.37061555103159	683.334058274747
34	501.19	1547.45146549107	98.3785897910984	1550.57550121874	3.63766005207789	685.53509826919
35	398.11	1559.51549097609	107.41935028487	1563.2106330914	3.94030681178994	687.5511592641
36	316.23	1573.92287793384	117.770511523733	1578.32288175395	4.27924522826827	689.68217425872
37	251.19	1588.82906921955	129.073849382833	1594.06332050881	4.64441521273969	691.9082182531
38	199.53	1605.82051869142	142.001873351643	1612.08686809543	5.05349095749168	694.189258247341
39	158.49	1624.28685374559	156.098286259651	1631.77034481692	5.48941862436176	696.230297242187
40	125.89	1643.80972177372	171.721823788912	1652.75490807414	5.96381508763963	698.481340236504
41	100	1666.46798278449	188.973425740279	1677.14832178965	6.46956609236386	700.697378230909
42	79.433	1691.21770640253	207.965614958772	1703.95628683796	7.01035248881584	702.933420225264
43	63.096	1718.2944069516	228.727098690817	1733.45082267616	7.58223198805146	705.259462219391
44	50.119	1748.83118074705	251.495540077775	1766.82214878355	8.18347371499632	716.946683189884
45	39.811	1780.57178813056	276.794995002422	1801.95764710074	8.83607003243063	727.012868164469
46	31.623	1817.24222950645	305.046049390066	1842.66720081247	9.52894992101732	729.363909158533
47	25.119	1856.61878155734	335.508912861773	1886.69009925879	10.2433522363397	731.839955152282
48	19.953	1899.60334462469	370.336282763805	1935.36607111953	11.0316993385827	734.601006145311
49	15.849	1946.89613386482	408.213704631453	1989.23175741459	11.8418942205207	737.587063137772
50	12.589	1997.05685056348	450.690077983868	2047.28054032065	12.7173059141424	740.57811913022
51	10	2053.36151059598	498.269839442158	2112.95204065183	13.6397822128846	743.704177122327
52	7.9433	2116.54382877108	552.169505436467	2187.38404077631	14.6215744643234	747.150241113627
53	6.3096	2182.72487351804	611.86505456483	2266.86274804452	15.6593348118463	750.331299105596
54	5.0119	2255.04192575257	679.369388625931	2355.15537769885	16.7658131386606	753.712360097059
55	3.9811	2336.89774005443	756.958512179122	2456.43588083059	17.9479673444107	757.108425088485
56	3.1623	2425.53447386346	844.337087197447	2568.29176705396	19.1931869648682	760.474487079986
57	2.5119	2522.39870229452	945.382019506148	2693.74133430487	20.5457389737406	764.030553071008
58	1.9953	2627.05742330003	1060.89857075194	2833.18486561313	21.9905961390337	767.531617062169
59	1.5849	2738.67219733571	1190.21827538764	2986.12540720016	23.4896133480496	773.453728047217
60	1.2589	2865.48883651194	1343.07592215387	3164.62939454907	25.112835386095	777.244799037646
61	1	3002.60145224802	1522.60641513354	3366.5926062486	26.8893720970923	781.435876027064
62	0.79433	3154.20850000624	1726.08409555341	3595.60809411065	28.6888934320006	785.551950016672
63	0.63096	3317.14007675595	1971.57024847803	3858.8220396261	30.7254907882111	789.993034005459
64	0.50119	3491.28939953347	2257.13667931575	4157.37509258033	32.8828775041496	794.949123992946
65	0.39811	3690.58463983386	2602.34669743453	4515.81922993227	35.1888610762305	800.245224979575
66	0.31623	3901.59209241517	3036.87220223076	4944.18988594476	37.8960279611276	806.111330964765
67	0.25119	4144.0785383359	3542.77305053754	5452.02969723306	40.5271348858096	812.502448948629
68	0.19953	4457.68023360767	4131.69295461768	6077.97661531647	42.8265311207015	819.723581930397
69	0.15849	4758.97853533064	4879.38434990973	6815.88353288712	45.715721772453	828.019738909451
70	0.12589	5126.83656959807	5756.8361708608	7708.80119794897	48.3128599635014	837.590912885286
71	0.1	5595.38945632309	6776.25113406122	8787.83036931174	50.4523115084017	848.677119857296
