Index	Frequency (Hz)	Z' (Ω)	-Z'' (Ω)	Z (Ω)	-Phase (°)	Time (s)
1	1000000	1392.31152670731	576.6171538594	1506.98995667753	22.4965870415609	348.194001120895
2	794330	1450.47969697982	521.716899004841	1541.45381833446	19.7829360582652	349.649028117221
3	630960	1525.17028192437	475.155645639875	1597.47215201039	17.3040408516166	351.11905611351
4	501190	1597.09809263198	428.227932927582	1653.51186268141	15.0095988950711	352.659083109621
5	398110	1651.79709706995	372.823204828268	1693.34898705114	12.7189680984101	354.099110105986
6	316230	1710.97969827231	331.103219549286	1742.72225839228	10.9523150592208	355.559138102299
7	251190	1757.27060667168	290.691625071549	1781.15176387612	9.39293440636312	356.954163098777
8	199530	1774.67016808206	240.8825642749	1790.94349862078	7.72972974229731	358.424191095066
9	158490	1811.1301249912	212.574553583474	1823.56252168163	6.69424770699691	359.854217091455
10	125890	1837.85071089745	186.397918481001	1847.27892305421	5.79123186361415	361.189245088085
11	100000	1860.41151363487	163.472983771986	1867.57982867895	5.02164023375875	362.669267084348
12	79433	1878.15377725322	143.707009034655	1883.64362750925	4.37546328827553	364.069294080813
13	63096	1893.33875457933	126.614266385303	1897.56760407747	3.82587523783272	365.724326076635
14	50119	1906.30782462261	112.618412290356	1909.63149036776	3.38091713849427	367.184350072949
15	39811	1916.29889857099	100.710014872924	1918.94345298659	3.00837994113233	368.669378069199
16	31623	1925.36506159136	90.9577231882061	1927.51236774353	2.70474517095248	370.054404065702
17	25119	1934.22041285619	83.6924699505525	1936.03022575475	2.477605980684	371.409431062281
18	19953	1942.81127524389	78.3325985048464	1944.38978787776	2.30886946961375	372.78445505881
19	15849	1950.59905644445	74.260842384485	1952.01212898733	2.18024252259281	374.149480055363
20	12589	1958.01996895213	71.3997953411477	1959.32134413681	2.08838274878821	375.519507051904
21	10000	1966.34127615154	69.6511265639478	1967.57446967806	2.02866503860758	377.019533048117
22	7943.3	1974.29283157277	68.8341315516568	1975.49242531225	1.99682047064365	378.369558044709
23	6309.6	1982.66903718852	68.8507638520272	1983.86414320866	1.98887133190967	379.934589040757
24	5011.9	1991.06096529388	69.6253941590961	1992.2779582751	2.00275955314121	381.279612037362
25	3981.1	1998.68086255557	70.9348449935159	1999.93923472193	2.03262169266121	382.644637033915
26	3162.3	2008.82351020094	72.9197909765746	2010.14655959512	2.07890967930662	384.019663030444
27	2511.9	2018.22710638847	75.5984044180911	2019.64248611277	2.14517255706248	385.439691026858
28	1995.3	2027.48422853693	78.9284502290263	2029.01995978885	2.22935627030332	386.78971402345
29	1584.9	2037.77815735977	82.8938763943286	2039.46346212827	2.32942537212715	388.129740020067
30	1258.9	2048.36268935706	87.7100120828633	2050.23968193225	2.45188292212127	389.439764016759
31	1000	2058.39132820516	93.2899969383276	2060.50427894701	2.59497199672545	390.844791013212
32	794.33	2070.29374041658	100.010448224437	2072.70795370745	2.76565851109585	392.339819009437
33	630.96	2082.5614697854	107.815800569276	2085.35045550792	2.9636005369645	393.634843006168
34	501.19	2096.81700599046	116.948046019512	2100.07580865038	3.19231215158192	395.014868002683
35	398.11	2111.35774937053	127.321212252381	2115.19319139326	3.45092855503145	396.434893999098
36	316.23	2126.93061931669	139.402050792527	2131.49402794191	3.74988339590387	397.894920995412
37	251.19	2144.57696398431	153.344450531139	2150.05229586651	4.08987985795839	399.314945991827
38	199.53	2163.84155157368	168.83933245524	2170.41861872329	4.46161146003473	400.644972988469
39	158.49	2184.95431354041	186.381686991954	2192.88930078671	4.87566027783448	402.009998985022
40	125.89	2207.12159250633	205.691782228535	2216.68555130944	5.32427777451068	403.470024981336
41	100	2233.45542163001	227.475909312977	2245.00966806966	5.81548278610253	405.000051977473
42	79.433	2262.18025262636	251.857128631136	2276.15718012069	6.35279509257124	406.460080973787
43	63.096	2293.42766844912	278.755643834461	2310.30629557588	6.93004683111706	407.985105969937
44	50.119	2330.44098074755	309.59944694881	2350.91620061172	7.56744116897099	417.840292945055
45	39.811	2368.5729769451	343.078519628957	2393.29079255852	8.2417498811063	426.905458922167
46	31.623	2411.24004283776	381.214968003866	2441.18893083154	8.98405260937223	428.590489917913
47	25.119	2458.67688602096	423.509371156356	2494.88521124941	9.77334459323066	430.280520913646
48	19.953	2513.02478865114	471.802991703377	2556.93012250146	10.6331086439411	432.175553908862
49	15.849	2571.14612605148	525.120450287995	2624.2225303545	11.5431081449245	434.130592903926
50	12.589	2635.52960674714	586.607537256599	2700.02309449511	12.5481616994528	436.240631898598
51	10	2705.31308742809	653.385987928986	2783.09758187377	13.5780266672329	438.610674892615
52	7.9433	2787.06939888226	729.199534654766	2880.88316242201	14.6620172444053	441.040718886479
53	6.3096	2875.74813171936	814.060308977262	2988.74915369951	15.805637376915	443.475767880331
54	5.0119	2973.79839094467	909.535225455458	3109.7799273147	17.0062340148249	446.060813873805
55	3.9811	3079.91331217179	1015.32722122535	3242.95472935627	18.2453710145971	448.580858867442
56	3.1623	3192.41777855068	1134.9920646452	3388.17624388314	19.5716948235562	452.320930857999
57	2.5119	3323.40352161887	1274.73153216089	3559.48752583767	20.9849190911275	454.820975851687
58	1.9953	3462.15345956088	1432.11028456022	3746.6580367966	22.4722993259336	457.531025844845
59	1.5849	3618.30903964557	1615.43788868734	3962.5496689111	24.0589517183864	460.3610768377
60	1.2589	3778.9487244175	1825.28911747229	4196.68128693845	25.7812419259877	463.446134829911
61	1	3960.63357444326	2076.33676721189	4471.88916252215	27.6654874743075	466.836198821352
62	0.79433	4170.64398221522	2369.41016713968	4796.70467785259	29.6016060147981	470.201260812856
63	0.63096	4380.83478780586	2703.31752933719	5147.78001690745	31.6778297394306	473.821327803716
64	0.50119	4617.96424452527	3122.57706212114	5574.59247592135	34.0657883296486	477.706396793907
65	0.39811	4881.58397041469	3605.09165109155	6068.48810437819	36.4461859064244	482.036478782975
66	0.31623	5174.07392147446	4202.98352677659	6666.04166437906	39.0875113581534	486.96157077054
67	0.25119	5546.42640710222	4902.76242229135	7402.69716109156	41.4750670767947	492.481672756603
68	0.19953	5942.29106571196	5761.4946168717	8276.81359762812	44.1149829734413	498.781787740697
69	0.15849	6398.36465485843	6769.40178424307	9314.71259744792	46.6140351479425	506.196929721976
70	0.12589	6859.56208319519	7960.29124275601	10508.0839662951	49.2477846247805	514.777086700313
71	0.1	7465.20066881634	9518.54744643076	12096.7750460877	51.8936408478882	525.042273674396
