Index	Frequency (Hz)	Z' (Ω)	-Z'' (Ω)	Z (Ω)	-Phase (°)	Time (s)
1	1000000	1225.22139737072	548.200447169348	1342.27091261478	24.1051601422022	23.8402149398092
2	794330	1284.7395633726	510.161230112487	1382.32421175523	21.6576860086631	25.2552399362366
3	630960	1360.67008645425	475.102626928499	1441.23058192843	19.2475739596573	26.6552649327019
4	501190	1436.38257095964	440.765680341005	1502.48769549807	17.0590578745863	28.2552929286622
5	398110	1494.96779254266	394.370813866579	1546.11029346863	14.7779040009728	29.6903199250391
6	316230	1559.86532856835	360.670937613111	1601.01947786664	13.0190964961545	31.0703469215549
7	251190	1612.67723437607	326.155488009692	1645.3283151498	11.4335463526231	32.3503689183232
8	199530	1657.37950883062	293.636545182576	1683.19020225238	10.046791882556	33.7603969147632
9	158490	1683.59030008521	256.087100635686	1702.95534341127	8.64883563052616	35.2754239109381
10	125890	1718.45311793651	232.141161032882	1734.06188966582	7.6933590962068	36.5754489076559
11	100000	1749.26927774646	210.56435174336	1761.8968052337	6.86382625487084	37.9654739041464
12	79433	1774.24428858523	191.703912227651	1784.57086873587	6.16678257948806	39.2554969008894
13	63096	1796.51314796776	175.545300762936	1805.06942898078	5.58090840971396	40.6405238973925
14	50119	1816.2642202623	161.95851863165	1823.47094288951	5.09565772659752	42.0805488937568
15	39811	1834.87236721082	150.899951724487	1841.06691876865	4.70142621974501	43.385572890462
16	31623	1850.82399504656	142.030762881691	1856.26565939384	4.38823212168603	44.6955978871545
17	25119	1865.49622323533	135.939188054282	1870.44262722869	4.16779146542908	46.1056248835945
18	19953	1881.18726136398	131.884944114152	1885.80464279895	4.01029028255349	47.5056498800598
19	15849	1896.2535881905	129.459672375248	1900.66763993521	3.90559615981802	48.8956758765503
20	12589	1911.26607727714	128.840616238927	1915.60380103589	3.85653890368485	50.2457028731418
21	10000	1928.10274002471	129.721675438231	1932.46161389283	3.84902746683156	51.5657248698091
22	7943.3	1943.66415287561	131.988013225879	1948.14044021702	3.88480899191508	52.8757498665016
23	6309.6	1960.10461995565	135.350140586378	1964.77219588639	3.95014682737369	54.2657768629921
24	5011.9	1978.41596095136	139.718300274703	1983.34336865273	4.03959549516058	55.6308018595457
25	3981.1	1996.97620174645	145.162872319185	2002.24529212623	4.15759422039679	56.9158238563014
26	3162.3	2016.88109339234	151.504975056361	2022.56349773012	4.29590180868315	58.1708498531327
27	2511.9	2038.18029470651	158.492740915206	2044.33335409192	4.44647971372204	59.5808728495728
28	1995.3	2059.18539285839	166.290105091823	2065.88888404309	4.61691816714768	60.8808968462905
29	1584.9	2083.58300971074	174.821925334433	2090.90431725914	4.79613811458177	62.1209198431598
30	1258.9	2107.41621120574	184.102232890898	2115.44244058026	4.99263959137172	63.4359448398396
31	1000	2134.50979977726	193.828221449324	2143.29220237824	5.18862183263749	64.7809718364438
32	794.33	2162.16503212087	204.348595827605	2171.80016915529	5.39904986933957	66.1959968328712
33	630.96	2191.05591772697	215.509179859271	2201.62899717686	5.61746360393959	67.4660208296647
34	501.19	2222.57912076558	227.154573085849	2234.15692110848	5.835546703722	68.7610428263951
35	398.11	2256.26396617679	239.731673191364	2268.96416018388	6.06501351625011	70.0210658232138
36	316.23	2290.29250991141	252.571918663036	2304.17715357423	6.29311098134527	71.3710938198053
37	251.19	2328.00901644793	265.91131165429	2343.14634761224	6.51623384251011	72.6811188164978
38	199.53	2367.50337581655	279.708203628025	2383.96915115938	6.73796409921504	73.9911428131903
39	158.49	2407.96469128794	293.489174076285	2425.7843782557	6.94908758732754	75.4111678096051
40	125.89	2451.88827271057	307.281615790704	2471.06820894498	7.14332077011409	76.8811948058936
41	100	2495.53902839975	320.765257374579	2516.06943318442	7.32437932597478	78.3412208022074
42	79.433	2544.500836019	334.673861984626	2566.41600259917	7.49300496374859	79.8362507984328
43	63.096	2594.7851000664	348.374284032258	2618.06691230412	7.64676979079553	81.3512757946078
44	50.119	2646.723398625	361.937915562299	2671.35617309835	7.78686570408089	82.7413017910983
45	39.811	2698.7716438205	375.452407364402	2724.76290632512	7.92013872853563	91.9064737679585
46	31.623	2752.1264209752	389.862685250753	2779.60298430922	8.06279938781278	93.5615047637799
47	25.119	2807.40120386898	404.284313030569	2836.36163513181	8.1946340208095	95.1465317597781
48	19.953	2863.63733487623	422.186458759958	2894.5915414195	8.38670962877643	97.0715677549179
49	15.849	2920.44240157199	440.762299159565	2953.51573980231	8.58248600012158	99.0316037499692
50	12.589	2980.47423618559	462.443979358355	3016.13678512942	8.81956481789042	101.166643744579
51	10	3041.39305166398	486.735112851957	3080.0946032213	9.09233829856008	103.43168673886
52	7.9433	3103.08972134507	515.563120635773	3145.62730628998	9.43324328173921	105.746727733015
53	6.3096	3170.37108741037	549.438274014585	3217.62882396956	9.83193726885366	108.141775726968
54	5.0119	3238.00811849772	588.634967426245	3291.07698183042	10.3032401233342	110.506817720997
55	3.9811	3313.7515346875	634.35044241168	3373.92200820228	10.8370076364391	114.131886711845
56	3.1623	3393.43804218816	687.199927256301	3462.32082369483	11.4480621385055	116.591930705634
57	2.5119	3477.75872097302	748.206797775006	3557.3331490796	12.1415750830964	119.161975699145
58	1.9953	3569.86912886318	817.115161104176	3662.19098132753	12.8924660928072	121.797028692492
59	1.5849	3672.79757676431	896.435737178127	3780.61358390088	13.7162581858113	125.947103682014
60	1.2589	3783.8354371201	984.650839269899	3909.85266864121	14.5863228874486	128.797155674818
61	1	3906.63232618016	1088.59869362612	4055.4683142296	15.5707076130373	133.962251661778
62	0.79433	4043.26239699216	1202.53597411138	4218.30103003126	16.5633857093725	137.10231065385
63	0.63096	4197.47146664233	1325.82421630074	4401.8832976132	17.5293777596603	140.712377644735
64	0.50119	4355.1570622355	1469.71397326391	4596.46083415783	18.6477490204535	144.537450635078
65	0.39811	4540.50059845799	1628.0773538613	4823.56523276646	19.7261993932151	148.787525624348
66	0.31623	4737.38990313886	1815.96148743551	5073.51744041656	20.9730929743304	153.64261761209
67	0.25119	4986.45209978112	2015.48297197667	5378.37114317518	22.0081541932497	159.077717598367
68	0.19953	5243.06746460806	2243.23492643523	5702.79399712198	23.1635544865361	165.372833582474
69	0.15849	5524.79753355336	2476.87227252509	6054.60849610946	24.1476048771238	172.572966564295
70	0.12589	5800.17139423926	2760.86013876833	6423.73231917328	25.4542754940388	181.183127542557
71	0.1	6186.54306793115	3093.71546609747	6916.9639666936	26.5683402135801	191.383315516804
