Index	Frequency (Hz)	Z' (Ω)	-Z'' (Ω)	Z (Ω)	-Phase (°)	Time (s)
1	1000000	2042.99141665396	1061.39150317814	2302.25234315018	27.4531457470408	21.0161589469393
2	794330	2163.25955258704	959.871373349305	2366.65268791907	23.9275939369243	22.3711799435182
3	630960	2317.57895482936	880.587238696994	2479.2349821717	20.8047870200315	23.7712059399835
4	501190	2466.27144039961	802.197253950317	2593.45623675746	18.018008386419	25.2562349362341
5	398110	2591.35335428033	718.591312996794	2689.14218327227	15.4988795074704	26.651258932712
6	316230	2709.50810734578	651.55443600787	2786.7467353267	13.5211733850209	28.0212839292531
7	251190	2758.89591427671	548.629868483138	2812.91688437546	11.2470303710454	29.3163089259834
8	199530	2854.25343184315	496.755378294625	2897.15870449878	9.87288896052482	30.7163369224487
9	158490	2928.46722551243	444.400764145219	2961.99465395759	8.62891370428647	32.0863609189897
10	125890	2988.90437533748	396.798177877347	3015.1282159932	7.56220001106906	33.3463829158085
11	100000	3038.78963237093	352.303074400159	3059.14365240288	6.61308166715279	34.7314089123116
12	79433	3080.70127306192	312.970146756593	3096.55787070194	5.80080854768532	36.0364339090168
13	63096	3116.99387017849	278.263163477932	3129.38990457869	5.10143833831704	37.436459905482
14	50119	3144.48976079448	247.581039190041	3154.2213344513	4.5018892532421	38.8764889018463
15	39811	3172.30630600487	221.435139599143	3180.02528608934	3.99291615721187	40.1965118985136
16	31623	3195.04490875452	199.136536448291	3201.24465311647	3.56644231167895	41.5015358952187
17	25119	3215.10627868708	180.671694863441	3220.17866656152	3.2163321971754	42.7565568920501
18	19953	3234.38205806723	165.679084418683	3238.62267894255	2.93237546483708	44.0415828888057
19	15849	3250.87108165362	153.376827334019	3254.48724697069	2.70122464168161	45.3616078854729
20	12589	3266.8387588742	143.516731286322	3269.9896832623	2.51546517642129	46.6866298821276
21	10000	3281.63584660739	135.695687507185	3284.44015767477	2.36783236242829	47.9866558788453
22	7943.3	3299.87561541818	130.174820683946	3302.44221163242	2.25905561419626	49.2966808755378
23	6309.6	3313.60811424398	125.725656734726	3315.99241186479	2.17288691638534	50.5667038723313
24	5011.9	3330.19827233101	122.548492774561	3332.45235016463	2.10748548933231	51.8467248690996
25	3981.1	3345.17477082481	120.27365899691	3347.33625445836	2.05914679346793	53.1467508658174
26	3162.3	3361.3566823096	118.994128253454	3363.46225610846	2.02745976158653	54.4217748625982
27	2511.9	3374.96457942641	118.406100362905	3377.04100019323	2.00932135802401	55.7317988592907
28	1995.3	3392.08903752737	118.537824125448	3394.15957996405	2.00140808487472	56.9918208561095
29	1584.9	3407.86693541869	119.104395933843	3409.94763986938	2.00166344936146	58.2518458529282
30	1258.9	3423.83255699217	120.448539823841	3425.95055846771	2.01480300814858	59.5418718496712
31	1000	3439.9159718765	121.973271847479	3442.07776969322	2.03075513684259	60.8868928462754
32	794.33	3456.6713984213	124.241256909741	3458.90344568657	2.05846487776501	62.291922842728
33	630.96	3473.44321888727	127.244797048634	3475.77315617834	2.09801359134146	63.5719418394963
34	501.19	3491.26271448616	131.216218030517	3493.72767076021	2.15240133568788	64.871968836214
35	398.11	3509.84787994939	135.771323222857	3512.47291699095	2.21526612881353	66.121988833058
36	316.23	3527.77447999406	141.195495806383	3530.59895056539	2.2919805113927	67.3820148298768
37	251.19	3546.61667631492	147.936939787358	3549.70071792944	2.38854443140287	68.7170398265062
38	199.53	3564.28251731045	155.575117049721	3567.67620171029	2.49928091460322	70.0770648230724
39	158.49	3583.77571321735	164.179670047638	3587.53443561222	2.62299608420395	71.3320888199038
40	125.89	3606.22463090047	174.204356487119	3610.42978692736	2.7656129328568	72.6921128164701
41	100	3628.09012459258	185.631517081604	3632.83594624093	2.92898895543462	74.0371388130742
42	79.433	3652.33515460763	198.431989772756	3657.72160451665	3.10983201130848	75.4321628095521
43	63.096	3680.17950709851	213.037721415179	3686.34049908762	3.31303278460948	76.8571908059542
44	50.119	3709.27685755441	228.625634737858	3716.3159831812	3.52703074800195	78.2622158024069
45	39.811	3740.59028133013	245.654754433552	3748.64801110443	3.75737439758253	87.3323837795069
46	31.623	3774.55469839149	263.876193016869	3783.76714616403	3.99899723427529	89.2074167747729
47	25.119	3811.02977569146	283.516365678745	3821.56113137218	4.25460405995413	90.8624477705944
48	19.953	3850.67637740167	306.210222872732	3862.83228526311	4.54665874852294	92.7924837657215
49	15.849	3891.50933591953	328.597477531412	3905.35801352307	4.82658297262045	94.7975237606593
50	12.589	3937.27327332992	352.874065022113	3953.05463339977	5.1213920686715	96.802557755597
51	10	3987.12301604235	379.888140073055	4005.17976425813	5.44264104295513	99.062600749891
52	7.9433	4034.74108667333	407.473030487612	4055.26446820237	5.7668124779722	101.577646743541
53	6.3096	4090.2059800612	439.517378423194	4113.75260379916	6.13324394862173	103.877688737734
54	5.0119	4144.36735362279	474.724528943096	4171.46786397242	6.53457452779163	106.202733731864
55	3.9811	4204.83928504656	513.769518332899	4236.11054282568	6.96617196283192	108.722780725501
56	3.1623	4267.43668190962	559.975248012288	4304.01999443476	7.47566966065356	111.27782771905
57	2.5119	4330.58993743237	613.81409924104	4373.87436429278	8.06731691921846	113.847872712562
58	1.9953	4399.14266983495	674.195002004874	4450.50504215993	8.71312773347647	116.532925705783
59	1.5849	4475.06199778092	745.794114852572	4536.78176086658	9.46170492910064	119.272975698865
60	1.2589	4554.13256140099	832.384724884747	4629.57748796088	10.357943169731	122.043027691871
61	1	4636.75004956285	933.728512527954	4729.83085926218	11.3856993213926	125.348088683527
62	0.79433	4735.4372504851	1054.19726169613	4851.36040918932	12.550457728949	128.508146675548
63	0.63096	4824.53489822218	1196.06013187755	4970.5831472002	13.9235923551218	131.958210666838
64	0.50119	4939.70384259905	1370.03623276304	5126.17531222561	15.5014552885797	135.808280657117
65	0.39811	5057.72805874519	1585.38069951901	5300.38159745369	17.403969272083	139.958356646639
66	0.31623	5200.44636069742	1820.96272389889	5510.0406162133	19.2979617085153	144.723444634608
67	0.25119	5346.90621603011	2147.5994105035	5762.0820291815	21.8829954546674	150.168547620861
68	0.19953	5521.41624178813	2502.89197361177	6062.21952313276	24.385079410524	156.373660605194
69	0.15849	5746.45610387221	2931.89078021989	6451.1813879993	27.0310613724801	163.593794586965
70	0.12589	6011.00391481037	3387.23736103537	6899.67716664044	29.4015245185493	172.118952565441
71	0.1	6223.76474193981	4033.42348846784	7416.45148304343	32.9459859738947	182.294142539752
