Index	Frequency (Hz)	Z' (Ω)	-Z'' (Ω)	Z (Ω)	-Phase (°)	Time (s)
1	1000000	2044.96722301786	1059.31525988256	2303.05009998424	27.3846478888841	214.418501458645
2	794330	2163.84719627958	958.773778719358	2366.7449899824	23.8975363481455	215.718525455363
3	630960	2319.56764954065	877.871556725387	2480.13155919257	20.7298221436482	217.078549451929
4	501190	2463.05479744309	799.391748355961	2589.53009299892	17.9809925112983	218.568576448167
5	398110	2590.86059231605	718.72436354691	2688.70290652802	15.504417671823	219.97360244462
6	316230	2708.65802143825	650.031299466583	2785.56438938108	13.4948007270407	221.378630441073
7	251190	2758.26855009942	547.860287055604	2812.15154083136	11.2341447895752	222.693654437753
8	199530	2852.40819551895	497.038245345675	2895.389357444	9.88466453157038	224.058677434306
9	158490	2926.1283086672	444.826827071684	2959.74623656594	8.64386140222731	225.408705430898
10	125890	2986.57492306552	396.80247916438	3012.81960604262	7.56811108050021	226.688726427666
11	100000	3037.02716420545	352.019695082995	3057.36027674988	6.61161016086123	228.153755423967
12	79433	3078.30703562447	312.563469733535	3094.13479476687	5.79779744378824	229.458780420672
13	63096	3113.23316517161	277.700510866283	3125.59407384578	5.09729504434935	230.838804417188
14	50119	3145.20330031925	247.471128543468	3154.92404976755	4.49888222087773	232.18882941378
15	39811	3170.28352556208	221.35025850687	3178.00150556782	3.99392897397631	233.57885741027
16	31623	3193.45316901171	199.035073324979	3199.64968443179	3.56640200497499	234.888881406963
17	25119	3214.91227443146	180.920999391865	3219.99896588664	3.22095494761481	236.18890340368
18	19953	3231.61043127673	165.511143750606	3235.84609001142	2.93191629917839	237.468928400449
19	15849	3249.17793313449	153.173478282425	3252.78639870761	2.69905228380608	238.748949397217
20	12589	3266.42826154032	143.495067715676	3269.57863068746	2.51540162845623	240.088976393834
21	10000	3281.49423096136	135.797091757692	3284.30285417812	2.36970195296685	241.358999390627
22	7943.3	3297.46611691076	129.953480917976	3300.02586344066	2.25686466245732	242.619021387446
23	6309.6	3312.09657355495	125.472377711099	3314.47236074205	2.16950243653647	243.904048384201
24	5011.9	3327.65661362717	122.445339854359	3329.90861728497	2.10732004088293	245.25907038078
25	3981.1	3343.33628043598	120.305502913763	3345.50009686307	2.06082314989407	246.514095377612
26	3162.3	3360.23321571786	119.128011885811	3362.34423389834	2.03041706525381	247.749116374494
27	2511.9	3375.90160833245	118.55725775223	3377.98275491562	2.01132638573195	249.044140371224
28	1995.3	3388.92780573166	118.300502056028	3390.9919907378	1.99926604803934	250.374165367866
29	1584.9	3405.25160603438	119.010868496654	3407.33063955056	2.00162778708124	251.60418736476
30	1258.9	3422.014360366	120.577186760651	3424.1380142334	2.01802394220468	252.839213361642
31	1000	3438.24431610167	121.952031925009	3440.40641135551	2.03138814904291	254.13923435836
32	794.33	3455.93429209976	124.430231606365	3458.17360955876	2.06203249698515	255.554262354788
33	630.96	3472.63816107746	127.596911356169	3474.98154952786	2.1043013325724	256.824284351581
34	501.19	3489.25410579192	131.250628733948	3491.72177332743	2.15420345873416	258.109310348337
35	398.11	3508.6485480502	135.974552708875	3511.28234591284	2.21933634180426	259.419332345029
36	316.23	3524.69457089994	141.510230590223	3527.53411939463	2.29908909114306	260.744356341684
37	251.19	3544.55724390144	148.068161837385	3547.6485502152	2.39204803624334	262.034381338427
38	199.53	3561.77769261039	155.774792297315	3565.1824802515	2.50424221516261	263.334404335145
39	158.49	3585.11895824476	164.585986435466	3588.89488445913	2.62849463678664	264.679432331749
40	125.89	3604.16142313568	174.712720343299	3608.39356205351	2.77525628148748	266.024454328353
41	100	3628.20238324537	186.493823282224	3632.99222128397	2.94248012171217	267.374481324944
42	79.433	3652.44757160744	199.222202860694	3657.87680894993	3.12209589465546	268.75450732146
43	63.096	3678.27962749615	213.604644598019	3684.47661985349	3.32354143442429	270.199532317812
44	50.119	3708.01061994313	229.935890155728	3715.13300854663	3.54840095223474	271.619561314227
45	39.811	3740.39310196974	246.961246825032	3748.53710328391	3.77749849959137	280.724726291238
46	31.623	3774.9039458585	265.494081725237	3784.22870713296	4.02306475330236	282.329756287186
47	25.119	3812.05833024927	285.033257414507	3822.69965744827	4.27613332554239	283.984786283007
48	19.953	3851.01549840106	307.891114937051	3863.30393673373	4.5711105403111	285.90482427816
49	15.849	3894.54392980349	331.283608138892	3908.60860795639	4.86207611433884	287.864859273211
50	12.589	3937.35917616489	355.806677306264	3953.40304974658	5.16361295274633	289.869897268149
51	10	3986.37059548586	382.438214534124	4004.67345890902	5.47998211634745	292.13493826243
52	7.9433	4036.87292404375	410.444882708077	4057.68505512919	5.8055389175458	294.444983256598
53	6.3096	4092.00830703412	442.86995829758	4115.90400578035	6.17696610296084	296.720025250854
54	5.0119	4148.63227441249	478.533645128191	4176.13986808591	6.57983627091515	299.115067244807
55	3.9811	4208.02724968711	519.443105568276	4239.96632935118	7.03704982180795	301.600116238533
56	3.1623	4269.84901441215	564.081109335435	4306.94765510164	7.52565083681527	304.075161232284
57	2.5119	4337.12076618755	618.625116325068	4381.01741323217	8.11762732664525	306.645207225795
58	1.9953	4407.99040243362	680.326219702511	4460.18196413124	8.77376295424002	309.215256219307
59	1.5849	4482.03315316191	753.318057666228	4544.89925983498	9.54081910652136	311.980306212325
60	1.2589	4561.40551783983	837.369546819832	4637.62957297377	10.4023692493656	314.795359205218
61	1	4647.02370998546	941.844017412676	4741.50814765757	11.4573282453623	317.965420197214
62	0.79433	4740.39336898584	1058.83918132996	4857.20801537719	12.591201696808	321.220478188996
63	0.63096	4843.52698049961	1200.81409015595	4990.16112865554	13.924100461527	324.750543180084
64	0.50119	4944.18109441473	1368.95951886379	5130.20241887743	15.4765035685276	328.555613170477
65	0.39811	5067.30113555673	1576.77929881353	5306.95522456912	17.2844427405136	332.755690159873
66	0.31623	5193.19363957855	1846.58746356397	5511.72799027226	19.574287601178	337.460778147993
67	0.25119	5371.7733992865	2125.46261286887	5776.98370882119	21.5873395442474	342.850877134385
68	0.19953	5559.86673055775	2478.25115520373	6087.18710488116	24.0244119004547	348.990992118882
69	0.15849	5754.72747626217	2892.54058923323	6440.78251351561	26.6858078075592	356.25612710054
70	0.12589	5976.36928749081	3449.76319650041	6900.5692498802	29.9950009111117	364.816286078927
71	0.1	6325.02612769704	4016.83561142741	7492.72472771299	32.4184136326271	374.896470053477
