Index	Frequency (Hz)	Z' (Ω)	-Z'' (Ω)	Z (Ω)	-Phase (°)	Time (s)
1	1000000	1363.6396451051	523.510236282343	1460.67657241251	21.0021246938923	22.9912019419528
2	794330	1409.77750361071	471.796469130297	1486.62857431527	18.5033447870143	24.416226938355
3	630960	1475.17497289728	425.183660265286	1535.22713160596	16.0783525385537	25.8212529348076
4	501190	1538.45546087281	380.583269151787	1584.83085212512	13.8948774699925	27.3462809309573
5	398110	1582.74061502466	326.514870382194	1616.06924821597	11.6564315607401	28.7763079273468
6	316230	1633.30320665955	287.876847567399	1658.47895502165	9.9959657864152	30.2163339237111
7	251190	1672.95798840168	251.290061053749	1691.72548770224	8.54236652691156	31.4763579205298
8	199530	1704.42275991533	217.998543501926	1718.30739668034	7.28865402768363	32.8513829170582
9	158490	1717.17819981557	180.844016813712	1726.67470252482	6.01192374883199	34.2564089135109
10	125890	1740.08371432941	157.693219158127	1747.21449291233	5.17822371551606	35.5914369101403
11	100000	1758.20191153406	137.139450551886	1763.54222819293	4.46003079775996	37.0214639065298
12	79433	1773.43378932341	119.647089376472	1777.46528267369	3.85968765311046	38.3614859031466
13	63096	1785.93685408934	104.711615963199	1789.00390421937	3.35547871783772	39.7065098997507
14	50119	1795.68229618765	92.1221937882237	1798.0437723899	2.93681662703025	41.066536896317
15	39811	1804.04193780599	81.5354263439621	1805.88353420476	2.58777732724939	42.3265578931357
16	31623	1811.58236183442	72.7065683943076	1813.04078795742	2.29829185077943	43.6215838898661
17	25119	1816.92066432535	66.3205313446101	1818.13066453715	2.09046016607846	44.9216058865838
18	19953	1823.92502571613	61.3504757671077	1824.95654203338	1.92650382804894	46.1966318833647
19	15849	1828.79780731272	57.5199660666789	1829.70215240845	1.80149231601843	47.4566548801835
20	12589	1835.59269552675	54.7988631545084	1836.41048223815	1.70997157539532	48.9466828764215
21	10000	1840.53667102682	52.8819973436619	1841.29621273644	1.64576015798392	50.2517058731266
22	7943.3	1847.54034883905	52.0810591875949	1848.2742700461	1.61470619659578	51.6217318696677
23	6309.6	1852.78281515592	51.7839708941225	1853.50633658983	1.60095978076989	52.876754866499
24	5011.9	1858.51198738902	52.1065443930637	1859.24229169769	1.60596391861445	54.1367788633178
25	3981.1	1864.33774445869	53.0730186920702	1865.09301932274	1.63062671965507	55.3867998601618
26	3162.3	1871.36475399984	54.451217592224	1872.15677164338	1.66666863981583	56.6968258568543
27	2511.9	1878.41158307981	56.4779011891391	1879.26044729599	1.7221842206137	57.9618498536604
28	1995.3	1885.53947238109	58.9283693905927	1886.46008561702	1.79007031428723	59.2168728504918
29	1584.9	1892.37179467116	62.042750984915	1893.38857929817	1.87781012587803	60.3668948475882
30	1258.9	1899.84341393196	65.8822540648332	1900.98539417359	1.98609161878524	61.7169198441798
31	1000	1908.2420852844	70.4237931774308	1909.5411403518	2.11354512685454	62.996940840948
32	794.33	1916.43892114887	75.9042386208696	1917.94149856946	2.26812371139051	64.3769678374638
33	630.96	1925.69592826957	82.3821836947253	1927.45729715195	2.44964688521395	65.616989834333
34	501.19	1935.27897295806	90.1008606548221	1937.37525231029	2.6655970681388	66.8870148311265
35	398.11	1946.70664146351	99.2686885115461	1949.23600942445	2.91916334796181	68.1520398279326
36	316.23	1957.77987520447	109.926954374815	1960.8635788993	3.21371376112569	69.4120618247514
37	251.19	1970.68451528336	122.473940523872	1974.48659779829	3.55623964117434	70.7020848214944
38	199.53	1984.29451242802	136.681035563381	1988.9963342185	3.94039093396514	71.9721078182879
39	158.49	2000.33371951701	153.308727265053	2006.20002873402	4.38267102739503	73.2971338149425
40	125.89	2019.25221881538	171.865733990704	2026.55307201933	4.8649223867093	74.6871578114331
41	100	2037.90642503258	192.841816213761	2047.01015221461	5.40565512548433	76.0021828081129
42	79.433	2062.51900482827	216.975993707444	2073.90048631152	6.00539928060893	77.3622098046792
43	63.096	2088.13749993817	243.611588184167	2102.29988929877	6.65430448931249	78.7772338011066
44	50.119	2119.45887328271	273.714861190167	2137.06006952851	7.35866252296694	88.6324167762247
45	39.811	2152.32695857057	307.408146942795	2174.16906090498	8.12835098594264	97.6675837534131
46	31.623	2190.24763858306	344.222352017827	2217.13187382874	8.9316260739341	99.2476117494239
47	25.119	2231.63656717904	385.099266652746	2264.61988270596	9.79074300610337	100.847641745384
48	19.953	2280.34248070722	433.373784324501	2321.15804422226	10.7606034108212	102.667677740789
49	15.849	2332.35254031821	484.8514503705	2382.21520884558	11.7434402433593	104.547710736042
50	12.589	2389.17992715503	543.110678632819	2450.13263591291	12.8068939269548	106.462745731207
51	10	2453.70356082254	609.58958370423	2528.29203711793	13.9519013736136	108.732787725476
52	7.9433	2522.18944418904	684.994583583358	2613.55259597299	15.1943065568547	110.977829719808
53	6.3096	2599.23217068772	769.01536031464	2710.6074045383	16.4815105664984	113.362873713786
54	5.0119	2682.37518122328	868.178945015941	2819.3742733826	17.9347196484584	115.727919707815
55	3.9811	2775.52478625315	982.758213620319	2944.37625746843	19.4980434794038	118.092963701844
56	3.1623	2875.91430807577	1114.54834030043	3084.33154998962	21.1836280606407	120.498005695772
57	2.5119	2989.06968436862	1270.10151274346	3247.72157530241	23.0213825429996	123.09305468922
58	1.9953	3111.97877182617	1451.72847357196	3433.9375995024	25.0089058871079	125.72310468258
59	1.5849	3247.02195134797	1663.15786008335	3648.18387969858	27.121989124229	131.03820466916
60	1.2589	3398.36578392013	1913.30034955274	3899.94977261473	29.3797724171026	133.838254662091
61	1	3570.01951999539	2214.71273726786	4201.18934133712	31.8139884373049	137.108314653835
62	0.79433	3761.1848607133	2567.17129487241	4553.77645626966	34.315226585066	140.288373645806
63	0.63096	3981.94306767498	2984.4153409947	4976.20392686728	36.8510888220752	143.753436637057
64	0.50119	4214.48076862151	3493.93486849849	5474.43412732221	39.6597815349785	147.503505627589
65	0.39811	4483.1633821891	4094.73850967915	6071.70794538494	42.4073014905034	151.703585616985
66	0.31623	4801.27245896658	4840.00132946783	6817.46507834704	45.2301551577559	156.548675604753
67	0.25119	5180.92642553818	5692.47297911588	7697.15838766516	47.6935333298324	161.973775591056
68	0.19953	5628.61281609941	6741.11025904389	8782.01854690283	50.1391915282613	168.113886575553
69	0.15849	6127.83053827399	8003.95208962627	10080.3549619463	52.5623097380442	175.319020557362
70	0.12589	6754.51296160596	9574.67241233029	11717.4142690246	54.798703166575	183.849178535825
71	0.1	7562.14448217718	11321.2157027811	13614.5493556791	56.2585730003095	194.049367510072
