Index	Frequency (Hz)	Z' (Ω)	-Z'' (Ω)	Z (Ω)	-Phase (°)	Time (s)
1	1000000	1051.48725014232	399.042112468013	1124.65996849483	20.7818824002913	26.148243933982
2	794330	1089.32943395888	367.265913900234	1149.57508115049	18.6314628952887	27.5732709303842
3	630960	1139.90868158582	336.618560159829	1188.57219275852	16.4520336121933	29.0082959267611
4	501190	1189.71346823509	306.489777279788	1228.55773982218	14.4462229181333	30.483324923037
5	398110	1223.57037829046	268.488772515425	1252.68140067485	12.3762962761756	31.9483499193382
6	316230	1266.59847670214	241.467798466829	1289.41009724626	10.7935058305748	33.4783779154752
7	251190	1300.99864091453	214.945536944742	1318.63529738662	9.38142165216253	35.1734119111957
8	199530	1328.4460882813	190.714982836035	1342.06602451148	8.16970166361668	36.6884429073706
9	158490	1351.92617616158	169.026064214523	1362.45153901881	7.1264890463665	38.0884659038359
10	125890	1371.69394691008	149.777708058446	1379.84696463811	6.23154068882671	39.4085179005031
11	100000	1387.74704473977	133.199857811702	1394.12483741773	5.48261439520474	42.5835508924869
12	79433	1401.09189114553	118.657381973139	1406.10741471997	4.84078390593961	43.8335718893309
13	63096	1413.68845367222	106.386392073035	1417.68582854752	4.30365223120283	45.178594885935
14	50119	1425.73634666713	96.0541166215777	1428.96834238121	3.85428304635361	46.6536248822109
15	39811	1434.87862616124	87.3518641432141	1437.53505000179	3.48372603447304	47.9436478789539
16	31623	1443.47653840125	80.1622420571568	1445.70069584492	3.17860742242872	49.2586698756338
17	25119	1451.17564901025	74.6166151447042	1453.0927030083	2.94344483335512	50.6636978720865
18	19953	1459.69404545727	70.4213738448356	1461.39176001427	2.76203191205305	51.9637198688042
19	15849	1466.78310487851	67.4051526536691	1468.33107007967	2.63114264741972	53.2787458654841
20	12589	1473.78238029256	65.5689354016689	1475.24024814622	2.54742323323998	54.6837708619368
21	10000	1481.64041601223	64.5542905217535	1483.04604742593	2.49476904998189	56.043798858503
22	7943.3	1488.98831115524	64.7669500302845	1490.3962387812	2.49064090905767	57.3388218552334
23	6309.6	1496.01901939181	65.909646012293	1497.47019597036	2.52263109862253	58.7188478517492
24	5011.9	1503.04976352472	67.7576697588731	1504.5762504582	2.58115330485505	60.0538738483785
25	3981.1	1511.6913846364	70.5578436452325	1513.33712426669	2.67232771805303	61.3488938451089
26	3162.3	1519.87412332531	74.2280720054384	1521.68563028883	2.79600702364453	62.6789218417509
27	2511.9	1528.53461946498	78.8916223859753	1530.56916569805	2.95456161757553	64.0389448383172
28	1995.3	1538.85924403439	84.4930431329646	1541.17709796375	3.14274275112227	65.4839708346689
29	1584.9	1548.17013020207	91.1020978475377	1550.84826604091	3.36768757266332	66.7689968314245
30	1258.9	1559.21901778213	98.9381917785367	1562.35486084496	3.63076061460717	68.0690208281422
31	1000	1572.00686414872	107.983473945474	1575.71127164085	3.92955893365361	69.4740468245949
32	794.33	1585.18659846343	118.45681975753	1589.60641987101	4.27361963404033	70.899073820997
33	630.96	1599.4742347839	130.448315538278	1604.78490482815	4.66255227331946	72.2240968176517
34	501.19	1614.88093757729	144.037537575458	1621.2918475035	5.09694655097946	73.5991208141801
35	398.11	1633.86390989116	159.755975824551	1641.65564228814	5.58451594626916	75.0141498106075
36	316.23	1652.76119712338	177.453966933684	1662.26035418559	6.12826696912024	76.3591728072116
37	251.19	1674.67411171892	197.609651642798	1686.29266584538	6.72971806690485	77.7141988037905
38	199.53	1698.19847671475	220.055371597021	1712.39669261681	7.38333989887554	79.0192238004956
39	158.49	1725.20658335867	245.46342221202	1742.58143193027	8.09772675937603	80.4192497969609
40	125.89	1755.17038434823	273.947666813588	1776.42067153187	8.87117220820624	81.8292757934009
41	100	1787.41302205552	305.784905301921	1813.38074317672	9.7079979501361	83.2192987898915
42	79.433	1825.04820539107	341.966046207338	1856.80955640579	10.6126647680319	84.6993287861548
43	63.096	1866.25992960358	382.31513058512	1905.017318535	11.5772254350299	86.2943587821277
44	50.119	1912.84950950408	427.718197519021	1960.08573855812	12.6041556926905	87.8343867782395
45	39.811	1966.44750500207	479.381686679118	2024.03621297945	13.7003701064504	96.9845557551375
46	31.623	2023.80693114247	536.27459913427	2093.6534909619	14.8413213590342	98.6995857508075
47	25.119	2089.11031944346	601.388891079132	2173.94814223306	16.0594388392697	100.329617746692
48	19.953	2160.91624006738	675.814927959249	2264.13003456946	17.36679248314	102.349655741592
49	15.849	2239.9270651222	758.011851279619	2364.71038897944	18.6962904893482	104.379691736467
50	12.589	2329.77888378193	851.959348135146	2480.66611582273	20.0865813099275	106.444731731253
51	10	2428.37848104532	957.541307423764	2610.34622275031	21.519964431632	108.799776725307
52	7.9433	2538.19191434126	1078.12652052705	2757.67564958085	23.0139226373949	111.114815719462
53	6.3096	2660.98928687881	1215.13206331438	2925.30509796473	24.5436546499533	113.559860713289
54	5.0119	2793.17824872031	1370.27040912372	3111.18718871821	26.131530004053	115.934905707293
55	3.9811	2940.16204443982	1550.22166694482	3323.81408388461	27.8007635724787	120.37999169607
56	3.1623	3103.70286908138	1758.50646401235	3567.25615613979	29.5351700658168	122.865034689796
57	2.5119	3282.19723547211	1999.54159225186	3843.30395254992	31.3501172056084	125.590086682916
58	1.9953	3480.71439226049	2281.9667722688	4162.06019060612	33.2489686989235	128.240134676225
59	1.5849	3700.8182265207	2614.78403355379	4531.3520154448	35.2428162785434	131.000185669256
60	1.2589	3947.50176453279	3007.16773676916	4962.44173548212	37.2997911089351	133.855238662048
61	1	4222.86957901897	3472.44359022303	5467.2197659034	39.4302823249309	139.01533364902
62	0.79433	4542.59277296808	4021.94860714903	6067.22504111804	41.5212325150116	142.215394640941
63	0.63096	4894.22330899485	4669.19441935056	6764.2293222512	43.6520690324111	145.815457631851
64	0.50119	5304.31618353171	5446.45126283732	7602.60491761466	45.7574590154809	149.575527622358
65	0.39811	5764.85311654163	6370.46999601691	8591.6482368316	47.8569925336486	153.830609611615
66	0.31623	6318.59305978753	7460.46847992181	9776.66651753562	49.7372956774375	158.650695599446
67	0.25119	6916.69429996681	8761.76465768434	11162.8482008778	51.7118040640309	164.080796585736
68	0.19953	7648.70062181416	10278.5279644229	12812.133246168	53.3454574487048	170.420915569729
69	0.15849	8487.08117738342	12109.3090795567	14787.3565350853	54.9744445821561	177.796052551108
70	0.12589	9529.4265361888	14343.7119072	17220.6864376938	56.4014212927471	186.506213529117
71	0.1	10706.3547811857	16778.1932771464	19903.1103686307	57.4575923102469	196.766401503213
