Index	Frequency (Hz)	Z' (Ω)	-Z'' (Ω)	Z (Ω)	-Phase (°)	Time (s)
1	1000000	1364.88323238408	523.861656929551	1461.96349942267	20.9975146548815	595.696451496011
2	794330	1410.93880664979	472.527220250714	1487.96179050008	18.5158371235921	597.882486490492
3	630960	1476.05388354225	425.873954164297	1536.26289805999	16.0940120674908	600.003526485137
4	501190	1540.04459094999	381.476620220958	1586.58808576439	13.9124135230857	602.259566479441
5	398110	1585.06475349433	327.225135599564	1618.48897498197	11.6644336317173	604.475610473846
6	316230	1636.38241443504	289.014369234271	1661.70897328507	10.0161631127076	606.571649468554
7	251190	1676.22500906376	252.037322923708	1695.06728278183	8.55094150510354	608.657686463287
8	199530	1706.79323765457	218.220498856196	1720.68688093575	7.28597098011807	610.813727457844
9	158490	1719.68775416446	181.456450537067	1729.23463279704	6.02339547014222	612.87476545264
10	125890	1743.26904165026	158.202271688129	1750.43277801334	5.18540801532987	614.840802447676
11	100000	1761.51213765645	137.638109323326	1766.88122414867	4.46780478938502	617.111842441942
12	79433	1776.40735536335	120.084653658783	1780.46157392777	3.86729543650568	619.067878437004
13	63096	1787.92872018917	105.024550262725	1791.01068244586	3.36174290803301	621.143917431762
14	50119	1798.28586525219	92.2408329101627	1800.65000053363	2.93634220733058	623.264958426407
15	39811	1807.60358679839	81.7994297578105	1809.45347376359	2.59103645204794	625.395997421027
16	31623	1814.14239184722	73.0736671594926	1815.6134992694	2.30662742014428	627.367034416051
17	25119	1820.44006378049	66.6855744712923	1821.66105290191	2.0978962248974	629.40307241091
18	19953	1826.15618562188	61.4458561970076	1827.18964738991	1.92714102460345	631.424109405807
19	15849	1832.52080435259	57.6037628492647	1833.42594393104	1.80045217769395	633.380146400869
20	12589	1838.20133458776	54.9317710699167	1839.02192644707	1.71168533147687	635.321180395968
21	10000	1844.38725130279	53.078089728797	1845.15083838084	1.64841271687344	637.367220390802
22	7943.3	1850.93256499879	52.2193899540844	1851.66903761449	1.61602712080725	639.46325638551
23	6309.6	1856.14876381085	51.9120680281276	1856.87455047548	1.60200913165312	641.47929538042
24	5011.9	1862.26269033128	52.2690942701649	1862.99607783154	1.60772831241627	643.525332375255
25	3981.1	1868.64387021768	53.2450027861049	1869.40229592878	1.63214016406935	645.571369370089
26	3162.3	1875.67756404649	54.5237590588821	1876.46986774882	1.66505259998468	647.587407364999
27	2511.9	1881.52776386747	56.4720926571052	1882.37504856317	1.71915693688113	649.523445360111
28	1995.3	1888.93626832158	59.1336560946418	1889.86163913229	1.79307413592944	651.539479355021
29	1584.9	1896.09045913361	62.1731155562114	1897.10951858754	1.87806505729234	653.630518349742
30	1258.9	1904.20333158481	65.7494935402544	1905.33811275571	1.97755795745857	655.606557344753
31	1000	1911.45994861731	70.3875449480284	1912.75548402087	2.10890521611055	657.557593339827
32	794.33	1920.05761421439	75.7834506143357	1921.55259446357	2.2602546989669	659.783634334206
33	630.96	1930.11703547954	82.4512487847089	1931.87731988201	2.44608903490418	662.034679328523
34	501.19	1939.66144718099	90.0984688838214	1941.75288432269	2.65951257252441	664.225715322991
35	398.11	1950.1806342149	99.3005634131621	1952.70712293498	2.91490626409498	666.211751317977
36	316.23	1961.10421388588	109.843361609143	1964.17802192433	3.20584285917533	668.257789312811
37	251.19	1974.34480584018	122.386990281639	1978.13447160154	3.54714986326239	670.273828307721
38	199.53	1988.9593762478	136.875117511199	1993.66351176866	3.93674282022663	672.314864302568
39	158.49	2004.10136853406	153.047214744783	2009.93675156738	4.36703072464362	674.435906297213
40	125.89	2022.48942314437	171.647875476546	2029.76019763086	4.85104526177576	676.461941292098
41	100	2041.7409490622	192.705521426851	2050.81484319424	5.39177197858125	678.462979287046
42	79.433	2066.16989043137	216.551373431546	2077.48706697786	5.9832184745283	680.60401828164
43	63.096	2092.98077252796	243.297074958262	2107.07427036993	6.6305487564301	682.765060276184
44	50.119	2123.05920797041	273.139836417835	2140.55735050158	7.33105475327448	702.803432225592
45	39.811	2156.57907718969	306.621106451684	2178.26761879572	8.09204324616213	712.504609201099
46	31.623	2195.07254677121	344.351017059213	2221.91833975471	8.91558706019235	714.910656195024
47	25.119	2237.84750372012	385.330060045865	2270.77975706173	9.76983244391164	717.18169518929
48	19.953	2284.02700949611	432.444889627048	2324.60490463913	10.721155424081	719.772745182749
49	15.849	2337.06634004388	484.567227289713	2386.77281606971	11.7137292525886	722.418794176068
50	12.589	2392.52568005526	542.029849651086	2453.15622976538	12.7649564584582	725.209844169021
51	10	2456.93472060146	608.859883012057	2531.25237351759	13.9182374134455	728.245900161356
52	7.9433	2526.68430047537	684.045970566108	2617.6425355874	15.1484828526017	731.226958153829
53	6.3096	2601.95092214337	769.736478413604	2713.41903277826	16.4798247395358	734.383016145861
54	5.0119	2684.75446341223	867.461077344679	2821.41724130265	17.9059715120042	737.624075137678
55	3.9811	2778.89518776318	981.510952403293	2947.13797000768	19.4533154121103	740.740132129811
56	3.1623	2879.42282199787	1113.46448331373	3087.21216365887	21.1413421913609	744.021192121527
57	2.5119	2990.54413857338	1269.24416894691	3248.74360409703	22.9972969155124	747.362255113092
58	1.9953	3111.59642339658	1448.67735319499	3432.30219761525	24.9654468474311	752.589353099895
59	1.5849	3251.46319643093	1662.47914098249	3651.82828346936	27.0807444256669	756.050415091156
60	1.2589	3400.66501081422	1912.47902464403	3901.55078596697	29.3526972082113	759.561483082292
61	1	3573.01866135742	2213.65970235904	4203.18351160839	31.7802385866642	763.547557072228
62	0.79433	3769.24824055839	2571.34688388614	4562.79049444783	34.3014529519247	767.538631062151
63	0.63096	3979.76496203304	2983.42185184135	4973.86520716739	36.8569787244622	771.779706051444
64	0.50119	4218.02753884685	3498.00526870235	5479.76251112581	39.668877548745	776.335793039941
65	0.39811	4501.87540396613	4109.26773737088	6095.32308333467	42.3895225553332	781.206880027642
66	0.31623	4800.65250202151	4834.19834418502	6812.90966299176	45.1994869915871	786.757984013627
67	0.25119	5177.60680699609	5726.02377627793	7719.7772334668	47.8793639843227	792.944099998009
68	0.19953	5626.61423437289	6748.36090425941	8786.30540310229	50.1794995737563	799.900228980446
69	0.15849	6175.64365057153	8022.40508853823	10124.1077583878	52.4109404245906	807.846375960384
70	0.12589	6791.28835129726	9517.92003701535	11692.4077632233	54.4911357390281	817.047544937153
71	0.1	7481.99535017533	11342.8054829692	13588.2114586329	56.590167466308	827.973746909567
