Index	Frequency (Hz)	Z' (Ω)	-Z'' (Ω)	Z (Ω)	-Phase (°)	Time (s)
1	1000000	1644.33934250788	807.224096468817	1831.79218669563	26.1469244774071	223.146699436609
2	794330	1735.77155104365	739.085390971964	1886.57098794629	23.0641334164742	224.661723432784
3	630960	1853.27026199737	682.232062837108	1974.85474189034	20.2098395593492	226.186752428933
4	501190	1962.45436931537	624.756301639953	2059.50178151994	17.6591113742494	227.666778425197
5	398110	2055.35168097688	558.425153412771	2129.86130639029	15.1999600495467	229.166808421409
6	316230	2146.66149637894	505.277498232013	2205.32558373032	13.2450892009054	230.581832417837
7	251190	2184.10748583556	424.884928493222	2225.05117067981	11.0085295483532	232.0618604141
8	199530	2257.08845202136	384.21082537826	2289.55590422816	9.66052356891479	233.626889410149
9	158490	2314.97426037174	343.77823753582	2340.36093429773	8.44680510431089	235.236919406084
10	125890	2362.18103747642	305.697777374207	2381.87959076539	7.37385607773609	236.651944402511
11	100000	2401.32133985802	271.016166455551	2416.56656017122	6.43922622754118	238.02697039904
12	79433	2432.22973255999	240.600057698096	2444.10103304122	5.64941064260865	239.401997395568
13	63096	2458.58015279643	213.791614047599	2467.85802305594	4.96978780926374	240.972026391604
14	50119	2482.09948319906	190.630628144303	2489.40914292604	4.39181862321621	242.592055387514
15	39811	2501.76712014714	171.013792593478	2507.60531996296	3.91049570002073	245.002103381429
16	31623	2519.48193547824	154.255084529519	2524.19964628482	3.50355630556824	246.29712537816
17	25119	2535.76043127975	140.95325164519	2539.67493667859	3.18157972698276	247.757150374473
18	19953	2550.1478343518	130.037417285053	2553.46112305305	2.91910432707241	249.237177370737
19	15849	2562.6745628311	121.438406115289	2565.55027264355	2.71306669527543	250.692204367063
20	12589	2576.57869249955	114.756276806478	2579.13294766074	2.55016777740585	252.132231363427
21	10000	2588.95449996117	109.982448134465	2591.28955189628	2.43254312482616	253.612261359691
22	7943.3	2602.53700302939	106.207604059546	2604.70322825793	2.33690153669074	255.04228735608
23	6309.6	2614.85518885175	104.073352716993	2616.92547112268	2.2792153969702	256.507312352381
24	5011.9	2627.15698258769	102.897838882881	2629.17130982483	2.2429569196615	258.022342348556
25	3981.1	2639.20533523811	102.602840316206	2641.1989974991	2.22633331116211	259.497368344832
26	3162.3	2652.51409159426	103.377908147959	2654.52782957707	2.23189072996298	260.98739734107
27	2511.9	2665.55462942495	104.947668254717	2667.61981840008	2.25467310148415	262.402423337498
28	1995.3	2679.58288216963	107.172730426789	2681.7252686589	2.29038407496808	263.677445334278
29	1584.9	2692.85766198837	110.122239845865	2695.10840142621	2.34175982133076	264.982471330984
30	1258.9	2707.13896987291	114.152451120127	2709.54464519433	2.41457177010526	266.422495327348
31	1000	2722.45223134142	118.767102285416	2725.04161005317	2.49794713635369	267.94252632351
32	794.33	2738.09276828097	124.300145559859	2740.91271913185	2.59924991542842	269.397550319837
33	630.96	2755.97057628661	131.161328844251	2759.08990638974	2.72474771607742	270.677576316605
34	501.19	2770.53314019642	138.751359219672	2774.00537501497	2.8670405542921	272.182604312805
35	398.11	2790.16152618022	147.742800742726	2794.07037802337	3.03105773197576	273.612631309195
36	316.23	2809.65878780499	158.25525193202	2814.11215637435	3.22380332312164	275.042655305584
37	251.19	2831.12208636787	170.098191140427	2836.2273643961	3.43828580705989	276.502684301898
38	199.53	2851.09183513067	183.286063103333	2856.97714958952	3.67827050298761	277.947709298249
39	158.49	2875.86005979283	198.375624098227	2882.69387409554	3.94598825067859	279.352738294702
40	125.89	2902.02101766032	215.085526616277	2909.98071655158	4.23877084064316	280.927766290726
41	100	2928.68416696612	233.22806712429	2937.95614009682	4.55318547081305	282.492794286774
42	79.433	2959.69233972444	253.884696438952	2970.56159419552	4.90287408378938	284.077825282772
43	63.096	2993.72134299338	276.358438480491	3006.44997730105	5.27417928113763	285.68285327872
44	50.119	3029.31909284009	301.651821934955	3044.30090298613	5.68662060107331	287.052879275261
45	39.811	3068.57438535105	329.161340687977	3086.17821044671	6.12262000757929	296.398050251667
46	31.623	3111.80678559098	360.180689176314	3132.5822574524	6.60240485065348	298.223087247059
47	25.119	3158.4423441333	394.079714194194	3182.93211714507	7.11205610523657	300.003120242565
48	19.953	3209.02868163631	433.034114737755	3238.11420800613	7.6852080298894	301.91815523773
49	15.849	3264.93649974397	475.516379870993	3299.38269603362	8.28648767250959	304.068193232302
50	12.589	3323.00525853535	522.140411567638	3363.77682934609	8.92981390158554	307.088252224677
51	10	3390.31702365853	574.905440521265	3438.71571759717	9.62425258231528	309.488293218617
52	7.9433	3463.31621076022	634.496197493103	3520.95790948255	10.381733413206	311.888338212558
53	6.3096	3542.32067539802	700.521317813623	3610.92313461026	11.1863483661105	314.343385206359
54	5.0119	3625.37870489837	774.041865552548	3707.08936546702	12.0520638344351	316.893433199921
55	3.9811	3719.23650055109	858.761236565692	3817.09195703475	13.0015771278479	319.413477193558
56	3.1623	3823.34335697995	954.359536549027	3940.65433023055	14.0154194156792	322.068529186855
57	2.5119	3933.95952977145	1063.39995996146	4075.15116980041	15.1262828524022	324.773576180026
58	1.9953	4058.18994620744	1186.93847174386	4228.20630707689	16.303130382012	327.518630173095
59	1.5849	4193.9929346201	1329.59658340218	4399.70496854483	17.589866689217	330.393683165836
60	1.2589	4342.69831534236	1492.0893139972	4591.87969997277	18.9619917232073	333.483738158035
61	1	4512.39161723684	1681.16270761313	4815.39055080462	20.433671992502	337.018805149109
62	0.79433	4700.65764102419	1900.99797842699	5070.50052481041	22.0189530585393	340.343864140714
63	0.63096	4913.67617881407	2142.27100505324	5360.36739872713	23.5563021441907	343.978932131537
64	0.50119	5135.66210380101	2428.03267655847	5680.70135835827	25.3037962756529	347.839005121791
65	0.39811	5403.95588184093	2764.22073077088	6069.89748029625	27.090561691009	352.209086110758
66	0.31623	5690.82352055721	3148.68171285618	6503.81956015095	28.9553627345287	357.134175098323
67	0.25119	6032.81160262747	3631.79631916461	7041.64471815315	31.0482455633086	362.734279084184
68	0.19953	6402.01246573345	4138.90815306154	7623.40634564928	32.8827129975145	369.249402067735
69	0.15849	6836.73734706277	4745.64343842724	8322.38602790152	34.766008238226	376.754540048786
70	0.12589	7384.69281424191	5454.37779743728	9180.62770827207	36.449794434641	385.514703026669
71	0.1	7940.26547480315	6185.30089824715	10065.0764036945	37.9178457080731	395.849892000575
