Index	Frequency (Hz)	Z' (Ω)	-Z'' (Ω)	Z (Ω)	-Phase (°)	Time (s)
1	1000000	2292.51803684328	4214.50698729774	4797.67736464565	61.455632158015	70.3530968223755
2	794330	3156.36256942581	4603.45760549553	5581.61684418296	55.5635002989889	71.7931228187398
3	630960	4284.04862359152	5120.46429364621	6676.2434940468	50.0823821207602	73.2381468150915
4	501190	5477.43093456048	5482.1462023055	7749.59202967051	45.0246510354387	74.748176811279
5	398110	6837.83876275458	5793.65318806505	8962.27963238179	40.2743741654634	79.7332707986928
6	316230	8020.9344054242	5774.69345573568	9883.44440181834	35.7521027297187	81.0932927952591
7	251190	8947.39169776992	5447.33827622422	10475.1760123131	31.3338315787127	85.2983737846423
8	199530	9945.81411519646	5239.64933158824	11241.5810067826	27.7811382971226	86.663395781196
9	158490	10844.7568607877	4974.39197719455	11931.1913450577	24.640495999054	87.9584217779263
10	125890	11664.5784493783	4658.86146186514	12560.5485757013	21.7718897339008	89.2584477746441
11	100000	12371.823082964	4330.5831369853	13107.8585856921	19.2918823950401	90.9834757702888
12	79433	13018.8451292497	3977.90897126038	13613.0117271316	16.9905355519467	92.5035057664511
13	63096	13599.9217615743	3639.36530432446	14078.4534569413	14.9814345142564	93.8485297630552
14	50119	14069.0457665441	3291.19137156005	14448.8750228294	13.166514618859	95.1835527596846
15	39811	14502.4261219079	2990.95933512684	14807.6399593514	11.6532113172072	96.5385807562635
16	31623	14855.1316409337	2649.43144709125	15089.5468143449	10.112446290119	97.9536077526909
17	25119	15147.7827638452	2391.52306194059	15335.4069139504	8.97177001829371	99.2736297493582
18	19953	15446.072743312	2146.10296404351	15594.4516134413	7.91012893736075	100.558653746114
19	15849	15677.8702535912	1973.86638893254	15801.6380229961	7.17586461854725	101.873677742794
20	12589	15898.5982884888	1805.33059355549	16000.7701718	6.47834770359467	103.218703739398
21	10000	16061.9430982322	1685.4255124155	16150.1292641498	5.99028763048809	105.76875073296
22	7943.3	16257.7871688761	1568.79736735281	16333.3024464829	5.51169920050021	107.078775729652
23	6309.6	16438.1747329687	1475.50735147249	16504.2634036136	5.12918181231677	108.403799726307
24	5011.9	16622.2032562348	1406.43160427475	16681.5973740253	4.8363694836764	109.718821722987
25	3981.1	16780.5733501962	1345.04859112024	16834.3932968726	4.58275140455495	111.088849719528
26	3162.3	16941.0693524895	1303.25567270852	16991.1243346138	4.39902977645905	112.49387571598
27	2511.9	17102.773952158	1274.49830912895	17150.1959988388	4.26180285905074	113.863898712521
28	1995.3	17271.2568380377	1256.3218392326	17316.8893664306	4.16040271030171	115.198923709151
29	1584.9	17431.7930303232	1245.93271868658	17476.2626608642	4.08824809810727	116.503949705856
30	1258.9	17608.7685309799	1233.43171240143	17651.9144278117	4.006821304812	117.803974702574
31	1000	17774.1530459106	1242.88435440925	17817.5553322528	3.99998234687038	119.138996699203
32	794.33	17950.5825485788	1248.69358334697	17993.9614731841	3.9792471534229	120.57402469558
33	630.96	18120.356802161	1258.94964254103	18164.0382305278	3.97435735595817	121.914048692197
34	501.19	18317.9359869869	1272.74325261692	18362.0983063057	3.97456399604388	123.779084687488
35	398.11	18501.1935867779	1287.49531588673	18545.9377849669	3.98078708823722	125.009105684382
36	316.23	18692.5829241562	1301.24425888347	18737.819857116	3.98209932506261	126.32913168105
37	251.19	18882.7497676427	1316.32813117476	18928.5751850564	3.9876730144563	127.749157677464
38	199.53	19089.1916302088	1332.46598234693	19135.6395944569	3.99289019350441	129.059182674157
39	158.49	19281.2967991351	1345.30785009134	19328.1726882769	3.99121205923733	130.459208670622
40	125.89	19484.6157034891	1357.32809328612	19531.8352610675	3.98487400509923	131.884232667024
41	100	19676.2747716487	1366.5419394594	19723.67171096	3.97288417618255	133.249260663578
42	79.433	19885.2158528449	1375.81799390975	19932.754066275	3.95787209670213	134.629282660094
43	63.096	20112.1429079257	1395.18524219524	20160.4770332665	3.96826773291334	136.144313656269
44	50.119	20252.7027495125	1394.34190152143	20300.6442754522	3.9384392558005	154.344650610317
45	39.811	20561.3165839053	1401.18769111798	20609.0045031127	3.89849596793934	163.404818587442
46	31.623	20781.020657747	1405.27159909509	20828.4806897895	3.86861354447507	165.049849583289
47	25.119	20992.0436446829	1383.9366922593	21037.613390032	3.77186483529594	166.634879579287
48	19.953	21190.58622856	1378.620033759	21235.3841007767	3.72231087517059	168.544911574465
49	15.849	21394.1688918631	1361.17267991174	21437.4264695672	3.64045326615025	170.509949569504
50	12.589	21614.4953588882	1361.72182265071	21657.3473893199	3.60489265023942	172.484984564517
51	10	21811.9801096514	1345.63303109679	21853.4483447855	3.53023907296469	174.850030558546
52	7.9433	22003.830739176	1340.13869801419	22044.6033969364	3.48528226576964	177.210073552588
53	6.3096	22212.7015613812	1345.78648688359	22253.432362745	3.4671039934067	179.570117546629
54	5.0119	22371.4810454784	1351.23680757335	22412.2512273609	3.45646426451529	182.075162540304
55	3.9811	22514.9557658775	1320.03277107047	22553.6187707454	3.35536195350218	184.520207534131
56	3.1623	22722.8127969097	1318.37275487353	22761.0265173651	3.32056625043695	187.09525852763
57	2.5119	22728.140128803	1478.27215755215	22776.1639062924	3.72136131448859	189.665304521141
58	1.9953	22919.9912222944	1257.92984088462	22954.4850762251	3.14144248234403	192.31535351445
59	1.5849	23224.1092755124	1483.31811465734	23271.430645111	3.65450333192363	195.075402507482
60	1.2589	23445.6395780996	1649.20071158543	23503.5716054655	4.02364176594288	198.035459500009
61	1	23419.5245616669	1831.24380417459	23491.0107182481	4.4710337556176	203.130556487145
62	0.79433	23552.9898822786	2039.1535876878	23641.0972619482	4.94817362890319	206.405614478876
63	0.63096	23701.0245072729	2309.1540807158	23813.2474741023	5.56467613985948	210.38068646884
64	0.50119	23848.3995892625	2688.31370651378	23999.4415258724	6.43152363431066	214.360760458791
65	0.39811	23987.5218447984	3136.81796939226	24191.7513055128	7.45022133323625	218.575840448149
66	0.31623	24182.0731452971	3789.76959816589	24477.2346316262	8.90684065695807	223.300925436219
67	0.25119	24455.8714827314	4419.86241035254	24852.0589429995	10.2443746672543	228.73102742251
68	0.19953	24734.487485964	5276.36834705517	25291.0050042919	12.0418610167704	234.921141406881
69	0.15849	24996.1099720283	6329.14288738931	25784.948388987	14.2089499067428	242.251278388374
70	0.12589	25350.7560282917	7795.91422334638	26522.3888400676	17.0938125509204	250.836437366699
71	0.1	26005.77379942	9265.61843562832	27607.099737228	19.6105165889702	261.346630340163
