Index	Frequency (Hz)	Z' (Ω)	-Z'' (Ω)	Z (Ω)	-Phase (°)	Time (s)
1	1000000	2238.38150910189	3967.72722816405	4555.56924405762	60.5706111798638	70.011081823239
2	794330	2991.02561727767	4357.06907085853	5284.91108075087	55.5313159450034	71.421106819679
3	630960	4010.17653940625	4851.09487352067	6294.01599530084	50.4210295140007	72.8811348159928
4	501190	5109.23623147047	5231.84539027041	7312.76288803789	45.6792962699651	74.4061638121425
5	398110	6340.90485862096	5528.37618683923	8412.49176458996	41.083844946219	79.8212627984707
6	316230	7539.53286396698	5579.40186733368	9379.46059238189	36.5021656377568	81.2662897948223
7	251190	8351.91284754805	5461.25205715593	9978.96398654831	33.1803664473253	85.6113737838521
8	199530	9357.75388900305	5392.06096710323	10800.0870052102	29.9511124020375	86.9963947803552
9	158490	10295.4006305739	5250.36908222563	11556.8875413587	27.0203218285981	88.4014227768079
10	125890	11173.7728483067	5042.39181222581	12258.8300768694	24.2882427414609	89.7414447734246
11	100000	12012.1000228051	4815.87255305322	12941.5290984151	21.8467601613477	91.2114727697132
12	79433	12790.1542665811	4528.68253726746	13568.2353932371	19.4978161209521	92.711502765926
13	63096	13489.4494213823	4233.9595625049	14138.3046815719	17.4256091863651	94.1465297623029
14	50119	14100.6908959031	3857.52099678415	14618.8218397528	15.3000320638598	95.5615537587303
15	39811	14663.1320991654	3539.55020397292	15084.2917833096	13.5710749691863	96.901577755347
16	31623	15153.7252639242	3160.81093278894	15479.8615991014	11.7820033269184	98.2366047519764
17	25119	15517.9839169881	2840.568680471	15775.8250268052	10.3731572761226	99.5516297486563
18	19953	15871.7980862787	2552.64901448207	16075.7578820638	9.13659618886837	101.021656744945
19	15849	16166.2219988497	2295.41154758302	16328.3694191695	8.08130118603485	102.371682741536
20	12589	16419.8112553816	2064.13322480088	16549.04370748	7.16506271236585	103.706705738166
21	10000	16619.7406793826	1895.13733542314	16727.4422961204	6.50529908485596	105.956747732485
22	7943.3	16836.1920050097	1729.3599695181	16924.7761324552	5.86467197672963	107.231769729266
23	6309.6	17012.3915483291	1596.76228846331	17087.1623155958	5.36200322288927	108.526796725996
24	5011.9	17192.8241827693	1483.79138433897	17256.7331859729	4.93257255866063	109.881818722575
25	3981.1	17367.1556591841	1392.37495104002	17422.8816128278	4.58376363938651	111.226843719179
26	3162.3	17527.8217995572	1326.76707354047	17577.964839664	4.32874455666453	112.526867715897
27	2511.9	17679.3034670056	1270.83487702112	17724.9200946896	4.11149967606123	113.891893712451
28	1995.3	17835.4174540373	1229.37756431763	17877.7371318472	3.94310408291815	115.296919708903
29	1584.9	17991.3041351769	1200.21316297075	18031.2932459378	3.81658871261283	116.611945705583
30	1258.9	18155.2411264752	1197.99092682061	18194.7234829552	3.77524376399386	117.921969702276
31	1000	18301.5177267659	1170.1764315558	18338.8893879672	3.65844133736956	119.24699169893
32	794.33	18462.3522661395	1162.0832575945	18498.8888503231	3.60163987649418	120.742021695156
33	630.96	18622.4205542978	1156.27030746524	18658.2825663312	3.55294683440316	122.157048691583
34	501.19	18778.6213771641	1154.91973264601	18814.1027002549	3.51936292321659	123.512071688162
35	398.11	18952.2167317956	1161.95147336303	18987.8026710677	3.50838578744095	124.847096684791
36	316.23	19113.1877405026	1164.29236355414	19148.6167205762	3.48590250296231	126.172121681446
37	251.19	19287.6604517845	1175.81482285671	19323.4672406631	3.48854939241711	127.522147678038
38	199.53	19452.8132145201	1182.1953432588	19488.7025681196	3.47772834420091	128.782168674856
39	158.49	19623.0189198533	1194.5650382313	19659.3452881699	3.4836217423013	130.142194671423
40	125.89	19798.1551900845	1205.47510807975	19834.8208755933	3.48433832110676	131.572221667812
41	100	19977.6347957848	1211.73412464095	20014.3496427581	3.47099639533491	132.892244664479
42	79.433	20148.8663516175	1226.07672125372	20186.1358209477	3.48220617505483	134.337273660831
43	63.096	20370.7977479625	1256.47968573968	20409.5110693291	3.52955715178366	135.967303656716
44	50.119	20614.9714872868	1237.38863969904	20652.0744737013	3.43498831693085	154.13764261084
45	39.811	20724.5567109204	1264.87665465403	20763.1202812979	3.49258656845794	163.172805588028
46	31.623	20901.4165890076	1272.52462847395	20940.1178209989	3.48399381764995	164.812836583888
47	25.119	21096.0074093945	1289.80650552588	21135.3999119705	3.49869962331765	166.397864579886
48	19.953	21270.5500023623	1292.24019263337	21309.7672938597	3.47659180020579	168.342900574975
49	15.849	21476.1301933877	1286.91331408613	21514.6534706305	3.42923217159919	170.487940569559
50	12.589	21635.8967702975	1309.59619942965	21675.4947177805	3.46382224376876	172.512978564447
51	10	21834.7195634231	1322.98753658704	21874.7634143845	3.46736962069952	174.848020558551
52	7.9433	22023.5470491805	1351.73275561597	22064.990506911	3.51222029749249	177.243067552504
53	6.3096	22190.8077706244	1364.56310614847	22232.7232246404	3.51881667933441	179.568111546634
54	5.0119	22381.5294467412	1381.17135616633	22424.1052149342	3.53126291954775	181.9581555406
55	3.9811	22573.6026064027	1445.33899350575	22619.8262468557	3.66352412364099	184.458200534288
56	3.1623	22714.6505193299	1560.54102497001	22768.1935275048	3.93015675667538	187.003248527862
57	2.5119	22862.6512416399	1756.89005501214	22930.0563554095	4.39428213274923	189.643297521197
58	1.9953	23239.4827446736	1531.85517150327	23289.9149527524	3.77125648954846	192.378346514291
59	1.5849	23330.749983403	1686.77664482071	23391.6461634826	4.13520005930355	195.223398507108
60	1.2589	23396.3022784235	2256.59807731866	23504.875987461	5.50919698851067	198.148455499723
61	1	23558.615458723	2158.64642453332	23657.3057789371	5.23532154828248	203.20355048696
62	0.79433	23749.450618478	2409.61856607638	23871.3775537464	5.79340305466895	206.448606478767
63	0.63096	23905.0246892653	2744.73147195218	24062.0812950066	6.54991474804705	210.043674469691
64	0.50119	24107.7284626509	3172.88513110002	24315.6281367368	7.49776303557232	213.918746459907
65	0.39811	24299.2757839108	3728.25244456522	24583.6260529841	8.72290179516687	218.128824449278
66	0.31623	24593.3989852506	4376.20415698932	24979.7205042685	10.0897312456625	222.923911437171
67	0.25119	24810.1486145758	5211.38837360825	25351.5688480598	11.8625597231968	228.344014423487
68	0.19953	25105.151518034	6176.58086223539	25853.7963148775	13.8218751610184	234.544126407833
69	0.15849	25524.3434728141	7444.71574591395	26587.8901429889	16.2604437872736	241.794261389528
70	0.12589	26136.0267111351	8813.53682786763	27582.0652537359	18.6350287382227	250.394420367815
71	0.1	26420.2053427164	10512.4280004443	28434.8095266317	21.6972878455394	260.569610342125
