Index	Frequency (Hz)	Z' (Ω)	-Z'' (Ω)	Z (Ω)	-Phase (°)	Time (s)
1	1000000	-2722.69048490584	14831.9188146095	15079.7499713942	100.401958187806	69.9670738233501
2	794330	2207.56485429803	22052.3830499719	22162.6023013684	84.2834220099801	71.4570988195882
3	630960	10224.260439745	29222.5045355574	30959.4940667707	70.71627035737	72.7571258163059
4	501190	18279.1466369235	35707.171326125	40113.953755363	62.8912724400384	74.1471488127964
5	398110	26863.7842397853	53890.8484206013	60215.3339870665	63.5044294088227	75.4421738095268
6	316230	34578.2542116483	58448.018616204	67910.4303070265	59.3911458491153	76.7271968062824
7	251190	41466.3375331486	62632.72145594	75115.3442739256	56.4932300293921	78.8772378008541
8	199530	48828.7331675104	68963.0410771846	84499.3858992915	54.6999013238302	80.0772607978244
9	158490	56107.8793788185	76636.1378953975	94979.954516258	53.7908943994299	81.3672847945674
10	125890	63797.3867448668	86194.1670429272	107235.912770387	53.4926735213534	82.5523067915755
11	100000	72288.7870263222	98091.03871495	121850.402567717	53.6114161801209	83.8523307882932
12	79433	81306.8301925053	111531.144589777	138021.726005215	53.9077411169687	85.0423507852887
13	63096	91900.9753815834	128797.339738421	158223.083018189	54.4909418026565	86.3273747820443
14	50119	104717.098320048	149463.096827048	182496.268437747	54.9840778154219	87.6123987788
15	39811	121312.472483956	174157.560467602	212244.132659061	55.1401898658251	88.7974207758081
16	31623	142324.553644415	199408.593466294	244989.929830366	54.4832857491735	89.9874427728035
17	25119	161073.857797267	228528.169750928	279588.826735625	54.8226120494336	91.1824647697864
18	19953	185485.827081412	265609.438121077	323965.068590843	55.0718433274225	92.3774867667693
19	15849	216427.740653583	307563.565436015	376080.195846748	54.8665394820291	93.55750876379
20	12589	255194.907033371	355382.973386598	437517.426337363	54.3184688881586	94.7475307607855
21	10000	294723.488921191	409230.90839227	504313.267032944	54.2389917189022	95.9625527577178
22	7943.3	351085.523068907	467909.141317222	584978.639812419	53.1180616064686	97.1575757547007
23	6309.6	419585.375221065	530205.212816519	676143.072727372	51.6431727025087	98.3475967516962
24	5011.9	501441.347223587	595399.572958558	778424.097895639	49.8961516664233	99.5326187487043
25	3981.1	598522.892279585	661660.304259863	892201.776963022	47.8682217970128	100.717643745712
26	3162.3	709903.707577967	724055.677682214	1014011.78416071	45.5654426778298	101.897664742733
27	2511.9	837373.448548871	780737.526219856	1144877.88745461	42.9953938850354	103.082687739741
28	1995.3	977027.342522775	827421.948879384	1280316.17560838	40.260494300134	104.272708736737
29	1584.9	1130318.85705421	858828.907799273	1419580.15324392	37.2279758371051	105.427730733821
30	1258.9	1289088.63140893	902256.457590448	1573472.66099269	34.9888704924261	106.602749730854
31	1000	1452229.09793738	873325.602012252	1694599.35088683	31.0213978482333	107.797775727837
32	794.33	1611349.87576012	854041.19726265	1823687.14113304	27.9243048911976	109.097798724555
33	630.96	1758485.59244218	831856.474639821	1945316.6254435	25.3166197565832	110.267817721601
34	501.19	1890621.13464576	785046.747953475	2047131.32730696	22.5497978828738	111.467839718571
35	398.11	2014545.04861461	735001.503636267	2144439.07893072	20.0443658309125	112.637861715617
36	316.23	2140175.64321789	705005.382665862	2253305.2108871	18.2326443722461	113.8328867126
37	251.19	2215525.83823587	628900.502211573	2303056.79078322	15.8471554535865	115.047908709532
38	199.53	2326677.68842194	608532.063960075	2404940.81812172	14.6571282155285	116.247928706502
39	158.49	2379304.01424549	551403.059264013	2442362.16109946	13.0479432210259	117.482950703384
40	125.89	2446041.15715075	476440.216559659	2492009.75568532	11.0220724008376	118.752974700178
41	100	2541442.3914647	522624.53431579	2594622.48371562	11.6203624132426	120.002998697022
42	79.433	2543296.98857763	451942.149902692	2583139.8101858	10.0762404478107	121.293023693765
43	63.096	1881164.10600921	849740.928605734	2064179.74980019	24.3091772437071	122.638047690369
44	50.119	2652640.91444818	427765.634237527	2686910.35556438	9.1606697397985	132.378228665777
45	39.811	2720944.83019431	427560.234847694	2754332.68204554	8.93024465914869	141.288394643281
46	31.623	2648194.00542606	544035.872007835	2703498.94033747	11.6091285386784	142.783421639507
47	25.119	2693719.06515642	352018.318582517	2716622.77443977	7.44528748559817	144.223448635871
48	19.953	2853642.5212782	432015.315628729	2886158.84389352	8.6086849259651	145.998479631389
49	15.849	2977658.10070095	604701.610615614	3038439.04045336	11.4794930775254	147.808513626819
50	12.589	2862205.70876693	385226.359933358	2888013.30808664	7.66541687670772	149.743550621934
51	10	3036218.97324556	482603.921697876	3074334.43182984	9.03155166525413	151.908589616468
52	7.9433	3163584.65724875	626535.197984161	3225029.33907472	11.2022406272803	154.098633610938
53	6.3096	3189721.89086003	504723.362834487	3229407.28524952	8.99160707738475	156.278669605434
54	5.0119	3255493.4389139	547608.274770085	3301228.91563249	9.5483666946776	158.498713599829
55	3.9811	3326033.57182041	568554.668042851	3374278.25340913	9.70042409182154	160.78375459406
56	3.1623	3406237.52801279	602341.969583423	3459085.13129763	10.0282264999151	163.20379758795
57	2.5119	3494035.04921596	623211.801660491	3549179.32413656	10.1131812880463	165.60384258189
58	1.9953	3586280.16445995	651418.979086043	3644962.56555707	10.2950728191165	168.168891575414
59	1.5849	3667212.90995159	677344.149050422	3729241.9636125	10.4647472798222	170.743937568913
60	1.2589	3776758.78964214	742360.675621464	3849026.67278993	11.1203050395976	173.548992561831
61	1	3876685.30352168	760761.830222362	3950626.21679959	11.1026529514072	176.734048553789
62	0.79433	3976557.73153238	794360.080779621	4055122.60358995	11.2967500573416	179.864108545887
63	0.63096	4083279.4533622	835180.818726477	4167816.94586249	11.559653569594	183.274170537277
64	0.50119	4187938.89840852	884751.181715718	4280375.78611394	11.9289994521711	186.934237528036
65	0.39811	4310283.84457855	936116.12492745	4410766.39827865	12.2533228903881	191.014313517735
66	0.31623	4431618.6673898	1015180.41362479	4546409.05389794	12.9025090255493	195.599398506159
67	0.25119	4555492.4595606	1081792.55264312	4682177.5570847	13.3585884607379	200.929497492702
68	0.19953	4691332.68879054	1169860.18395219	4834994.85490019	14.0020647817386	206.989609477401
69	0.15849	4838549.87383377	1284796.17473022	5006222.73697228	14.8707747996138	214.079742459501
70	0.12589	5013792.670926	1373226.75646524	5198448.67933726	15.3170978777464	222.48489543828
71	0.1	5167380.50645789	1531229.66374471	5389479.1568066	16.5059306804978	232.590082412766
