Index	Frequency (Hz)	Z' (Ω)	-Z'' (Ω)	Z (Ω)	-Phase (°)	Time (s)
1	1000000	3322.31182946932	7252.61235486393	7977.35180759609	65.388201886114	140.077409646339
2	794330	5023.8332922317	7924.49025831526	9382.77393963369	57.6268164840046	141.44743164288
3	630960	6882.48387419883	8671.53354256861	11070.8661927827	51.5614240085413	142.817458639421
4	501190	8710.68743953211	9731.68357007298	13060.6944982742	48.1687419552532	144.34248763557
5	398110	11235.8824953399	11443.4919683588	16037.4113833554	45.5244771792371	149.517582622504
6	316230	13397.3518970844	12186.2364260329	18110.5879552675	42.2896672166003	150.827604619197
7	251190	15600.3700309939	12313.1995118059	19874.265453633	38.2836417429583	156.102704605879
8	199530	18077.1833538179	12612.7251697472	22042.3545524321	34.9040662880807	157.482730602394
9	158490	20449.2071977967	12634.157880767	24037.3047651888	31.7090654132823	158.777754599125
10	125890	22719.119043601	12463.067092439	25913.0548463115	28.7479288357031	160.102776595779
11	100000	24886.2018629307	12049.4532131687	27649.8167425912	25.8354343445546	161.482804592295
12	79433	26957.7647560187	11494.2143122004	29305.9387035398	23.0923628760225	162.842830588861
13	63096	28789.2637628928	10758.8850940145	30733.9440436078	20.4913047317674	164.282856585226
14	50119	30467.9323037668	9947.48381567512	32050.699417174	18.0813572546799	165.807884581375
15	39811	31959.8870610874	9096.09256821997	33229.1029214917	15.8868650483559	167.382914577399
16	31623	33147.1378876522	8224.87506760918	34152.3252505713	13.9354819423487	168.937940573473
17	25119	34229.8941143325	7506.48342070741	35043.3009921122	12.3689460495789	170.487971569559
18	19953	35160.4208977422	6832.22841714356	35818.075644155	10.9964432946167	171.997997565747
19	15849	35974.3105928511	6225.72950749195	36509.0499812221	9.81838290071194	173.473024562023
20	12589	36781.6335574157	5701.76606185109	37220.9444181107	8.81166525566755	174.858050558526
21	10000	37404.0996691244	5193.00187489868	37762.8645699779	7.90413906443339	177.373098552176
22	7943.3	38078.7557135323	4816.85375343567	38382.2057309485	7.20946093199076	178.768122548654
23	6309.6	38642.9749729882	4488.8762235561	38902.8215495149	6.62594170516575	180.398154544538
24	5011.9	39170.3379525744	4219.77769795449	39396.9782995986	6.14869860124699	181.798181541004
25	3981.1	39654.0681650869	4002.06425253053	39855.5095353546	5.76302988256391	183.228204537393
26	3162.3	40126.5718514252	3826.78869979395	40308.6353068478	5.44770491237496	184.583232533972
27	2511.9	40601.9417237282	3692.51588479204	40769.5026373448	5.19643070040393	185.958258530501
28	1995.3	41075.3329651831	3594.49599679893	41232.309899782	5.00120435448002	187.298282527117
29	1584.9	41522.7440418682	3521.44827553295	41671.7994658709	4.84752359936175	188.58830452386
30	1258.9	41987.8489776165	3470.30379969808	42131.0155375981	4.72476834961544	189.983330520338
31	1000	42462.2461129798	3442.00702923626	42601.5229463523	4.63428672727632	191.498361516513
32	794.33	42919.8228965134	3429.31194758131	43056.6066696146	4.56825207966861	193.083388512511
33	630.96	43409.5760607803	3427.70094083987	43544.6945966613	4.51481371649833	194.5534175088
34	501.19	43874.404457098	3432.54245934698	44008.4732091474	4.47346020598929	196.073442504962
35	398.11	44384.0441648408	3448.00201142426	44517.7727912945	4.44213633989516	197.433467501528
36	316.23	44877.8380693388	3458.87161476678	45010.9335897983	4.40724722733406	198.768493498158
37	251.19	45382.7521698325	3477.84595221121	45515.8171076358	4.38221960414218	200.143521494686
38	199.53	45906.3719330469	3499.83814559269	46039.5900405355	4.3597171406535	201.383541491555
39	158.49	46415.250426727	3514.99184853618	46548.1539899388	4.33069998187577	202.888570487756
40	125.89	46941.0061969684	3523.63614022067	47073.0716485816	4.29286824777394	204.368598484019
41	100	47453.9888147753	3532.55657041288	47585.2919540901	4.2573438674267	205.733621480573
42	79.433	47967.1279454044	3527.51209668998	48096.6600183743	4.20597169564832	207.058647477227
43	63.096	48470.5750293807	3522.0620813119	48598.3699827827	4.15603164316854	208.478673473642
44	50.119	48996.9547855236	3534.96365131802	49124.3070818386	4.12654580424255	209.983700469842
45	39.811	49529.7681291838	3508.14466800087	49653.8519144521	4.05143762563343	219.098869446829
46	31.623	50036.2854269102	3498.41241793409	50158.4364665524	3.99946955256917	220.778900442587
47	25.119	50572.160570271	3489.20437711059	50692.3857391869	3.94684283884162	222.44893343837
48	19.953	51054.6923864031	3493.84569764882	51174.1006020548	3.91484082821158	224.453968433308
49	15.849	51571.7778117726	3478.83325464501	51688.9789750239	3.85910601801985	226.474006428208
50	12.589	52081.9979752169	3476.78157983935	52197.9168477479	3.81916589486659	228.524047423032
51	10	52581.20145897	3469.76906286711	52695.5600047899	3.77540461844701	230.859087417137
52	7.9433	53030.57287509	3478.86714945348	53144.5592333192	3.75329170939698	233.224130411166
53	6.3096	53543.509196438	3496.81821604331	53657.5727619605	3.7365651104551	235.814181404626
54	5.0119	53964.9489279381	3529.91488558252	54080.2737779167	3.7424572291314	238.274224398415
55	3.9811	54443.0691858002	3581.87868829787	54560.7701311804	3.76413736766569	240.859274391889
56	3.1623	54899.0289756623	3646.26316550979	55019.9838017312	3.7998687486132	243.464320385312
57	2.5119	55344.8714123432	3790.29906973927	55474.5090891923	3.91778976448687	245.954367379025
58	1.9953	55760.2155363004	3951.98472815429	55900.0878348706	4.05403822841274	248.569415372423
59	1.5849	56200.4621455982	4134.03527683791	56352.3042390367	4.20702844126589	251.389469365303
60	1.2589	56676.0795362393	4399.71424966259	56846.5960025471	4.43891857572137	254.304523357943
61	1	57107.4640628891	4829.71867837233	57311.3307663187	4.83414147954282	259.709623344296
62	0.79433	57596.4011123013	5283.75066696061	57838.2524130848	5.24150148267852	262.869682336318
63	0.63096	58075.1054062051	5881.32650559652	58372.1497754474	5.78268839104815	266.414747327367
64	0.50119	58673.5798308304	6569.34528186178	59040.2004366275	6.38847421133624	270.25981831766
65	0.39811	59297.2844217934	7506.45313672834	59770.517636147	7.21470688890433	274.539896306853
66	0.31623	59999.3426709601	8576.94876262481	60609.2828783181	8.13535618770432	279.659991293926
67	0.25119	60756.9744701049	9678.74773151929	61523.0696926882	9.05131543507855	285.170093280015
68	0.19953	61626.9440597642	11084.3139384182	62615.8306631056	10.1962865159659	291.385210264323
69	0.15849	62542.5233376601	12857.8479625985	63850.5401674179	11.6173268254365	298.67034424593
70	0.12589	63740.9102144259	15115.5715206551	65508.6569650115	13.3407360395187	307.335503224052
71	0.1	64977.1521015999	17158.6747461066	67204.5416194257	14.7925573335058	317.540694198287
