Index	Frequency (Hz)	Z' (Ω)	-Z'' (Ω)	Z (Ω)	-Phase (°)	Time (s)
1	1000000	3293.76907802132	7383.64360938341	8084.99274518647	65.9588308733251	466.730272821619
2	794330	5008.79123545296	7867.87404943336	9326.91973258574	57.5186378041526	468.225296817845
3	630960	6845.32568120448	8772.05266992934	11126.876997872	52.033082486552	469.64532581426
4	501190	8782.24150120632	9777.85942153002	13142.8421832081	48.0705696478051	471.255352810195
5	398110	11265.6241170706	11478.3436683569	16083.1172387703	45.5358597613117	476.450452797078
6	316230	13598.4255645927	12118.1500768695	18214.4651066481	41.7056246352754	478.480486791953
7	251190	15589.2146448214	12351.3985917545	19889.2096478143	38.3899294625792	484.03059277794
8	199530	17994.8755776763	12599.6281537142	21967.3889360552	34.9988903406235	485.36561777457
9	158490	20398.0937834482	12671.5124003724	24013.5265321681	31.8489890825952	486.860644770795
10	125890	22714.1093367546	12477.965939682	25915.8329396125	28.7821348132663	488.420670766856
11	100000	24907.1076576114	12052.1834716907	27669.8236044818	25.8216577526108	491.045719760229
12	79433	26958.1614200666	11473.2636366425	29298.0928667084	23.0543700628925	493.060756755141
13	63096	28797.0173116421	10769.8991091087	30745.0635528274	20.5054732418201	494.915792750458
14	50119	30474.8268213239	9972.80869629809	32065.120974084	18.1205509333517	496.775827745762
15	39811	31961.6185774115	9135.76005933982	33241.6481834124	15.9518080424236	499.67587973844
16	31623	33229.4636116929	8230.70711730812	34233.635383519	13.9117726856508	502.860938730398
17	25119	34202.1781112202	7523.12749197632	35019.8006106854	12.405258678554	504.49596872627
18	19953	35164.7095089144	6847.38123787142	35825.1786410492	11.0189241692494	505.895997722735
19	15849	36048.8125617634	6247.03420528264	36586.0946737299	9.83136259638207	507.776031717989
20	12589	36779.7018931639	5729.92727180671	37223.3601101539	8.85495604862759	509.866070712712
21	10000	37424.4146641525	5203.47544606456	37784.4276081064	7.91563392056442	512.821124705251
22	7943.3	38034.6059544907	4810.41117255836	38337.5965047687	7.20818913540702	514.57615670082
23	6309.6	38590.170253051	4483.5513637563	38849.7551213763	6.62712697606487	516.426191696149
24	5011.9	39112.9689917681	4216.00184933861	39339.5350118	6.15218039461751	517.881215692476
25	3981.1	39619.7209411157	3995.60494771137	39820.6874168447	5.75874542913069	519.346245688777
26	3162.3	40103.0727053186	3821.39638143559	40284.730490747	5.44324322211684	520.761271685204
27	2511.9	40553.1555934653	3671.71073240846	40719.0359450011	5.17349347157646	522.591304680584
28	1995.3	41042.3829064709	3589.68986494547	41199.0663482544	4.99854065580886	524.616341675471
29	1584.9	41468.3222057815	3516.00964878908	41617.112711154	4.84639427439681	525.946367672113
30	1258.9	41933.5472466835	3467.19196599693	42076.6420335429	4.72663597378641	527.57139566801
31	1000	42411.2142677623	3438.51646094728	42550.3759221731	4.63515387430808	529.656437662746
32	794.33	42879.8682445533	3423.39389079711	43016.3076797835	4.56463315267288	531.386468658378
33	630.96	43369.6015631374	3419.95089684578	43504.2343212949	4.50878266565123	532.676491655121
34	501.19	43831.6533930006	3426.05141999575	43965.3462114948	4.46937232222961	534.246521651157
35	398.11	44340.4130428835	3444.54834670325	44474.0052404356	4.44205393876737	536.071556646549
36	316.23	44839.1435967662	3460.91430342929	44972.5107850018	4.41363022317157	537.631584642611
37	251.19	45329.570755115	3477.75695715587	45462.7845418208	4.38722900586509	539.111609638874
38	199.53	45848.146058059	3495.48702062795	45981.2018815569	4.35982639674643	540.536637635276
39	158.49	46366.0670382937	3508.39701523084	46498.6131214258	4.32717339234806	542.211666631047
40	125.89	46896.1561842638	3520.16966447427	47028.0879828805	4.29274699890562	543.976701626591
41	100	47400.1745115829	3526.15286928351	47531.1508148716	4.25446160164128	546.031737621402
42	79.433	47919.3335135202	3527.91953505337	48049.0243462424	4.2106361641807	547.44676361783
43	63.096	48447.8707672082	3530.68355391379	48576.3513268955	4.16811472327613	549.04679361379
44	50.119	48958.3639404735	3579.77415052852	49089.0637789788	4.18195338300744	551.16183360845
45	39.811	49515.5176528206	3507.81469943536	49639.6137413695	4.05221982862487	560.2520005855
46	31.623	50001.4102515454	3492.28642319577	50123.2190866168	3.99526451715429	561.982032581132
47	25.119	50526.0029176769	3485.1405715591	50646.0578489641	3.94585058521171	563.712066576764
48	19.953	51024.8814127465	3490.75006425559	51144.1478489568	3.91366105617729	565.712104571714
49	15.849	51525.8187727412	3479.68305619449	51643.1814896501	3.86347845146356	567.662140566791
50	12.589	52046.6615381548	3479.5641536808	52162.8444773368	3.82480077703742	569.672177561716
51	10	52535.0159994193	3478.88561287826	52650.0764592677	3.7886135056126	572.087222555619
52	7.9433	53009.1423233121	3487.97924846777	53123.77216549	3.76461136172124	574.392264549799
53	6.3096	53520.5420911978	3503.77144630404	53635.1082788468	3.74557602037461	576.777306543777
54	5.0119	53963.2800558391	3533.19914597279	54078.8229401309	3.74604484835144	580.472375534448
55	3.9811	54404.5245434189	3590.31337261744	54522.8634694572	3.77564102366848	583.322429527252
56	3.1623	54832.897486134	3653.18522410547	54954.4575899581	3.81163921632609	585.877475520802
57	2.5119	55300.2114346489	3787.40549821077	55429.7557736343	3.91795989122171	588.537524514086
58	1.9953	55767.3976518955	3940.91648683511	55906.4706775598	4.04220294352869	591.142572507508
59	1.5849	56196.8407358615	4183.42923649941	56352.3379183915	4.25738414836794	593.932627500464
60	1.2589	56606.8058764782	4484.30679423787	56784.1481309893	4.52942714731502	596.847680493104
61	1	57081.4344975943	4847.25244769794	57286.8747672175	4.85380948886255	602.422785479029
62	0.79433	57609.7255533669	5308.89411437177	57853.8229942661	5.26509278124942	605.522842471202
63	0.63096	58112.6815483815	5910.39046121254	58412.4684647687	5.80733801765294	609.047906462302
64	0.50119	58690.3139189628	6627.56564860224	59063.3352794518	6.44279528411296	612.95797645243
65	0.39811	59347.8512151641	7545.77801406954	59825.631711624	7.24598861505323	617.153057441838
66	0.31623	60000.8403669743	8629.95052043894	60618.2884180043	8.18474843462533	622.403151428583
67	0.25119	60851.9994810188	9713.21180585013	61622.336246066	9.06906109584495	628.138260414103
68	0.19953	61795.2498385971	11155.4855791989	62794.0901767224	10.2330158249394	634.373376398361
69	0.15849	62674.6892679652	12826.4647475117	63973.7045414376	11.5659587464696	641.633509380031
70	0.12589	63646.44587633	15097.0109822223	65412.4591594441	13.3440094823214	650.258667358255
71	0.1	65091.3839957463	17646.8217440405	67441.0749332158	15.1687508071042	661.063867330974
