Index	Frequency (Hz)	Z' (Ω)	-Z'' (Ω)	Z (Ω)	-Phase (°)	Time (s)
1	1000000	3242.51436499583	5492.09142257936	6377.84976313915	59.4425246257497	439.692724889883
2	794330	4402.39549255269	5796.62705322109	7278.87156549577	52.7842244102574	441.112746886297
3	630960	5670.42483101397	6281.39665067205	8462.24920734752	47.9263875538804	442.512773882763
4	501190	7009.19030395742	6798.57863776651	9764.70277125657	44.126127911725	443.982802879051
5	398110	8589.73093475222	7572.7121457392	11451.176654548	41.3994206993946	448.962893866478
6	316230	9952.99938592067	7937.91430099491	12730.7768901225	38.573758475414	450.347919862981
7	251190	11293.4751237732	7954.73719080934	13813.7766069287	35.1595550501029	455.378015850281
8	199530	12778.8261166838	8127.82492505458	15144.6338659203	32.4579294148827	456.788039846721
9	158490	14230.0703852695	8215.10713155459	16431.1560260574	29.9981040305425	458.293067842921
10	125890	15690.4020555055	8175.36164835037	17692.5197398429	27.5214155214171	459.633092839538
11	100000	17086.1246142929	8032.55288922665	18880.0836929652	25.1792216335789	461.048115835965
12	79433	18437.4967469623	7832.14553927583	20032.0690404822	23.0155139442498	462.39314483257
13	63096	19767.9212259245	7465.68415844062	21130.715784089	20.6898774961688	463.723165829212
14	50119	20979.155582441	7075.12198600328	22140.0614287561	18.6364376907901	465.158191825588
15	39811	22125.7710088399	6588.15783541986	23085.7871080894	16.5813983826045	466.423220822395
16	31623	23086.9002360555	6058.99905307164	23868.7333563116	14.7052571064936	467.713239819138
17	25119	23905.3442635092	5526.746065681	24535.9003590944	13.0176622048584	469.038264815792
18	19953	24676.5372205826	5044.8119759975	25186.9334590769	11.5541990678776	470.343288812497
19	15849	25344.5560868719	4571.5334887849	25753.5520206374	10.2248040901767	471.683316809114
20	12589	25890.7353937246	4118.52922553181	26216.2633151528	9.03850850738712	473.013339805756
21	10000	26391.1523469215	3706.26637167014	26650.1281913651	7.9941064792938	475.243383800126
22	7943.3	26833.0881040099	3372.31442862039	27044.1698301693	7.16323174341757	476.458401797058
23	6309.6	27219.2531867936	3078.96939365602	27392.8420682091	6.45371298116461	477.738424793826
24	5011.9	27565.2704761374	2830.50727370813	27710.2130603344	5.86280140601368	479.098450790393
25	3981.1	27873.6792919186	2620.32901027047	27996.5733865913	5.37043780179035	480.443478786997
26	3162.3	28186.2932129801	2451.75729992286	28292.7241344098	4.97130485313824	481.773502783639
27	2511.9	28455.1419857209	2311.25327346481	28548.8528162103	4.64362414843223	483.098524780293
28	1995.3	28736.168600661	2198.46192445295	28820.1426207242	4.37489412539317	484.388550777036
29	1584.9	28999.5366207723	2111.59244811474	29076.3124705739	4.16462490203186	485.718573773678
30	1258.9	29252.8239567189	2038.73291536154	29323.7811569887	3.98669943719795	487.003596770434
31	1000	29515.5739121143	1989.17822573242	29582.5275014696	3.85557245427433	488.308623767139
32	794.33	29781.7595895169	1950.14078018513	29845.5399232502	3.74643908314122	489.613647763844
33	630.96	30051.3178840912	1921.60061285128	30112.6925977404	3.65873846006529	490.903669760587
34	501.19	30308.6251381891	1902.38066295432	30368.2697886141	3.59157104199756	492.233696757229
35	398.11	30569.4427219016	1890.68572311786	30627.8553090356	3.53917147357784	493.50871975401
36	316.23	30842.2754670739	1884.80581284577	30899.8130890626	3.49705990560647	494.838742750652
37	251.19	31106.5316362125	1880.40289391506	31163.3153800768	3.45934424565181	496.15876874732
38	199.53	31369.1339604176	1881.02675697167	31425.4805386818	3.43158968339232	497.408791744164
39	158.49	31654.6054862184	1885.09002085843	31710.6860990876	3.4080441456107	498.778816740705
40	125.89	31917.3350878384	1885.41960531682	31972.9743095239	3.38064551188575	500.173842737182
41	100	32196.3084589734	1885.98443974041	32251.4994332404	3.35242181104022	501.548867733711
42	79.433	32483.3138404251	1886.91832142325	32538.0721433719	3.32450994469418	502.948892730176
43	63.096	32734.0028193194	1888.88854419243	32788.4559030704	3.30254322029022	504.453919726376
44	50.119	33055.8157547249	1874.00591881761	33108.8938714975	3.24474882402645	505.943950722614
45	39.811	33303.5191503694	1877.69527938926	33356.4105886899	3.226993320828	515.064118699588
46	31.623	33598.8592080549	1868.73257862473	33650.7875321382	3.18344998919818	516.664148695548
47	25.119	33865.352478208	1859.21145202679	33916.3495337664	3.14238984408125	518.349177691294
48	19.953	34151.455293002	1853.67285095265	34201.7251270791	3.10685194902976	520.294213686383
49	15.849	34426.7469895636	1839.39139437844	34475.8505186621	3.05835608495405	522.279251681372
50	12.589	34681.8558975509	1820.10545456415	34729.582669019	3.00412932266161	524.309289676246
51	10	34948.3359548596	1801.43363537311	34994.7331630974	2.95073499266578	526.719334670162
52	7.9433	35187.8173111804	1784.72214133132	35233.0486936166	2.90354740782332	529.019375664354
53	6.3096	35460.4567157153	1777.05005166328	35504.955955095	2.86889599842367	531.42943165827
54	5.0119	35678.2962263276	1765.46397866763	35721.9496202763	2.83284816312006	533.894467652046
55	3.9811	35898.9161868065	1771.59657663671	35942.6033811924	2.82523086142457	536.264508646062
56	3.1623	36116.6292815289	1786.55074715269	36160.7891815367	2.83189357282726	538.789557639687
57	2.5119	36353.5192456721	1840.49778714852	36400.0795830167	2.89828324921914	541.344605633236
58	1.9953	36555.7293480578	1891.71433035412	36604.6435753187	2.96234414940098	543.999654626533
59	1.5849	36763.7205542752	1983.19642131965	36817.1728550465	3.08779294942853	546.794703619476
60	1.2589	36973.9934864392	2113.68402006605	37034.3604571745	3.27185393615656	549.704759612129
61	1	37143.6938779252	2280.87078347978	37213.6583316926	3.51393106014185	554.829854599189
62	0.79433	37370.7052184161	2484.43461974133	37453.1977793822	3.80347281593056	557.984912591224
63	0.63096	37569.4429987795	2756.61876837144	37670.4392630704	4.19649800714228	561.55497758221
64	0.50119	37785.315176741	3089.52461536819	37911.4126003585	4.67440354649672	565.430050572426
65	0.39811	38026.4880754465	3537.11579104776	38190.6399981901	5.31419920078469	569.630129561822
66	0.31623	38218.6586456979	4096.35422475472	38437.5595818861	6.11772372005509	574.405215549766
67	0.25119	38561.8200986679	4852.49176989638	38865.9316844321	7.17221271738241	579.900319535892
68	0.19953	38857.0653126977	5716.49439058766	39275.3081825321	8.36909036820839	586.190433520011
69	0.15849	39268.2365095538	6777.14580755755	39848.7653995346	9.79198573063921	593.565572501391
70	0.12589	39639.1240812446	7941.44738715395	40426.8072512688	11.3288644351402	602.270733479413
71	0.1	40049.8807309119	9784.03820513897	41227.6648642618	13.7282592822397	612.455922453697
