Index	Frequency (Hz)	Z' (Ω)	-Z'' (Ω)	Z (Ω)	-Phase (°)	Time (s)
1	1000000	4067.15988257322	8050.16118856994	9019.25078220862	63.1958558515492	824.983679917116
2	794330	6104.90130357769	8168.40060463911	10197.6756353736	53.2262875315835	827.214720911484
3	630960	8047.39362252523	8733.53224598372	11875.8212182357	47.3414060357123	829.555763905573
4	501190	9962.79105939477	9483.44478788987	13754.7421181973	43.5879551231023	831.971807899473
5	398110	12659.5841224414	10850.8693128453	16673.5249721712	40.6007655485791	841.121979876371
6	316230	14791.8996154643	11075.2637208701	18478.6839553253	36.8236088028008	843.258016870978
7	251190	16596.5802440335	11157.7638687667	19998.554206437	33.9126622180843	852.303186848141
8	199530	18633.004649819	11299.543891237	21791.4789408651	31.2337239343848	854.479224842647
9	158490	20614.8284281615	11267.0041871825	23492.9039174923	28.6587455306552	856.770265836863
10	125890	22560.5088229883	11174.1174009564	25176.1287342294	26.3490050151003	858.966309831319
11	100000	24439.0715395227	10934.3663846025	26773.6546990999	24.1043784718577	861.237350825585
12	79433	26232.9529839169	10591.452574254	28290.3992529103	21.9862011485647	863.438390820028
13	63096	27968.2054548083	10183.9528187067	29764.6335669702	20.0078840193582	865.54442781471
14	50119	29602.3161527753	9671.17898094155	31142.0748263546	18.0923939559238	867.780469809065
15	39811	31138.723750354	9042.96705838238	32425.2273703647	16.1937751442254	870.11151280318
16	31623	32489.0939010968	8315.89666546559	33536.4780480149	14.3571661060363	872.397556797408
17	25119	33636.1355926331	7697.02230813959	34505.5614360642	12.8891860995336	874.553596791964
18	19953	34718.2484186666	7050.62353452197	35426.9398267166	11.4795811940308	876.779638786344
19	15849	35711.6081686798	6386.50139538377	36278.1801923216	10.1393306401632	878.930677780913
20	12589	36595.3695310117	5802.29479336134	37052.4991866996	9.00940462725059	881.051717775558
21	10000	37334.1066158813	5180.48248248807	37691.8149676738	7.89992032716496	885.263796764924
22	7943.3	37962.8931514759	4648.06063221039	38246.3818428761	6.9803780179061	887.284832759821
23	6309.6	38527.1171626485	4163.43901453246	38751.4255388389	6.16774266891696	889.53087475415
24	5011.9	39013.6067990298	3729.7205811644	39191.4828895624	5.46090932931244	891.811916748391
25	3981.1	39422.770629342	3339.17583284657	39563.9348313129	4.84149396507937	893.972956742935
26	3162.3	39807.4413636169	2999.96361542285	39920.3227643723	4.30977098534528	896.118994737517
27	2511.9	40129.4115141491	2700.68874942672	40220.1863271816	3.85017073040421	898.275034732074
28	1995.3	40420.3380303435	2436.71372786121	40493.7192695211	3.44986359108436	900.496076726466
29	1584.9	40701.4103232214	2221.54968050181	40761.9931465841	3.1241975182388	902.767118720732
30	1258.9	40927.6372794398	2047.2161396044	40978.8065614367	2.86357023890509	904.97816071515
31	1000	41146.4036276674	1863.55369754108	41188.5829311295	2.59319977626299	907.049197709921
32	794.33	41370.6507434897	1726.4226770245	41406.6574139902	2.38960161057051	909.435243703897
33	630.96	41555.0771171547	1606.82860972758	41586.1314910838	2.2143781501222	911.641284698327
34	501.19	41743.7364433294	1511.42433214443	41771.0897124069	2.07361463203681	913.962326692467
35	398.11	41905.0595509456	1430.51505668689	41929.4692226805	1.95514957860938	916.008363687301
36	316.23	42092.7706600416	1370.67076666723	42115.0813864755	1.86506871842648	918.054402682135
37	251.19	42259.0209478698	1326.5179806637	42279.835636217	1.79793406206278	920.190442676742
38	199.53	42404.8779570159	1298.71988416062	42424.7610233332	1.75423015219765	922.326479671349
39	158.49	42544.5896807251	1284.95757455633	42563.9897926601	1.72995608936158	924.522519665805
40	125.89	42711.8646604578	1286.38168548348	42731.2316767726	1.72509369621058	926.793562660071
41	100	42842.5329314226	1304.02678350824	42862.3741040103	1.74341163849949	929.079607654299
42	79.433	43000.7574308303	1336.41938093872	43021.5196894165	1.78012099326164	931.325648648629
43	63.096	43156.361340949	1392.72278157598	43178.8281561331	1.84838226800854	933.716693642592
44	50.119	43322.9160808288	1466.74714533221	43347.7381755366	1.93907385134707	935.952734636947
45	39.811	43477.6408820757	1553.79656039342	43505.3966815823	2.04675578612673	945.98391961162
46	31.623	43653.0320246847	1667.9524362695	43684.8860623192	2.18816800884985	948.539966605167
47	25.119	43862.8649947119	1810.85603748548	43900.2292150374	2.36408455808119	951.131013598625
48	19.953	44067.270455168	1999.21407821	44112.5966397291	2.59757498983589	953.952065591503
49	15.849	44308.3381524155	2206.82944952583	44363.2609942967	2.85132823995163	956.743118584456
50	12.589	44569.2620884555	2439.44543553437	44635.972232521	3.1328901991703	959.699171576993
51	10	44856.733685299	2712.79141511153	44938.6892796813	3.46084984037844	962.755230569277
52	7.9433	45166.8438015995	3014.65398378609	45267.3383096471	3.81853427365385	965.886289561372
53	6.3096	45565.5163530078	3364.08472174055	45689.5321329872	4.22246474920972	969.022346553454
54	5.0119	45959.2955032584	3744.78703190485	46111.606706665	4.65819905656539	972.343407545069
55	3.9811	46412.4847464713	4180.10240895182	46600.3433087221	5.14641226866199	975.819470536293
56	3.1623	46895.2875163274	4649.4271342154	47125.2073089911	5.66207874326199	979.130531527933
57	2.5119	47422.915340712	5219.47797985234	47709.2847336292	6.28082871371861	982.511596519397
58	1.9953	47982.1273902561	5869.85296676636	48339.8357749198	6.97457548860571	985.982658510633
59	1.5849	48579.0823980717	6605.14576648532	49026.0665078809	7.74284678372385	989.638725501402
60	1.2589	49234.2724079453	7472.29457947909	49798.079941121	8.62993200212816	993.424799491843
61	1	49888.0494450319	8541.99381714676	50614.0606531635	9.71614979689903	1000.3319254744
62	0.79433	50738.2699776337	9820.23671790595	51679.8712219656	10.9539825318402	1004.36299846423
63	0.63096	51533.6734984584	11235.8775877953	52744.3309694382	12.2997024649912	1008.64908045341
64	0.50119	52417.2084532316	13062.0440438468	54020.1882321131	13.9927612424001	1013.45016844128
65	0.39811	53468.0645035703	15292.703430199	55612.0553473972	15.9613585740984	1018.51126142851
66	0.31623	54917.6128458168	18194.9274251055	57853.259067125	18.3307126993284	1024.32236941383
67	0.25119	56438.0053844744	21433.7118852288	60370.9570651067	20.7954972270372	1030.80848839746
68	0.19953	58280.7697221658	24728.0184178427	63309.7387001501	22.9910857201076	1037.84962137968
69	0.15849	60733.9842038214	29313.5854961162	67438.1430045945	25.7645311706526	1046.04577335899
70	0.12589	63399.3067288639	34423.9784462065	72142.0985677951	28.5006724905383	1055.48194533516
71	0.1	65877.1119768363	40162.4146856763	77154.4777429856	31.3688483627803	1066.53814930725
