Index	Frequency (Hz)	Z' (Ω)	-Z'' (Ω)	Z (Ω)	-Phase (°)	Time (s)
1	1000000	3090.21272253295	8242.64437747036	8802.87458753948	69.4487017776993	140.848378644392
2	794330	5102.98376348994	9014.7719219207	10358.8877827058	60.4871407964516	142.188398641009
3	630960	7221.60849059763	10230.8507788483	12522.8565770967	54.783036974172	143.583424637487
4	501190	9236.72709235479	11523.9636641115	14768.8478193258	51.2870074135441	145.098454633662
5	398110	12286.2372533617	14181.1355477815	18763.1615478428	49.0950322822389	150.223550620722
6	316230	15168.7035375513	15316.1222061152	21556.2790491025	45.2770690494299	151.683576617036
7	251190	17639.3149801216	15773.263841138	23663.078522671	41.8034223915498	156.948673603743
8	199530	20659.3444002699	16488.4789427689	26432.5263434106	38.5938014625023	158.24869760046
9	158490	23807.4385800588	16857.9905820262	29171.6639602021	35.3022192386457	159.618721597001
10	125890	26903.8558422265	16880.5617767332	31761.1527668221	32.1058144233663	161.008751593492
11	100000	29920.6639573205	16609.7090419464	34221.755742583	29.0357504787486	162.433774589894
12	79433	32831.275430126	16119.4872736175	36574.998514465	26.1500976220894	163.753801586561
13	63096	35573.9873998334	15377.2958681485	38755.2552273893	23.3770114018915	165.148824583039
14	50119	38007.1731790425	14514.4944865998	40684.3429744571	20.9012713745224	166.588851579404
15	39811	40390.1260694685	13471.291723356	42577.4351576433	18.4450550791662	168.048880575717
16	31623	42338.2916492127	12264.4631940023	44078.8838017801	16.1551289697825	169.45390457217
17	25119	43866.873393263	11329.8699400128	45306.3851367351	14.4817879603503	170.88393056856
18	19953	45406.3821945065	10456.8995481084	46594.9170205595	12.9688605771763	172.328959564911
19	15849	46747.6989892389	9598.03644186403	47722.8421652341	11.6024838043161	173.808987561174
20	12589	47917.8549591663	8735.85387316349	48707.6581943842	10.3320633122023	175.264011557501
21	10000	49022.0778979412	8020.00643280195	49673.7820647271	9.29127316541609	177.579056551656
22	7943.3	49993.802580626	7407.54756086571	50539.6087968347	8.42815583077273	178.80907654855
23	6309.6	50903.967723945	6879.2201108514	51366.6973765491	7.69638947459736	180.12410154523
24	5011.9	51731.7516688607	6424.67647358833	52129.1722408763	7.07943645042368	181.464128541847
25	3981.1	52500.1963323073	6028.34549559923	52845.1659505875	6.5503115738307	182.804154538464
26	3162.3	53204.047782646	5701.47220568273	53508.6673892207	6.11660925423622	184.154175535055
27	2511.9	53908.4523110681	5432.11744340552	54181.4463676788	5.75402106874945	185.564205531495
28	1995.3	54577.7015096147	5218.83546811228	54826.6517828311	5.46213640079947	186.959229527973
29	1584.9	55237.233254882	5048.17095715433	55467.4315942869	5.22179729206148	188.364255524426
30	1258.9	55873.3558587159	4908.31710705819	56088.5324441471	5.02038517386083	189.814283520765
31	1000	56514.3632506269	4808.62808370121	56718.5697780821	4.86340225454143	191.299310517016
32	794.33	57176.2126558884	4731.39319262097	57371.642605163	4.73050935856474	192.804338513216
33	630.96	57854.6265903174	4678.37570613315	58043.4752332491	4.62312548811363	194.229365509618
34	501.19	58483.8736607728	4640.54554957028	58667.6924837416	4.53676806758474	195.664389505995
35	398.11	59123.7413168061	4618.13916902676	59303.8278417262	4.46628917070217	197.059415502473
36	316.23	59801.4655281545	4607.01148319834	59978.6614899113	4.40527610855526	198.454440498951
37	251.19	60472.913380676	4594.31632503549	60647.1845615378	4.34459348119664	199.834467495466
38	199.53	61083.7057393433	4584.78852968688	61255.5254055716	4.29242779558275	201.159492492121
39	158.49	61767.999138003	4583.87109499499	61937.8526567387	4.24420282354573	202.464515488826
40	125.89	62466.0635868149	4565.39771313582	62632.6748296056	4.18008990772327	203.894543485216
41	100	63081.365584813	4548.93902390307	63245.1700154883	4.12458777107999	205.179565481971
42	79.433	63791.360397858	4535.67541811694	63952.4042777746	4.06698417800891	206.684595478172
43	63.096	64437.1224559442	4507.31013471156	64594.5709410072	4.00126319695486	208.144622474485
44	50.119	65090.5376245384	4473.98638603087	65244.1157686564	3.93203061185213	209.484645471102
45	39.811	65755.1812270624	4451.47854166147	65905.6865483601	3.87288673682124	218.53981544824
46	31.623	66400.4417242734	4421.14301237621	66547.4655168362	3.809304334861	220.154844444162
47	25.119	67086.4951498541	4373.31033679177	67228.8901796935	3.72978467153061	221.914878439719
48	19.953	67699.819115163	4354.59688071761	67839.723040556	3.680316861898	223.854913434821
49	15.849	68336.4531724608	4311.48556054636	68472.3282788801	3.61012196421746	225.77994642996
50	12.589	68973.2480057689	4277.8052113758	69105.7780354998	3.54900841310303	227.984989424393
51	10	69592.6411938545	4228.9503497268	69721.0135425255	3.47742831958852	230.295033418561
52	7.9433	70221.9226150238	4191.77672875024	70346.9218082361	3.41611918888026	232.665076412577
53	6.3096	70819.3084477208	4156.41448966544	70941.1744364535	3.35885991858823	234.950118406808
54	5.0119	71367.0701083127	4131.0747220191	71486.5335164863	3.31286287698841	237.59516840013
55	3.9811	71898.0273561998	4116.50175460218	72015.7755245925	3.27687655387711	240.100211393805
56	3.1623	72462.7233050469	4133.43114597968	72580.5175086424	3.26473784764897	242.775263387051
57	2.5119	72956.664657478	4188.36585364646	73076.7906141731	3.28568433563025	245.365310380512
58	1.9953	73413.39014836	4247.10338773337	73536.1390083911	3.31097866423164	247.965357373948
59	1.5849	73881.163045279	4392.81463233763	74011.6414715765	3.40267751142937	250.770411366866
60	1.2589	74323.3351845365	4643.49151506001	74468.249384576	3.57501594066633	253.655465359582
61	1	74868.5944725874	4945.63992411278	75031.7652235353	3.77933109236587	258.760561346692
62	0.79433	75328.5809976545	5367.26946136466	75519.5517504646	4.07551897820244	262.065619338348
63	0.63096	75843.4943898111	5876.462955074	76070.8121300126	4.43050750037479	265.525685329612
64	0.50119	76360.9142253676	6600.67328404754	76645.6659514202	4.94039370930914	269.330753320005
65	0.39811	76934.2973683969	7479.82001951624	77297.0492263015	5.55304234834384	273.555832309338
66	0.31623	77741.7795164625	8534.07684246923	78208.7894672935	6.26454108583082	278.245918297497
67	0.25119	78401.6096656408	9813.4794847984	79013.3961917982	7.13457060602562	283.631020283901
68	0.19953	79288.0595312704	11242.2703297528	80081.1152919433	8.07018509186612	289.991135267843
69	0.15849	80339.8188781978	13062.7081276888	81394.8452975421	9.23508867559753	297.451273249008
70	0.12589	81761.9859941555	15178.1475842848	83158.8751595331	10.5165699881404	306.121434227118
71	0.1	83025.7407831248	17244.0139906213	84797.5804554315	11.7332206291271	316.361627201264
