Index	Frequency (Hz)	Z' (Ω)	-Z'' (Ω)	Z (Ω)	-Phase (°)	Time (s)
1	1000000	3841.19270032423	6174.02943228695	7271.40982146995	58.1120556450921	141.573440642561
2	794330	5276.8735786914	6207.72060591016	8147.46524303927	49.6337966794916	143.15846763856
3	630960	6660.28048972888	6544.93213819774	9337.85162098203	44.4995305399984	148.643572624711
4	501190	8144.90350119043	6907.56508198927	10679.6024460474	40.3007553006308	154.278676610484
5	398110	10023.7017181407	7539.60033811864	12542.7337288494	36.9496522741299	159.618774597001
6	316230	11622.9981967733	7653.49241230921	13916.5381179182	33.3640376951884	161.003798593504
7	251190	12783.6546906364	7316.09881355916	14729.1251980283	29.7825507680984	167.71892657655
8	199530	14162.0147243396	7131.12399044107	15856.0900104488	26.7270283992932	169.408956572284
9	158490	15474.4852627587	6885.60813109876	16937.2752673619	23.9874018385988	171.183987567802
10	125890	16662.3993488078	6488.81852957183	17881.2840134277	21.2773724681705	172.784016563762
11	100000	17729.1499080071	6045.73358526624	18731.6216875263	18.8296468666431	174.69405255894
12	79433	18667.367718514	5564.01514316529	19478.93431509	16.5972689158227	176.029076555569
13	63096	19476.766201103	5040.90711041207	20118.5279319396	14.5106783109211	177.534104551769
14	50119	20195.4475973309	4521.27875246807	20695.3633747769	12.619078840426	179.124134547755
15	39811	20786.6703143545	4018.27815197383	21171.4955084495	10.9409150415402	180.819165543475
16	31623	21252.6192282862	3540.06159531754	21545.4371076839	9.45696682709296	182.279194539789
17	25119	21654.7923238985	3113.56618789968	21877.4844302905	8.18201802272899	184.019227535396
18	19953	21993.5263207766	2753.40283114207	22165.207582453	7.13582015386208	185.57425353147
19	15849	22317.7070702775	2431.53929557739	22449.7757721686	6.21791410717793	187.189282527392
20	12589	22558.6438605094	2138.50779157606	22659.7799724518	5.41532561660057	188.79431352334
21	10000	22770.5988848179	1870.57166550634	22847.3020711214	4.69622014688841	191.84437151564
22	7943.3	22973.1152941048	1662.6789939464	23033.2048953927	4.13956367822843	193.684404510994
23	6309.6	23141.7747088669	1481.85898158603	23189.1708070224	3.66387217946506	195.249434507043
24	5011.9	23298.0923292342	1326.7709047108	23335.8399723496	3.25933793298599	196.889463502902
25	3981.1	23444.9201780718	1195.0708524433	23475.3589216122	2.91804381132852	198.344490499228
26	3162.3	23564.6789210721	1081.12984150365	23589.4665981961	2.62684545037631	199.794517495567
27	2511.9	23670.5962407293	987.712773742114	23691.19462828	2.38941856679164	201.38954649154
28	1995.3	23784.2764867839	903.763843229091	23801.4410715845	2.17609954588595	202.789572488006
29	1584.9	23879.5591479614	832.986499045615	23894.0831924679	1.99782862469066	204.069599484774
30	1258.9	23982.3965216822	771.689705355498	23994.8087703266	1.84298983637993	205.5246244811
31	1000	24071.9036985604	723.165322311551	24082.7638728647	1.72075557855003	206.874649477692
32	794.33	24167.0061087519	676.548011878698	24176.4741323633	1.60355916598316	208.664684473172
33	630.96	24235.0108158064	640.463893310677	24243.4721779057	1.51381565704496	210.104711469537
34	501.19	24323.7319734836	606.969310437658	24331.3038874139	1.42945022219883	211.539734465914
35	398.11	24400.3683329927	581.841298799694	24407.304523087	1.36599308041137	213.429771461142
36	316.23	24472.1255194542	558.177664526353	24478.4903485713	1.30661638517903	215.064799457014
37	251.19	24547.7200372643	541.919212491879	24553.7010542357	1.26466494858359	216.80483445262
38	199.53	24611.8879678049	526.468610606261	24617.5181230305	1.22541716354617	218.049856449477
39	158.49	24675.7508295392	517.402605337505	24681.1746976823	1.20120527957951	219.43488044598
40	125.89	24730.7259973609	512.726282481178	24736.0404389484	1.18770650190337	220.919911442231
41	100	24791.2642553212	510.177008758861	24796.5131411139	1.17891785581441	222.409937438469
42	79.433	24855.6453618133	516.189247605185	24861.0047602983	1.18971823644725	223.879964434757
43	63.096	24908.2545973381	528.070368847547	24913.8516773354	1.21452394338408	225.429991430844
44	50.119	25029.5298586272	460.828918810618	25033.7717540989	1.05477687578985	253.900520358963
45	39.811	25000.7328032923	565.2728144251	25007.1224665363	1.29525119773523	263.09068833576
46	31.623	25062.3930172171	581.71625143685	25069.1431354691	1.32963770210754	264.775719331506
47	25.119	25127.2439625729	642.879793529159	25135.4666474204	1.46559109242081	266.470752327226
48	19.953	25212.4006460018	679.540463365429	25221.5566842307	1.54389806931222	268.490791322126
49	15.849	25312.5036451424	745.931634052224	25323.4921523084	1.68795508377959	270.555829316912
50	12.589	25405.7563765881	818.44714604776	25418.9361067181	1.84514699931679	272.580864311799
51	10	25439.8903507391	944.138094733549	25457.4039878294	2.12541454005934	274.935907305854
52	7.9433	25563.4248220526	1082.14441424167	25586.3191015435	2.42398318674898	277.290953299908
53	6.3096	25686.8207099147	1182.33943801419	25714.017281047	2.63540900891835	279.660997293924
54	5.0119	25831.3671206556	1310.74697629892	25864.6010013293	2.90483708504452	282.096042287776
55	3.9811	25962.9421357846	1476.35838463074	26004.8841263708	3.2545659485568	284.666090281287
56	3.1623	26122.7764727138	1721.6582802601	26179.4491515264	3.77070559936027	287.216135274849
57	2.5119	26258.1389765664	1944.60959799548	26330.0468856645	4.23544486674189	289.736184268486
58	1.9953	26496.358663366	2428.4315039349	26607.4106591948	5.23661536693264	292.556235261367
59	1.5849	26892.9454638387	2547.32392767753	27013.3184728111	5.4109637121965	295.54129125383
60	1.2589	26878.3195758818	2966.36203610425	27041.5119206096	6.29782644528389	298.681348245902
61	1	27375.1368522962	3193.74980505177	27560.8083244889	6.65439167536477	304.061451232319
62	0.79433	27736.0281008334	3607.21543647068	27969.6131187997	7.41002380469328	307.516512223595
63	0.63096	28101.8302102705	4106.57452568985	28400.2960460259	8.3138959935055	311.106579214531
64	0.50119	28530.0703574895	4676.94700040787	28910.8759439753	9.30971778440708	317.546701198272
65	0.39811	29046.8987436017	5317.07067716505	29529.5371993368	10.3732195610432	323.181801184044
66	0.31623	29466.6991872925	6115.26652112168	30094.5650511639	11.7242479921475	328.091894171648
67	0.25119	30116.9144457671	7041.73370883092	30929.1860442486	13.1600970762868	333.947003156865
68	0.19953	30701.1005419364	8145.75779617506	31763.3585214164	14.8596045143163	340.192118141097
69	0.15849	31283.4056298954	9427.4306447821	32673.0457161059	16.7704766138651	348.05726312124
70	0.12589	32163.6891913137	10896.5034978327	33959.3387873455	18.7154943304047	356.827427099097
71	0.1	32619.6522115506	12844.7863672983	35057.5276827111	21.4932540203454	367.332619072574
