Index	Frequency (Hz)	Z' (Ω)	-Z'' (Ω)	Z (Ω)	-Phase (°)	Time (s)
1	1000000	3760.78984679468	8831.97320268693	9599.33804617454	66.934950165422	469.846257813752
2	794330	6081.93703705362	9074.87725033423	10924.4384400901	56.1702057352215	471.296281810091
3	630960	8261.61398430738	9906.40887835292	12899.2713937964	50.1730228568754	472.821307806241
4	501190	10697.5713845166	10777.771433403	15185.4664267353	45.2139711107252	474.401336802252
5	398110	13751.0997035937	12755.5186751521	18756.2256259177	42.8489979739908	485.236539774896
6	316230	16267.8027051185	13010.2999390165	20830.4898971636	38.6513409990273	488.67660176621
7	251190	18524.8630954284	13294.8781275667	22801.8494234835	35.6661541773892	495.921736747918
8	199530	21028.1021624936	13413.1237927792	24941.7916444807	32.5324426405672	497.411765744156
9	158490	23378.0743784742	13446.4775559868	26969.2810491701	29.9064249065818	499.591805738652
10	125890	25815.2673967676	13167.703588327	28979.5867561401	27.0249583417158	502.276855731873
11	100000	28037.5615677925	12746.8190534709	30799.1274981887	24.4481427606542	504.476894726318
12	79433	30220.9676948177	12206.2945174551	32592.9519107746	21.9938568503796	506.766938720536
13	63096	32150.0617340174	11591.7307135248	34175.9373014992	19.8268095992553	509.711990713101
14	50119	34026.4843719586	10811.4752240028	35702.7959022031	17.626981353605	512.202038706814
15	39811	35744.7731936013	9932.66823340099	37099.1470103669	15.5294152648498	513.617063703242
16	31623	37081.354323756	8962.08516972214	38148.9948632109	13.5870976062456	515.092093699517
17	25119	38312.3842527225	8114.8810390036	39162.3554118677	11.9589748661898	516.547118695844
18	19953	39388.7416769725	7341.11136545247	40067.0049663716	10.5574226788211	517.972146692246
19	15849	40271.2477282995	6589.81989140145	40806.8513830114	9.29327999146141	519.50717168837
20	12589	41106.1577878432	5842.65097661085	41519.3060938349	8.08958725373749	520.992201684621
21	10000	41848.6434472072	5186.48356611786	42168.8103952802	7.0648894230984	523.54724867817
22	7943.3	42470.2149256274	4614.96572447889	42720.2184506014	6.20163192221701	524.847272674888
23	6309.6	42953.6294594227	4102.0526738419	43149.0569986919	5.45517777975208	526.36730167105
24	5011.9	43417.8515389569	3655.73959044261	43571.4845307344	4.81289501446779	527.887330667213
25	3981.1	43820.6597042858	3260.46919657559	43941.7896347047	4.25524244125766	529.49235966316
26	3162.3	44135.2778261451	2918.62256990751	44231.6753751945	3.783405033254	531.092388659121
27	2511.9	44473.5788051303	2628.48552772097	44551.185707067	3.38237093955808	532.742417654955
28	1995.3	44732.8366728969	2376.81983427259	44795.9367502083	3.04147504209607	534.467450650599
29	1584.9	44984.9740442758	2160.67939235503	45036.8340938916	2.74986802030015	536.747494644843
30	1258.9	45222.5074734068	1977.44871782729	45265.7208670532	2.50378280762401	538.217519641131
31	1000	45456.0299147644	1819.3460559431	45492.4243768479	2.29200045425972	539.822548637079
32	794.33	45648.1387294983	1684.31420730032	45679.2018736802	2.11312747624367	541.427580633027
33	630.96	45848.1069784245	1572.43567448042	45875.0636779442	1.96428236519736	542.92760562924
34	501.19	46014.9859683717	1477.15047162276	46038.689242693	1.83864955669097	544.632639624935
35	398.11	46191.5413034657	1403.9716414946	46212.8729290865	1.74094411256677	548.102701616174
36	316.23	46366.40151627	1338.46381743268	46385.7162816156	1.65350413651528	551.097760608612
37	251.19	46509.7398168362	1291.54925352882	46527.6691582986	1.59066270361633	553.872811601606
38	199.53	46690.9228560752	1257.93218559995	46707.8651892327	1.54327157980146	557.067869593539
39	158.49	46821.4901524171	1240.68526188641	46837.9252317174	1.51787989209868	560.672933584437
40	125.89	46962.6810062595	1227.96730000087	46978.732539156	1.49781303399579	565.683027571788
41	100	47112.6712110475	1236.54011211486	47128.8958080829	1.5034653291622	567.078053568266
42	79.433	47252.6019407378	1252.65571615152	47269.2028334837	1.51854240532131	568.453078564794
43	63.096	47424.6380572298	1289.52377012151	47442.1665442563	1.55754628620575	569.963108560981
44	50.119	47598.6102201471	1304.60425617144	47616.4854557191	1.56999560157572	571.443134557245
45	39.811	47697.1523911673	1398.02273481171	47717.6362972149	1.67888169373647	580.653307533991
46	31.623	47888.6097246139	1478.72207762004	47911.4345468722	1.76863814730375	582.398338529586
47	25.119	48040.2502777577	1585.62057870329	48066.4107186007	1.89042308496996	584.083370525331
48	19.953	48224.6611724449	1733.72935178199	48255.8158428841	2.05895923476812	586.178409520042
49	15.849	48416.4944305074	1888.8280223756	48453.3239751152	2.23409445031196	588.218447514891
50	12.589	48635.4666732587	2087.04112375051	48680.225545676	2.45716425787108	590.253484509753
51	10	48850.6929050304	2312.63267272674	48905.4032513847	2.71040653342012	592.903533503062
52	7.9433	49122.3844443457	2582.72020320425	49190.2337577912	3.00968364208145	595.353576496877
53	6.3096	49379.2461790593	2888.29632991965	49463.6453256487	3.34753687750057	597.888624490476
54	5.0119	49688.6371234	3259.7572888695	49795.4483538733	3.75343523420135	600.26367048448
55	3.9811	50032.5304811104	3674.14402205347	50167.2546651502	4.19998251958442	602.608713478559
56	3.1623	50382.9941947374	4189.42166499179	50556.8725092251	4.7532952419409	605.073759472336
57	2.5119	50813.3032053001	4745.18025703209	51034.3856464001	5.33507115820392	607.643807465847
58	1.9953	51250.7661931825	5454.86397994685	51540.2423008272	6.07539112246703	610.298855459144
59	1.5849	51765.4945836208	6231.37382623895	52139.2026142442	6.8640651223119	613.053904452188
60	1.2589	52262.8057193781	7173.05074877041	52752.7583990249	7.81499707183611	615.933957444916
61	1	52911.2438160338	8352.80824944365	53566.4925845602	8.97093757199379	620.984056432166
62	0.79433	53602.454349769	9754.93464042017	54482.858424994	10.3141934911355	624.224113423986
63	0.63096	54355.25130309	11275.7417923036	55512.4823547711	11.7195166128955	627.799179414959
64	0.50119	55142.7441143613	13323.0385489695	56729.4067009277	13.5829237048471	631.749251404986
65	0.39811	56274.1094356073	15786.3540770669	58446.4230540863	15.670192278725	636.279337393549
66	0.31623	57568.9248869249	18750.8006056641	60545.6326747832	18.0409710626926	641.36442838071
67	0.25119	58824.9479088613	22448.4508865954	62962.7464751033	20.887577689032	646.764530367077
68	0.19953	60448.4540838487	26463.9807056731	65987.5584933812	23.6435230357862	653.029647351259
69	0.15849	62608.2656589282	31611.1645730202	70136.015387827	26.7893933518701	660.304780332891
70	0.12589	65614.9561140826	37181.4756919965	75417.4025042463	29.5385623070012	668.794938311455
71	0.1	67616.0469938646	43884.4501249239	80608.7760348924	32.984546127464	678.990125285715
