Index	Frequency (Hz)	Z' (Ω)	-Z'' (Ω)	Z (Ω)	-Phase (°)	Time (s)
1	1000000	4081.74790225804	6798.70539915523	7929.88404972546	59.0206015601366	58.918911851244
2	794330	5778.42519243766	6692.42271664162	8841.87307773749	49.1917547424838	60.4539408473685
3	630960	7336.91955377849	6890.26632386647	10065.0960528167	43.2018269449155	61.8939668437328
4	501190	8950.72881358775	7248.35630346944	11517.5611739828	39.0007694348001	63.4539958397941
5	398110	11065.6849179973	7792.53608319971	13534.1420604471	35.153486158028	68.6590918266525
6	316230	12610.1928065282	7802.41981654465	14828.8474808875	31.7467003744811	70.0191158232187
7	251190	13946.0296625542	7287.65599380758	15735.3637782201	27.589828559579	74.464199811996
8	199530	15297.7292873117	7005.97574975887	16825.7011014128	24.6065900623017	76.0792278079184
9	158490	16537.9511159931	6597.80426673722	17805.4724244305	21.749494290778	77.5242548042701
10	125890	17652.6875601439	6101.63050421082	18677.4535980142	19.0676479264105	78.9292828007227
11	100000	18600.7212061236	5567.47181141228	19416.0647856049	16.6632218277595	80.4793117968093
12	79433	19419.9694352673	5022.43843606007	20058.9157411543	14.5002567734513	82.524349791646
13	63096	20101.081791668	4472.07573776473	20592.5459960548	12.5428463379708	83.9143737881366
14	50119	20676.4137619891	3950.58108851107	21050.443629384	10.8169620367246	85.3644027844756
15	39811	21168.3419758412	3456.19949182912	21448.6367150335	9.27298051923959	86.7244267810419
16	31623	21553.5232136228	3033.18304601465	21765.9036640064	8.01051275303054	88.0494517776965
17	25119	21842.8789411819	2657.64470113027	22003.964092785	6.93713624365279	89.439476774187
18	19953	22131.9754448352	2331.13619871025	22254.4048014708	6.01273029749374	91.1045077699832
19	15849	22349.0536481835	2057.41821317822	22443.5551700996	5.25973314976135	92.7045357659435
20	12589	22559.1584005687	1808.68008532358	22631.5477021125	4.58388301046663	94.119561762371
21	10000	22742.1674406694	1585.99479850897	22797.4024704645	3.98923819659798	96.4196077565639
22	7943.3	22917.044611022	1416.17059591488	22960.7594138414	3.53612571382851	97.8196317530292
23	6309.6	23072.228044853	1271.05422167042	23107.2128520106	3.15324996402022	99.319659749242
24	5011.9	23207.5797437641	1145.32993275583	23235.824457463	2.82534299172319	100.769685745581
25	3981.1	23324.6779438544	1037.35080157918	23347.7343198449	2.54651669528491	102.134711742135
26	3162.3	23421.4832239366	945.788478419231	23440.57150018	2.31241812012339	103.559736738537
27	2511.9	23538.5102200766	867.884536993451	23554.5045999741	2.11158673336281	104.979765734952
28	1995.3	23627.1874910493	802.213943683822	23640.8023541638	1.94461668939181	106.419789731316
29	1584.9	23731.5792941986	742.705850639645	23743.1983476828	1.79254929517023	107.869819727655
30	1258.9	23815.2544156955	690.556058097255	23825.264123482	1.66090454734788	109.66985372311
31	1000	23898.8195063311	649.68740969121	23907.6487243414	1.55719745029926	111.349883718869
32	794.33	23978.2211133638	606.67686891579	23985.8947005244	1.44934061639353	112.874911715018
33	630.96	24050.166377362	569.633975378715	24056.9113903821	1.3568106375869	114.379938711218
34	501.19	24118.8380382856	536.995138483824	24124.8152758898	1.27545417343683	116.109972706851
35	398.11	24201.5681732636	506.878646874081	24206.8756349882	1.19982976505046	117.44499370348
36	316.23	24259.8822871352	480.345562558269	24264.6372411608	1.13430796649082	118.805020700046
37	251.19	24332.274139361	454.74211640711	24336.5230710028	1.07066734126533	120.400050696019
38	199.53	24391.7632340013	433.615889604128	24395.6171556141	1.01844805151164	121.860074692333
39	158.49	24442.6786630115	415.021684724385	24446.2018158656	0.972753702921691	123.410106688419
40	125.89	24501.8046618274	394.46067897833	24504.9797166536	0.922339398705213	124.900133684657
41	100	24539.2618207636	378.660118230058	24542.1831586582	0.884048797920509	126.435161680782
42	79.433	24588.0605933459	363.359375348839	24590.7452871544	0.846648447631118	127.950188676957
43	63.096	24633.5296771052	350.25393523984	24636.0196089379	0.814610017284225	129.64021967269
44	50.119	24707.0338135462	609.679826133741	24714.5550102386	1.41356479405688	156.56571960471
45	39.811	24680.1017872173	322.086917476206	24682.203390496	0.747694381430261	165.63588658181
46	31.623	24751.8629444774	343.491979708654	24754.246220847	0.795066518424643	167.35091757748
47	25.119	24799.3468677018	326.0216749386	24801.4897777759	0.753188787428646	169.040952573213
48	19.953	24811.1261911343	341.897159652571	24813.4817496491	0.789485505108703	171.0659885681
49	15.849	24853.0141339391	366.155152519777	24855.711237812	0.84406772903121	173.141027562861
50	12.589	24858.1545342222	385.736956394055	24861.1471949064	0.889017159171156	175.5810725567
51	10	24919.2741122824	419.253455074104	24922.8007202774	0.963879897682839	178.071119550414
52	7.9433	24985.4398147029	420.412083853845	24988.9765507592	0.963984038133218	180.866167543357
53	6.3096	25015.9282911793	468.998607085693	25020.3242977159	1.07405540926369	183.586220536489
54	5.0119	25077.669143437	509.824889518078	25082.8509361608	1.1646533412903	185.98626353043
55	3.9811	25131.3451563201	574.353749235429	25137.9074625425	1.30921436875583	188.571312523903
56	3.1623	25209.9110845946	689.199588561789	25219.33014507	1.56598705322136	191.121359517465
57	2.5119	25255.4653848586	758.480537233859	25266.8522877535	1.72020885748839	193.876410510509
58	1.9953	25282.1653230467	773.09611197336	25293.9827038016	1.75148549880123	196.791464503149
59	1.5849	25251.1241673832	900.24363937262	25267.1666461999	2.04182292727401	199.711519495777
60	1.2589	25518.4304020089	1000.67971029638	25538.0431917712	2.24564605414288	202.731573488152
61	1	25613.0530811904	1296.87399231343	25645.8645846034	2.89860032823797	208.161675474442
62	0.79433	25718.5197968175	1497.68742425586	25762.0909120372	3.33278764590974	211.286733466552
63	0.63096	25842.7234828226	1733.42612164593	25900.7938706294	3.83742261644556	215.071803456996
64	0.50119	25985.8198889793	2024.30795225026	26064.5479145144	4.45437307030041	219.041874446972
65	0.39811	26121.0320312682	2354.55756916437	26226.9375971547	5.15073826086272	223.456956435825
66	0.31623	26308.0788141841	2801.66968473564	26456.8396433831	6.07878310891358	228.292048423618
67	0.25119	26550.1875979211	3233.17868714536	26746.3250916423	6.94307150877237	233.707147409946
68	0.19953	26754.6968689243	3811.22888568153	27024.7899190185	8.10728687740123	239.947261394191
69	0.15849	26958.2311276243	4515.28305554204	27333.7521500814	9.50831577930885	247.24739737576
70	0.12589	27191.8186500151	5374.06117694602	27717.7837322695	11.1795929736493	256.587572352179
71	0.1	27625.9786710475	6577.16114197038	28398.129273257	13.3916089786811	266.752759326514
