Index	Frequency (Hz)	Z' (Ω)	-Z'' (Ω)	Z (Ω)	-Phase (°)	Time (s)
1	1000000	3370.86723467192	6808.44515214927	7597.21470695739	63.6599473794845	464.803243826485
2	794330	4980.35274260932	7103.85831293722	8675.75451307282	54.9665805104216	466.688278821725
3	630960	6655.77715716568	7800.17387606601	10253.88131698	49.5263463314477	468.978318815944
4	501190	8277.9614747012	8465.44371120059	11840.1175418212	45.6415356884409	471.448362809707
5	398110	10437.7843365925	9831.42655756795	14338.9082573977	43.2864955294875	478.063486793006
6	316230	12305.3095794949	10325.0324037903	16063.2169252155	39.9990482347913	479.743515788764
7	251190	13935.0348982888	10483.4187517432	17438.0981285497	36.9543855168233	485.8686337733
8	199530	15813.9039293387	10818.3250828975	19160.2639617935	34.3761135482107	487.518661769134
9	158490	17723.832343455	11052.1726738787	20887.4305205818	31.9467124760965	489.368694764463
10	125890	19671.3624182087	11098.3446364182	22586.1850044939	29.4311653372664	490.973726760411
11	100000	21564.7307803828	11058.5049799136	24234.853950894	27.1489847057525	492.763760755891
12	79433	23432.496128654	10910.0465221385	25847.8430422078	24.9664383565475	494.51879275146
13	63096	25236.4152637889	10659.6305697114	27395.3349906353	22.8987503936311	496.02381874766
14	50119	27053.9600766964	10279.6216079368	28941.101848994	20.8051565006296	497.66384774352
15	39811	28690.1660576545	9718.05838244914	30291.3566408056	18.712492983797	499.418880739089
16	31623	30262.5674643083	9147.91709206755	31614.9865831879	16.8192740435974	501.173916734658
17	25119	31592.7529025833	8493.92805255337	32714.6580255034	15.0485102988801	502.918948730252
18	19953	32890.9835009478	7880.23438843097	33821.8108574369	13.4733276735626	504.573977726073
19	15849	33990.8551571471	7235.480835942	34752.4159914306	12.0169353757151	506.954019720064
20	12589	35030.7623650537	6552.46673475354	35638.3098952085	10.5946867503786	508.699053715658
21	10000	35880.1455542948	5918.2259852556	36364.9590101506	9.36627904245571	511.494105708602
22	7943.3	36625.2860611921	5330.9025190071	37011.2158775054	8.28138972383059	513.119136704499
23	6309.6	37311.4546369717	4794.10295646519	37618.1880249965	7.3217477051774	514.88916870003
24	5011.9	37885.5399466191	4301.14142127851	38128.9123182489	6.47705125985145	516.654199695574
25	3981.1	38380.362708705	3862.02794499046	38574.181799484	5.74605208200987	518.584235690701
26	3162.3	38829.555463099	3465.08067275336	38983.8577045753	5.0994659211015	520.344268686257
27	2511.9	39223.9082145209	3120.94270300503	39347.8748978468	4.5492894276127	521.889297682356
28	1995.3	39554.6461234914	2815.55740069554	39654.7272520092	4.07152987451323	523.664329677875
29	1584.9	39858.217828457	2549.87885334109	39939.697177463	3.66043653526292	525.109356674226
30	1258.9	40152.8048761536	2323.27047192373	40219.9617740765	3.31148327191012	526.649384670338
31	1000	40411.1295331405	2121.27622592011	40466.7666483365	3.00483376528851	528.254418666286
32	794.33	40639.8466973262	1952.25288545144	40686.7107408664	2.75025468577061	530.184450661413
33	630.96	40869.591937531	1807.30752325026	40909.5331875578	2.53204567520794	531.824480657272
34	501.19	41087.6199170938	1684.24048234734	41122.1251451569	2.34732205078544	533.659516652639
35	398.11	41269.9225378716	1584.54619687119	41300.3304215831	2.19877411101878	535.549551647867
36	316.23	41433.6796778421	1498.09213201856	41460.7536313806	2.07070632303589	537.419583643146
37	251.19	41626.7634097941	1431.79431295253	41651.3801323507	1.96996921513342	539.139616638803
38	199.53	41806.2975058649	1389.47995687824	41829.3816079016	1.90358982799331	540.629644635041
39	158.49	41952.3531547737	1352.46328998989	41974.1479028892	1.84646638997448	542.134673631242
40	125.89	42105.4971098448	1331.12196684444	42126.5328808076	1.81074403048526	543.809702627012
41	100	42260.9003902907	1320.52913537952	42281.5266871415	1.78974265512957	545.459732622847
42	79.433	42416.7633124266	1328.59789922946	42437.5656969183	1.79405891187432	547.22476561839
43	63.096	42580.1766060859	1353.39936574117	42601.6798923312	1.8205179074404	549.209801613379
44	50.119	42768.074823582	1361.50641141127	42789.7408711927	1.82337491306286	551.014837608821
45	39.811	42914.0272055457	1436.08367421424	42938.0491792263	1.91664229937513	560.445010585012
46	31.623	43092.5730056242	1504.3608251197	43118.8236126313	1.99938251169285	562.400049580076
47	25.119	43259.1715556278	1589.73610782512	43288.3723945791	2.10462188746273	564.400083575027
48	19.953	43468.9185321082	1713.13868922055	43502.6633956998	2.25689639397981	567.360138567553
49	15.849	43643.1549707137	1854.25836850518	43682.5279705159	2.43285164697297	569.760185561494
50	12.589	43866.6633686055	2020.65305937367	43913.1779068756	2.63738114068967	572.170227555409
51	10	44089.1225819896	2220.66970008603	44145.0122207094	2.8834225534101	574.735277548933
52	7.9433	44355.2347914282	2451.2213092213	44422.9145746821	3.16314236763046	577.575327541762
53	6.3096	44624.806064121	2718.96090367557	44707.5616049022	3.48668483696829	580.155377535248
54	5.0119	44926.5759831398	3025.29059721408	45028.320119303	3.85239900702987	582.810424528545
55	3.9811	45294.332579711	3379.85800734948	45420.2598406406	4.26749570200962	585.790481521021
56	3.1623	45687.6994591287	3800.20954864335	45845.4738712696	4.75480062418021	588.610532513901
57	2.5119	46075.7653356935	4251.52090083456	46271.4985843351	5.27189025841571	591.515587506567
58	1.9953	46530.4674477383	4801.25602253244	46777.5208866282	5.89122770122637	594.340638499434
59	1.5849	47017.604460571	5413.6362756801	47328.2430155194	6.56814822096397	597.495696491468
60	1.2589	47493.9711533543	6157.9382343061	47891.5180299516	7.38760016753076	600.645756483515
61	1	48057.1784797161	7029.27685104825	48568.5406047986	8.32158713955995	606.375865469048
62	0.79433	48715.1605072521	8104.42625679241	49384.6999403573	9.44542256153882	609.715922460615
63	0.63096	49417.4621446425	9288.42509916491	50282.8042738267	10.6450232958808	613.375992451374
64	0.50119	50093.1704367549	10845.7314219208	51253.835119747	12.2166131139492	617.471066441035
65	0.39811	50882.9170495089	12869.7628007268	52485.2554725055	14.194079229253	621.846149429989
66	0.31623	51956.0851847161	15065.0911948004	54096.1344314834	16.1699480443867	626.621236417933
67	0.25119	52832.0906857573	17850.1886083751	55766.1101349435	18.6683834223139	632.316343403555
68	0.19953	54347.6562033203	20978.9891759725	58256.2075803075	21.1073166996643	638.756463387295
69	0.15849	55917.7864574069	24876.520645037	61201.6349593629	23.9831671790874	646.336602368157
70	0.12589	57766.5240362524	29902.5079458499	65047.1465990826	27.368082672928	655.161764345876
71	0.1	60780.4465004798	35421.3766948324	70348.6787633919	30.2325996508726	665.491958319794
