Index	Frequency (Hz)	Z' (Ω)	-Z'' (Ω)	Z (Ω)	-Phase (°)	Time (s)
1	1000000	3039.55662214633	8224.91769230266	8768.59028033509	69.7179733590108	461.964141833653
2	794330	5101.52160673252	8993.76936484569	10339.8941044865	60.4368606162027	463.524166829714
3	630960	7223.28164205487	10166.9844771229	12471.702812307	54.6075574359181	465.039194825889
4	501190	9244.89381635068	11542.7984696167	14788.6530213466	51.3079567794185	466.604226821938
5	398110	12249.4495217034	14118.8925223413	18692.0341226466	49.055327829488	471.74432180896
6	316230	14829.8054043488	15464.3757506207	21425.9199496133	46.1999956750218	473.079345805589
7	251190	17609.45265046	15741.9638233783	23619.9544382572	41.7951103060394	478.069436792991
8	199530	20677.2669776728	16409.749028027	26397.5232328488	38.4359748489106	479.524465789317
9	158490	23767.6537354074	16848.3186825159	29133.6095689127	35.3319115112286	481.009492785568
10	125890	26884.1342747902	16838.8852536364	31722.3065411404	32.0609832970214	482.454518781919
11	100000	29873.3162421729	16579.5680924984	34165.7299269116	29.0300951748011	484.009545777993
12	79433	32777.8325442153	16069.5172341001	36505.0091142799	26.11666398221	485.404574774471
13	63096	35426.802311469	15345.586272136	38607.5813804941	23.4204843766275	486.839600770848
14	50119	37961.5040690906	14492.7574027541	40633.9243529672	20.8956116463004	488.384626766947
15	39811	40287.9329178424	13482.077097733	42483.9256856259	18.5024598243341	489.909655763097
16	31623	42234.5862493943	12246.7198361489	43974.3382258636	16.1705194896412	491.359681759436
17	25119	43748.9587137154	11290.3330736983	45182.3307217481	14.4706369373055	492.769711755876
18	19953	45288.4146416494	10372.3342422336	46461.0139621014	12.8998829566368	494.179734752316
19	15849	46676.0001948305	9524.71180507356	47637.895935458	11.5334392385517	495.629762748655
20	12589	47802.0630999763	8714.50540517249	48589.9150140324	10.331786552634	497.059789745045
21	10000	48955.9679051699	8002.32106771651	49605.6845129955	9.28344250557387	499.334832739301
22	7943.3	49927.8614186481	7393.29264026843	50472.2906346083	8.42312007771599	500.534852736271
23	6309.6	50817.5066440109	6860.75177758789	51278.5422615325	7.68887782357869	501.864878732913
24	5011.9	51637.0143243673	6400.43533849369	52032.1710181033	7.06580364961496	503.229901729467
25	3981.1	52395.1750312269	6022.21520800519	52740.1312338568	6.55671045724179	504.584926726046
26	3162.3	53134.8435192671	5692.48910274008	53438.8999512697	6.11493871253324	505.944954722612
27	2511.9	53821.5678764137	5424.5410036181	54094.2401164425	5.75526305177579	507.334980719102
28	1995.3	54502.0766208455	5207.48979551986	54750.2904645715	5.45785040731608	508.835007715315
29	1584.9	55147.3185436131	5037.70756487452	55376.9377995924	5.21948308912933	510.220030711818
30	1258.9	55786.3275230793	4903.7006943792	56001.434079962	5.02347207089038	511.555056708448
31	1000	56443.0612741392	4801.17962508899	56646.8930462086	4.86200986024928	512.910082705027
32	794.33	57089.452981517	4723.55686843771	57284.532216107	4.72985459991503	514.210104701744
33	630.96	57717.2876025307	4671.3687357406	57906.0184614561	4.62716795225851	515.525131698424
34	501.19	58373.8437392853	4635.79526388384	58557.6317026836	4.5406504006484	516.845156695091
35	398.11	59023.6135903862	4610.13973794564	59203.3812351171	4.46611696420896	518.130179691847
36	316.23	59701.3548400789	4596.58394462322	59878.045673694	4.40268570928729	519.485203688426
37	251.19	60355.1965782914	4581.36540364072	60528.8250585279	4.34081083386657	520.885230684891
38	199.53	60999.551422151	4576.01999680847	61170.9508894119	4.29013745702774	522.140251681723
39	158.49	61685.9519942506	4568.3649522707	61854.8836533877	4.2355035296517	523.595280678049
40	125.89	62348.1565086799	4560.88791785526	62514.7528078779	4.18384454474537	525.105308674237
41	100	63012.6335620528	4544.94607076701	63176.3288203084	4.12545929442931	526.610336670437
42	79.433	63691.0497477374	4527.57716043686	63851.7718854572	4.06611954685818	528.18536366646
43	63.096	64350.2797278688	4484.3596440297	64506.3406377385	3.98631020471202	529.775394662446
44	50.119	64951.860194729	4534.75625183431	65109.9697206132	3.99374954163616	531.350422658469
45	39.811	65683.7811657135	4445.87929906288	65834.0713534198	3.87222193634594	540.440593635519
46	31.623	66318.3996680353	4403.04567909362	66464.4035990804	3.7984366075211	542.165622631163
47	25.119	66989.9442023849	4359.16942264768	67131.6243084732	3.72310170118734	543.745653627174
48	19.953	67606.8419311824	4339.12029580336	67745.9448295567	3.67230215258869	545.680689622289
49	15.849	68240.1179211609	4318.00367615316	68376.5957740016	3.62065585165918	547.7357256171
50	12.589	68855.6404680341	4255.44559741975	68987.0135713656	3.5365201012933	549.750765612013
51	10	69480.0055711531	4224.66396271734	69608.3253624547	3.47953011111342	552.135807605991
52	7.9433	70079.9134090878	4176.13922951171	70204.2335068869	3.41028567069048	554.435849600184
53	6.3096	70655.887645074	4140.00816589173	70777.0734526865	3.35335241370459	556.875897594024
54	5.0119	71224.5170721932	4109.50521722667	71342.9734823098	3.30218515021607	559.420941587598
55	3.9811	71820.9131100533	4111.24210057078	71938.4867200537	3.27620504793192	561.915988581299
56	3.1623	72313.626652509	4127.55371248378	72431.3281618383	3.26681281337649	564.39103557505
57	2.5119	72817.3069546023	4141.33012747335	72934.9765705419	3.25506961185031	567.09608656822
58	1.9953	73331.7669351732	4255.74854947087	73455.152559578	3.32138782907261	569.796134561403
59	1.5849	73764.565976953	4416.01589132855	73896.6331446888	3.42600062780442	572.616189554283
60	1.2589	74249.4347533599	4583.48307774533	74390.7714593512	3.53243652053464	575.511240546974
61	1	74745.5946406302	4953.74664945854	74909.5689751878	3.79171924428142	580.561337534224
62	0.79433	75216.7004313591	5330.9477351671	75405.3779748892	4.05403202085209	583.886396525829
63	0.63096	75733.2335357044	5856.63200396917	75959.3496562698	4.42201862265587	587.431462516878
64	0.50119	76213.1294125364	6535.99899000328	76492.8779537634	4.9016634794404	591.226530507297
65	0.39811	76784.7159948067	7357.03730009909	77136.363721906	5.47302059513214	595.446609496642
66	0.31623	77383.3123521081	8522.41786066118	77851.195474287	6.28479946692499	600.151696484763
67	0.25119	78330.370243239	9641.55276488132	78921.5207795751	7.0171443373937	605.516798471217
68	0.19953	79293.1461984374	11144.2730891858	80072.4537948796	8.00024668432435	611.866913455185
69	0.15849	80333.1307805839	12838.2602690045	81352.5219507367	9.07981697624815	619.222050436615
70	0.12589	81380.7677900467	15101.1310578903	82770.0037774862	10.5123176847985	627.722208415154
71	0.1	83204.9355981513	17372.4267531156	84999.1912854756	11.7934083535536	637.912395389426
