Index	Frequency (Hz)	Z' (Ω)	-Z'' (Ω)	Z (Ω)	-Phase (°)	Time (s)
1	1000000	3212.06887592548	6167.23222843499	6953.57029324766	62.4882256992071	257.558337349728
2	794330	4550.55104739645	6469.82233308123	7909.87457906872	54.8793541249885	259.158367345688
3	630960	6010.37505619835	7056.40131865763	9269.16435748793	49.5769020722548	260.893396341307
4	501190	7505.19695997462	7721.55501865475	10768.0264354302	45.8140652369956	262.638428336902
5	398110	9350.15769479749	8900.17133000192	12908.8534975407	43.5875818046348	268.553541321967
6	316230	10908.0687603824	9405.20185907366	14402.9089454579	40.7687101985247	270.098568318067
7	251190	12522.9823818034	9486.72019064894	15710.5998520306	37.1455597458945	275.483667304471
8	199530	14323.2802760574	9773.19336879726	17339.8865766301	34.3068624269931	277.038695300545
9	158490	16087.4973613002	9905.93662818482	18892.7274852377	31.622839655033	278.568724296682
10	125890	17863.3017921425	9905.84046669283	20426.0428440931	29.0099374835075	280.068753292894
11	100000	19575.5693006659	9747.19704359578	21868.0306303942	26.4699356112964	281.633780288943
12	79433	21230.7155142925	9481.05491095649	23251.5307769917	24.0642279001603	283.098807285244
13	63096	22793.6408085073	9103.30712331499	24544.2510965123	21.7707421708374	284.608835281432
14	50119	24293.076491065	8628.85428822492	25780.0444477536	19.5549409834906	286.043862277809
15	39811	25628.0703273648	8105.73303801363	26879.3767931457	17.551298011775	287.463891274223
16	31623	26837.6523626751	7492.37875996596	27863.8712999933	15.5983592957049	288.908914270575
17	25119	27907.2455291641	6895.80387983358	28746.5904791191	13.8796052965088	290.408945266788
18	19953	28852.1180885478	6337.69858267345	29539.9922396795	12.3889161477283	291.903972263013
19	15849	29679.4102459764	5790.44374679032	30238.9919033971	11.0397114964712	293.429000259163
20	12589	30428.8457599922	5234.02719041856	30875.7136745928	9.75986722539279	295.124029254883
21	10000	31090.2708473246	4787.15208681062	31456.6648973195	8.75342351895292	297.809081248104
22	7943.3	31674.3886191921	4392.67168988306	31977.5305327774	7.89554017524027	299.169105244671
23	6309.6	32169.8733370048	4043.21992447767	32422.9606587157	7.16356815554049	300.614134241022
24	5011.9	32652.558858361	3754.23180476737	32867.6719048164	6.55878936577517	302.10416123726
25	3981.1	33088.8045396891	3510.59900683539	33274.5141399922	6.05621300580715	303.569189233561
26	3162.3	33488.4994983924	3313.17491124504	33651.9943932946	5.6501543602022	304.999213229951
27	2511.9	33869.0335290883	3156.2502166143	34015.7808615999	5.32400888422656	306.474242226227
28	1995.3	34239.8582072065	3034.24970249963	34374.039060121	5.06417840209432	308.004269222364
29	1584.9	34619.9813725881	2944.49967133975	34744.9735724877	4.86142258377251	309.424295218779
30	1258.9	34992.2039615893	2886.02918315504	35111.0168257128	4.71487522003446	310.974325214865
31	1000	35358.8442635059	2845.79248412426	35473.1786356053	4.60142873727718	312.544353210901
32	794.33	35734.651801829	2830.2742636542	35846.5589953271	4.52851638831282	314.609392205688
33	630.96	36104.6031441514	2832.55108483138	36215.5451960183	4.485895405439	316.089420201951
34	501.19	36474.415335566	2849.19805548846	36585.5286094211	4.4665881762259	317.619448198088
35	398.11	36862.9218186209	2885.78713538228	36975.7051642899	4.47622941377108	318.909470194831
36	316.23	37252.0958957415	2932.94318806505	37367.3762039823	4.50174206286814	320.334496191233
37	251.19	37673.7827663641	2998.70241747963	37792.937489904	4.55095046138163	321.774525187597
38	199.53	38093.8159904775	3072.39902846662	38217.514996484	4.61112316790823	323.284556183785
39	158.49	38512.1825610485	3159.42223612332	38641.5599385123	4.68986913629457	324.744578180099
40	125.89	38931.8770650076	3260.23597442923	39068.1480289741	4.78689827916358	326.444610175807
41	100	39371.4154838918	3374.66714818869	39515.778311534	4.89905545981403	327.984638171918
42	79.433	39859.4332699662	3507.34403653515	40013.44627489	5.02866550104685	329.569669167917
43	63.096	40300.0736254331	3660.17009836168	40465.9459220252	5.18953173639472	331.284703163587
44	50.119	40816.8911236453	3816.24231704259	40994.9058594101	5.34143491733735	333.194735158764
45	39.811	41320.0924365925	4019.23318039831	41515.1089884992	5.55572102499113	342.51991013522
46	31.623	41851.6317006146	4237.73635087714	42065.633067665	5.78184543655124	344.339941130625
47	25.119	42395.9924114421	4484.35058420226	42632.4943290102	6.03789512931085	346.099974126182
48	19.953	43008.7901062456	4790.30840594654	43274.7395258154	6.35539561881986	348.245016120766
49	15.849	43616.2741979928	5131.92634410824	43917.1497585606	6.71061418458875	350.480057115123
50	12.589	44251.7232947663	5511.01504226952	44593.5679370095	7.0989437156757	352.69509910953
51	10	44936.0253789013	5954.24892410327	45328.7928043914	7.54800841411715	355.225145103143
52	7.9433	45632.1121393766	6458.00354943113	46086.8253207476	8.05518894798132	357.76519009673
53	6.3096	46405.4660770049	7043.74998312035	46936.9970881048	8.63087802407875	360.265238090418
54	5.0119	47256.3250853278	7734.73089264633	47885.1367602917	9.29552582224627	362.880284083815
55	3.9811	48162.1748665377	8540.14437039966	48913.4864198232	10.055202554184	365.565334077036
56	3.1623	49145.9903552752	9465.2387064714	50049.1669438292	10.9013632136796	368.180385070434
57	2.5119	50211.0764170456	10525.6733320783	51302.4560235864	11.8393920186006	370.900433063566
58	1.9953	51435.5938979976	11781.1569217089	52767.5655877136	12.9008819908539	373.710487056472
59	1.5849	52733.3249593049	13209.5802047339	54362.6394727937	14.063082683975	376.650539049049
60	1.2589	54155.5253792848	14810.9088836268	56144.3136129159	15.2957020072858	379.685597041386
61	1	55777.446442697	16780.0214350878	58246.8252442134	16.74332681645	384.960695028068
62	0.79433	57619.2770613266	19029.9943975908	60680.4892518366	18.2769073849818	388.565760018966
63	0.63096	59640.6287724639	21513.3776438474	63402.1294439047	19.8352264583821	392.230830009712
64	0.50119	61789.6909421668	24496.0563883775	66468.2080795854	21.6254763964321	396.235903999601
65	0.39811	64263.278918982	28230.2906919635	70190.5857645571	23.7154597757933	400.565982988668
66	0.31623	67112.8994556	32339.362891784	74498.158806671	25.7277935586266	405.591077975981
67	0.25119	69877.8131947718	37091.303173054	79111.7788193315	27.959464877759	411.196178961829
68	0.19953	73756.7884589186	42629.0058522928	85189.7645479108	30.0265043503467	417.696298945418
69	0.15849	77697.5419909655	49232.3150013938	91982.2204115247	32.3600057237017	425.101438926722
70	0.12589	82051.3791747947	57713.4635208907	100315.864627999	35.1218637126748	433.771600904832
71	0.1	88283.3996886464	66853.7761565706	110740.17359106	37.1353095271375	444.156789878612
