Index	Frequency (Hz)	Z' (Ω)	-Z'' (Ω)	Z (Ω)	-Phase (°)	Time (s)
1	1000000	3606.94406145645	3378.13294222833	4941.84455824383	43.123825215123	394.092893005011
2	794330	4234.05918177569	3122.56652567203	5260.95797949637	36.4083177330147	395.547917001338
3	630960	4878.3198799432	3008.58048875524	5731.45369067637	31.6631610742949	396.962942997765
4	501190	5513.19794457085	2886.00837637897	6222.89289033243	27.6308277817516	398.442971994028
5	398110	6198.0821940048	2750.69815617632	6781.04440554928	23.9315653999219	402.538047983689
6	316230	6703.23796965566	2600.06266921353	7189.83484940169	21.2003567100816	403.898072980255
7	251190	7010.22515307626	2293.8890414439	7375.98695980948	18.1191548074656	407.933148970068
8	199530	7405.93915411414	2117.748784128	7702.77837323108	15.9580277670552	409.203171966861
9	158490	7743.43220412478	1930.59144954452	7980.47151770691	13.9995608689371	410.57819496339
10	125890	8031.03203819392	1734.96399948827	8216.29939072436	12.1904127787098	411.923221959994
11	100000	8265.28113154245	1549.52790796394	8409.27517215311	10.6182335377318	413.373246956333
12	79433	8466.01948982615	1378.39640664046	8577.49745881371	9.24747872970048	414.638271953139
13	63096	8631.13501719268	1219.59681755148	8716.87490344971	8.04276350058092	415.998297949705
14	50119	8770.21907737334	1075.607071571	8835.93080764765	6.99201652073963	417.358322946272
15	39811	8895.17620898579	944.581122771618	8945.18827562636	6.06153809199547	418.668346942964
16	31623	8984.77099752793	828.689506640243	9022.90619348526	5.26963434069937	420.003371939593
17	25119	9064.21810113891	738.694398135265	9094.26848068885	4.65906087895007	421.273395936387
18	19953	9148.38581064745	657.745204771988	9172.00041947536	4.11234174773051	422.593417933054
19	15849	9209.7849972627	588.59856706274	9228.57453613251	3.65680744519734	423.943444929646
20	12589	9272.10579645879	526.541467588886	9287.04429933525	3.25020415424702	425.293467926237
21	10000	9326.83509819091	477.120393057146	9339.03082864153	2.9284506331777	426.648494922816
22	7943.3	9381.96137719874	432.34822614638	9391.91802944962	2.63849045780499	427.983519919445
23	6309.6	9426.28733564787	396.416522385994	9434.61917585527	2.40811861635988	429.293542916138
24	5011.9	9472.35233827714	361.927057626782	9479.26421277025	2.18813760758687	430.548567912969
25	3981.1	9507.45468477126	335.428094213775	9513.36988607964	2.02058771864882	431.8435889097
26	3162.3	9548.27951094564	312.77394396278	9553.40092109435	1.87617269248308	433.23361490619
27	2511.9	9584.72119583621	291.864782714292	9589.16396008019	1.74417742538868	434.573640902807
28	1995.3	9628.06594726089	273.943237402147	9631.9623536496	1.62977258030236	435.928666899386
29	1584.9	9661.97528568294	258.503189515402	9665.43275389869	1.53256542511955	437.213687896142
30	1258.9	9686.52922819271	245.48799876147	9689.6394590391	1.45174972031454	440.053742888971
31	1000	9716.71583116597	233.879541088551	9719.5301421093	1.37883250894461	441.248764885954
32	794.33	9745.03507973467	223.129027516986	9747.58920288396	1.3116544025332	442.663790882381
33	630.96	9774.64747744911	214.082882572422	9776.99160217563	1.25468308965519	443.948815879137
34	501.19	9800.92874655459	206.73240617005	9803.10882234819	1.20836896761988	445.21883687593
35	398.11	9826.89171205655	200.968381405635	9828.94648529589	1.17158461951518	446.478860872749
36	316.23	9853.50016192987	195.023056917055	9855.42994667819	1.13386503794225	447.818884869366
37	251.19	9884.57294506662	195.087497872608	9886.49793598164	1.13067497294662	449.143911866021
38	199.53	9906.54605762285	194.114727478644	9908.44767454655	1.12254376767253	450.418934862802
39	158.49	9931.41629632085	196.595971919774	9933.36194986383	1.13404253377266	451.718956859519
40	125.89	9956.4671856028	197.794734977187	9958.43168250754	1.13808570973034	453.20398585577
41	100	9979.87425191277	201.425626112505	9981.90675005764	1.15625420304611	454.559008852349
42	79.433	10002.6075366894	208.059850619898	10004.7711835142	1.1916125346512	455.899036848966
43	63.096	10032.2064491195	218.122361769271	10034.5774002924	1.24554075730721	457.349061845305
44	50.119	10072.8909153044	222.55200810585	10075.3491645667	1.26569588082699	458.759088841745
45	39.811	10083.7137214408	244.133778214119	10086.668613454	1.38690004972504	467.964257818504
46	31.623	10115.13671475	262.805447560289	10118.5501659749	1.48828993986547	469.614287814338
47	25.119	10142.4147359904	276.209302337786	10146.1750554351	1.55995560479803	471.32431981002
48	19.953	10173.4168923105	305.197286839528	10177.9937437908	1.71832862990906	473.259357805135
49	15.849	10208.7713190321	339.909102662398	10214.428522554	1.90700372450098	475.209394800212
50	12.589	10252.3631558439	372.939234956003	10259.1439190741	2.0832686695029	477.179429795238
51	10	10280.3256427704	411.839162355298	10288.571660685	2.29409413379677	479.564473789216
52	7.9433	10330.4956727141	463.719402432907	10340.8982457114	2.57019040336778	481.834516783485
53	6.3096	10379.6372545794	526.042059847667	10392.9586637002	2.90127912509005	484.299561777261
54	5.0119	10422.9850016911	597.550886712074	10440.0997795849	3.2811817436242	486.694606771214
55	3.9811	10481.4759210677	679.313692562374	10503.4663124526	3.70820373041956	489.224653764826
56	3.1623	10543.7145123926	781.182595023216	10572.6137717031	4.23729575018296	491.669698758653
57	2.5119	10617.5415446386	916.096810234701	10656.9893411718	4.93134963457603	494.344748751899
58	1.9953	10669.94838363	1021.32026965467	10718.7169755776	5.46765544713562	496.989794745221
59	1.5849	10733.0461995131	1203.85731993255	10800.3496780261	6.39975376670575	499.75484673824
60	1.2589	10853.0383434394	1443.01925750249	10948.5499433345	7.57362181075412	502.679899730855
61	1	10952.1698105591	1686.0804916598	11081.1953770195	8.75194362615156	507.879999717726
62	0.79433	11091.2845538108	1984.63291481695	11267.4469539544	10.144927406144	510.990056709874
63	0.63096	11203.1562466401	2366.46918687625	11450.3662080768	11.9273892829465	514.520120700962
64	0.50119	11366.2626930233	2817.45202608352	11710.2503613755	13.9217830904698	518.43019269109
65	0.39811	11530.1471542777	3385.90955590322	12017.0161404591	16.3652507209568	522.560268680662
66	0.31623	11760.3259630336	4027.00053160367	12430.687834482	18.9023590903679	527.345359668581
67	0.25119	11969.7166719078	4912.16080411999	12938.4481670439	22.3123824887669	532.770460654884
68	0.19953	12237.2307759378	5879.15277845616	13576.2385974904	25.6611022540347	539.060574639003
69	0.15849	12610.9805423466	7104.17107869993	14474.3247495309	29.3939605068546	546.340708620622
70	0.12589	13130.7006888855	8466.84531047464	15623.7885960033	32.8144452853219	554.875869599073
71	0.1	13402.1865915907	10204.1353996334	16844.6722939292	37.284861962285	564.971056573585
