Index	Frequency (Hz)	Z' (Ω)	-Z'' (Ω)	Z (Ω)	-Phase (°)	Time (s)
1	1000000	3241.5832295146	5915.35851941592	6745.31898779419	61.2775063130883	788.290017009759
2	794330	4563.67110531535	6138.39638243375	7648.98712937641	53.3705595606823	790.465055004268
3	630960	5930.36581410392	6694.80637401698	8943.69448688129	48.4649673998932	792.750093998498
4	501190	7330.5779386899	7189.04745100822	10267.4133143677	44.4415253433432	795.135140992477
5	398110	9113.16200934984	8223.19664820418	12274.7987732465	42.0612896085031	803.940305970246
6	316230	10767.2125682877	8625.25425329626	13795.9369897335	38.6970517323139	806.005339965032
7	251190	12143.8273695499	8625.49598790665	14895.3591503805	35.3853483906863	813.600483945856
8	199530	13810.5754136179	8803.7623873637	16377.9798946142	32.5160963197437	815.760521940403
9	158490	15426.4222150226	8756.62635469905	17738.4612487091	29.580898989747	817.940560934899
10	125890	17017.9371087406	8592.1808079502	19063.9910426321	26.7887389201871	820.065601929533
11	100000	18506.1796309704	8320.26240568017	20290.5261398792	24.2083849391933	822.345644923777
12	79433	19885.8746027003	7899.94447804153	21397.5963946996	21.6661490568005	824.575685918147
13	63096	21200.687768675	7436.1973130502	22467.0022998944	19.3284544723631	826.76072691263
14	50119	22327.1346117887	6887.14727752609	23365.2249635065	17.1431812998461	829.020768906924
15	39811	23362.7669747127	6283.29384179998	24192.9465385497	15.0532076783643	831.375811900978
16	31623	24231.1113488841	5713.93505855622	24895.698645658	13.2685165848786	833.41084689584
17	25119	24923.7531843176	5180.13875039048	25456.3805413511	11.7411650376948	835.360883890917
18	19953	25587.5811203274	4693.62118755559	26014.5034056314	10.3944137409887	837.480924885564
19	15849	26166.7493207008	4269.66992321937	26512.8054205066	9.26737121338931	839.475959880527
20	12589	26647.0116087051	3872.58097202213	26926.9402468853	8.26884308194304	841.435998875578
21	10000	27096.1316982939	3548.03871045498	27327.4391720515	7.46001677941263	845.006066866565
22	7943.3	27514.0824748109	3282.52830058455	27709.1993113268	6.80343419142747	847.006100861515
23	6309.6	27883.482767961	3058.25147224335	28050.6954163111	6.25916430104496	849.1111398562
24	5011.9	28247.534890668	2876.83119625873	28393.6504368719	5.81515969504094	851.181176850974
25	3981.1	28578.189327766	2732.44304149751	28708.5205161929	5.46161195003357	853.141215846025
26	3162.3	28882.9755424979	2616.44161137177	29001.2420922665	5.17616357240714	855.101250841077
27	2511.9	29202.968112988	2529.04978300018	29312.2745520215	4.94960787492441	857.166288835863
28	1995.3	29522.0332406211	2479.02381900769	29625.9346815513	4.79997961821922	859.126324830915
29	1584.9	29812.2659584492	2439.87052627692	29911.9402540575	4.67872584170511	861.04136182608
30	1258.9	30135.6130966709	2424.47285720556	30232.9827398418	4.59965808067728	863.13639882079
31	1000	30476.305474865	2429.14770375206	30572.961157924	4.5571891962483	865.206436815564
32	794.33	30783.778671001	2447.9147006599	30880.9539303254	4.54657209203371	867.341477810173
33	630.96	31123.7281447322	2479.61061312065	31222.3465232819	4.55510265258614	869.331512805149
34	501.19	31463.6287271755	2521.20528691559	31564.4801759876	4.5813669906865	871.326549800112
35	398.11	31800.852218091	2574.59867557791	31904.9018198952	4.62857424175439	873.371590794949
36	316.23	32153.1810169286	2643.8048246206	32261.6917327356	4.70058790170905	875.366626789912
37	251.19	32541.8717203293	2718.2336629147	32655.2018721148	4.77485140669831	877.401664784774
38	199.53	32909.4949992522	2805.85756957567	33028.8918646471	4.87324231295711	879.361700779825
39	158.49	33303.3872040747	2906.45258287144	33429.9725677573	4.98767909290399	881.491737774447
40	125.89	33712.7936766339	3012.31484786983	33847.1047244219	5.10594877746621	883.531777769297
41	100	34125.402516498	3130.6604693167	34268.7048469467	5.2416361286751	885.636814763982
42	79.433	34567.1063293034	3262.74746530659	34720.7482782807	5.39210418400144	887.856855758377
43	63.096	35004.4877348316	3413.08796340678	35170.4894908207	5.56898095129642	889.961896753062
44	50.119	35488.884042707	3560.64720239589	35667.0590194459	5.72938879780334	892.041935747811
45	39.811	35987.467303544	3749.65482597221	36182.2845359104	5.94837555938728	901.847114723055
46	31.623	36493.8943204027	3941.40666540408	36706.1167814141	6.16415499106474	904.237159717021
47	25.119	37041.5148014931	4155.67911198568	37273.8982086798	6.40123353903008	906.627205710986
48	19.953	37602.6210428685	4413.85086936219	37860.7869541898	6.69482687212171	909.317252704195
49	15.849	38200.1541025045	4679.18959136855	38485.6673150806	6.98345087054662	911.912300697643
50	12.589	38838.6761729451	4978.93132241937	39156.5131744422	7.30519910717154	914.64235369075
51	10	39483.3582982362	5304.75821856221	39838.1229761682	7.65210989578298	917.642406683176
52	7.9433	40175.8774256188	5673.9799756859	40574.5631607148	8.03863499828883	920.622462675652
53	6.3096	40938.8520092067	6095.08272038523	41390.0910508792	8.46814185858988	923.667518667964
54	5.0119	41678.0704080602	6573.17664638089	42193.2246239103	8.96247105565114	926.682576660351
55	3.9811	42492.5446605192	7105.39881674642	43082.5143657057	9.49289800278275	929.732631652651
56	3.1623	43340.3765481931	7722.84440731879	44023.0685559154	10.1035204573822	932.902691644647
57	2.5119	44258.8883547253	8443.72567836135	45057.1381883877	10.8011131810782	936.172752636391
58	1.9953	45205.1427268831	9300.52754032053	46151.9744050689	11.6258353343072	939.442812628135
59	1.5849	46272.7247350915	10298.6258999302	47404.9232657987	12.5474474265897	943.007879619134
60	1.2589	47395.3848904862	11465.1170357985	48762.3975780712	13.5988199146764	946.477941610373
61	1	48607.2611290639	12808.709414144	50266.5780745516	14.7626602330595	952.913061594126
62	0.79433	49970.1289603202	14376.9862958742	51997.2261112339	16.0511414358794	956.843134584203
63	0.63096	51323.5108538537	16228.8466890365	53828.2289437604	17.5473121589148	961.148215573334
64	0.50119	52971.0418209225	18513.593671118	56113.1394792091	19.2647275456086	965.578294562149
65	0.39811	54727.8917124385	21140.0453921944	58668.9325833736	21.1203265957854	970.513388549689
66	0.31623	56729.8912639954	24521.6455526765	61802.8451079385	23.3765422438311	975.958489535942
67	0.25119	59092.3626527564	28138.2709604858	65449.7487889037	25.4625947154327	982.063602520528
68	0.19953	61361.7760844221	32888.5846789597	69619.8719218864	28.1903456093414	988.988730503043
69	0.15849	64139.2530426159	37930.7996552795	74515.6986369561	30.5993058346196	996.943875482959
70	0.12589	67504.1341931916	44456.8195142723	80828.3176522746	33.3680695218483	1006.12904845977
71	0.1	72006.9519077126	51970.0588040238	88802.5232475594	35.8193659370559	1017.03924743222
