Index	Frequency (Hz)	Z' (Ω)	-Z'' (Ω)	Z (Ω)	-Phase (°)	Time (s)
1	1000000	3595.31833260005	6070.60641940941	7055.39341299298	59.3638500160562	466.076214823271
2	794330	4964.79088318779	6132.37428673149	7890.1940981417	51.0062522742274	467.566241819509
3	630960	6361.25730403176	6503.12792283272	9097.04717305698	45.631841945072	469.081270815684
4	501190	7825.43761416374	6921.58213773707	10447.2854437222	41.4926877608546	471.061307810685
5	398110	9681.07603987983	7647.54718307903	12337.2691957076	38.3069029625253	476.421408797152
6	316230	11090.5101704597	7865.32990444565	13596.4271169611	35.3440599558173	477.896434793427
7	251190	12388.0044659534	7566.58385057716	14516.0547607225	31.4165541088973	483.126530780223
8	199530	13823.7638442216	7537.33303916253	15745.0892713906	28.6011895409482	484.501556776751
9	158490	15177.5037644196	7362.82433021576	16869.1375783289	25.8786874410541	485.991581772989
10	125890	16445.9294534584	7094.76288856971	17911.0093527181	23.3353347932789	487.446610769316
11	100000	17602.9773154381	6750.2907753814	18852.8840212851	20.9805389918066	489.066641765225
12	79433	18673.8960194137	6358.49286604684	19726.7540176138	18.8037946437634	490.631667761274
13	63096	19634.8425906478	5936.43132526983	20512.6366037904	16.8222551021849	492.266700757146
14	50119	20512.6670176858	5512.52239188145	21240.4663625696	15.0421315903194	493.80172975327
15	39811	21289.6234241473	5075.86898771402	21886.3544593986	13.4100979819643	495.371758749307
16	31623	21988.4320857876	4609.03522309236	22466.2936702741	11.838475673509	496.856782745557
17	25119	22544.6212993642	4224.47682692379	22937.0040326317	10.613174424466	498.251808742035
18	19953	23073.3723254535	3868.59318438149	23395.4380958178	9.51795836916304	499.821839738071
19	15849	23542.7165726639	3559.01028196661	23810.209108866	8.59645283816723	501.316865734297
20	12589	23994.595805688	3267.35900644187	24216.033175467	7.75430864822937	502.921898730244
21	10000	24399.551256323	3013.11623729937	24584.893145373	7.03985117925666	505.306941724223
22	7943.3	24763.6434946352	2806.7748487135	24922.1994250258	6.4664542720405	506.786969720486
23	6309.6	25094.1106736167	2629.79645700564	25231.5322544034	5.98260868945451	508.136992717077
24	5011.9	25410.9114289422	2484.60839976202	25532.0915427959	5.58447089507513	509.442016713783
25	3981.1	25720.2319478271	2363.28803219854	25828.5783924156	5.24984696352768	510.782040710399
26	3162.3	26001.0571479377	2266.51260554829	26099.6561701765	4.98188110754757	512.287068706599
27	2511.9	26286.3256124931	2191.88789623454	26377.5527059594	4.76658724823489	513.802096702774
28	1995.3	26569.7849419377	2133.51569298176	26655.3064336732	4.59091877732007	515.282126699038
29	1584.9	26823.9321297964	2091.68882705961	26905.3618643788	4.4588135835429	516.627148695642
30	1258.9	27120.5339670194	2064.78710289821	27199.0203580303	4.35374179355897	518.052177692044
31	1000	27386.1895743685	2042.48383092612	27462.2489902565	4.26526833969806	519.492205688408
32	794.33	27672.9392746128	2032.73037719148	27747.4964795522	4.20114653886428	520.982229684646
33	630.96	27949.9920827753	2029.32908528359	28023.5656896759	4.15271398141062	522.292253681339
34	501.19	28246.1177162433	2035.90255482525	28319.3938009382	4.12259308654066	523.762283677627
35	398.11	28543.4659352281	2043.80535128228	28616.5439546682	4.09557504427125	525.112306674219
36	316.23	28829.2880496907	2052.27118609134	28902.243277526	4.07184708004849	526.487333670747
37	251.19	29141.4658771597	2068.25414966619	29214.7686743755	4.05964003974272	527.927359667112
38	199.53	29455.1910482624	2084.31173733687	29528.8441207582	4.0476239129718	529.312385663615
39	158.49	29736.6433428042	2098.32170153397	29810.5838798952	4.03630054949376	530.672409660181
40	125.89	30049.0424168614	2114.27117544279	30123.3313691173	4.02473732122137	532.152437656444
41	100	30357.1293760644	2126.47766401526	30431.5167418692	4.00695003465485	533.482460653086
42	79.433	30666.5511875547	2137.93962856271	30740.9848182242	3.98796201359243	535.017491649211
43	63.096	31003.3882905989	2149.53713433685	31077.8151643506	3.96610301121281	536.577518645272
44	50.119	31308.7308137717	2142.76069348558	31381.9701191427	3.91520165473707	538.102549641422
45	39.811	31640.0030449047	2150.12976651067	31712.9760617703	3.88761808544018	547.55772261755
46	31.623	31981.912949504	2142.95951154925	32053.6274293221	3.83339409077934	549.432758612816
47	25.119	32306.5790779802	2133.25444266064	32376.9335521281	3.77784650207548	551.117790608561
48	19.953	32628.0920143141	2125.79782760403	32697.2690740127	3.72768784763309	553.007824603789
49	15.849	32945.135581084	2102.52905297156	33012.1581674782	3.65161319236968	554.98786059879
50	12.589	33265.5808719282	2067.18922594217	33329.7486045522	3.55590098529094	557.187901593236
51	10	33570.7536742628	2029.6912975845	33632.0553790802	3.45989715904255	559.44794358753
52	7.9433	33870.491840491	1995.01772084864	33929.1955876243	3.37090410357485	561.892987581357
53	6.3096	34157.1715807063	1953.24156815308	34212.973022194	3.272833993666	564.333034575196
54	5.0119	34418.9611969612	1915.29873062995	34472.2099538958	3.18503144216534	566.78307856901
55	3.9811	34690.6750114915	1886.06749067922	34741.90817057	3.11200115065583	569.273126562724
56	3.1623	34915.1908605589	1870.86479419294	34965.2783187466	3.06715334279788	572.388181554859
57	2.5119	35145.0794444738	1859.6757863879	35194.2467342157	3.02893881558085	574.983230548307
58	1.9953	35366.2282198986	1879.67128166819	35416.1440960063	3.0423373049316	577.598280541705
59	1.5849	35598.2333739121	1901.67251123328	35648.9912575867	3.05785793022	580.413329534597
60	1.2589	35756.376066574	1972.46645158293	35810.7393573057	3.15746693570626	583.373387527124
61	1	35977.4233674023	2086.83345685337	36037.8948612977	3.31966316485226	588.718485513629
62	0.79433	36149.2688138138	2234.99398609229	36218.2941880376	3.53791192429689	591.923545505537
63	0.63096	36333.4299860176	2409.37965551646	36413.2289816937	3.79390184940241	595.463611496599
64	0.50119	36512.5576514952	2692.17790816628	36611.6742056817	4.21695493842074	599.453682486525
65	0.39811	36707.5369431094	3059.47662336052	36834.8159441394	4.7644403230182	604.023768474987
66	0.31623	36909.215885156	3514.70083648421	37076.1829106912	5.43962040004108	608.843857462817
67	0.25119	37074.8118163137	4145.26036155605	37305.8286957971	6.37963027650769	614.373962448855
68	0.19953	37302.5129442297	4849.76441452306	37616.4550008477	7.40757329937158	620.654077432999
69	0.15849	37586.0072155586	5820.44570852628	38034.0048726652	8.80271594581772	627.964213414543
70	0.12589	38030.5756656922	6858.74810944358	38644.1083619837	10.2233001045904	636.489368393019
71	0.1	38184.4543938718	8264.12090203869	39068.5071591069	12.2119685872556	646.73956036714
