Index	Frequency (Hz)	Z' (Ω)	-Z'' (Ω)	Z (Ω)	-Phase (°)	Time (s)
1	1000000	3408.81536499669	3022.64966432725	4555.92286873857	41.5639037033553	499.970851737695
2	794330	3927.11429484763	2781.31450690189	4812.26943043503	35.3074101942639	501.395875734097
3	630960	4500.52491436505	2671.61087672943	5233.75860940104	30.6943025538848	502.785902730588
4	501190	5042.41033423437	2564.47157530476	5657.06783054081	26.9570009979064	504.275929726826
5	398110	5607.76145794857	2425.08736767673	6109.66752860732	23.3861630679312	509.611027713356
6	316230	6078.78210095768	2271.84070172396	6489.44157882117	20.4923685244287	511.021054709796
7	251190	6341.66859884296	1988.88429371722	6646.23362148412	17.412551867507	515.316136698952
8	199530	6682.43453871099	1830.66026433375	6928.65415268854	15.3203638468843	516.631159695632
9	158490	6971.80626019038	1657.95374650608	7166.23284265752	13.3769411356498	518.02618469211
10	125890	7215.75477855506	1485.13337709881	7367.00333731518	11.6301055731994	519.43621068855
11	100000	7417.10705889406	1319.90827178332	7533.6335834057	10.0904181103456	520.956239684712
12	79433	7580.49224836087	1162.85429104277	7669.16506731051	8.72123897136148	522.436266680975
13	63096	7720.98412948189	1026.65400873749	7788.94180112857	7.57415026389609	523.891291677302
14	50119	7835.12656335656	902.067906995907	7886.88371745441	6.56761814735839	525.501323673237
15	39811	7936.9443793189	791.322593110844	7976.2947241667	5.69364011920075	526.986349669487
16	31623	8010.28944167008	691.759647112796	8040.10375235947	4.93575376742041	528.386374665953
17	25119	8076.25142632212	613.253082593487	8099.50099972094	4.34230109577453	529.781402662431
18	19953	8140.27768512838	547.883124830011	8158.69454689122	3.85049742015059	531.156426658959
19	15849	8193.14951962965	488.314145058417	8207.68845383837	3.41081067457263	532.531451655487
20	12589	8243.81743389574	438.347183382952	8255.46329024502	3.04371291413102	534.011478651751
21	10000	8283.83951230857	394.345618875716	8293.22045605995	2.72546266728669	535.571507647812
22	7943.3	8326.56672497329	359.266459548594	8334.31375785607	2.47060919590895	537.06153564405
23	6309.6	8369.57174428604	327.753466588024	8375.98671904461	2.24256395832739	538.446563640553
24	5011.9	8405.59636481504	302.357013217063	8411.03263646227	2.06009354015757	539.851589637006
25	3981.1	8437.72008694003	281.813867357497	8442.42496687926	1.91292731813396	541.216614633559
26	3162.3	8468.50665496934	262.583476408053	8472.57664747523	1.77600452766813	542.576636630126
27	2511.9	8499.88965990489	247.911398445805	8503.5042360216	1.67063946478693	543.976665626591
28	1995.3	8528.71778247386	234.520646594357	8531.94156958221	1.57510876002626	545.341691623145
29	1584.9	8556.14626774853	222.258872320769	8559.03253653311	1.48801011331471	546.586714620001
30	1258.9	8585.04512366396	211.785410861434	8587.65700500434	1.41314919176235	547.981738616479
31	1000	8611.97168034581	202.602376577028	8614.35452869644	1.34767283045742	549.406766612881
32	794.33	8637.66825875361	193.963285702162	8639.84575698433	1.28639002171159	550.901792609107
33	630.96	8661.08388809528	189.820388490008	8663.16373483211	1.25552025827644	552.316818605534
34	501.19	8689.99583725686	184.393850831777	8691.95195245384	1.21558219566594	553.706845602025
35	398.11	8710.9547877994	178.843599241394	8712.79050293733	1.17616774316939	554.931865598932
36	316.23	8737.58207877181	177.973598632087	8739.39444041086	1.16688187985707	556.196891595738
37	251.19	8761.09306203285	175.729116394417	8762.85526320895	1.14907885420156	557.596917592203
38	199.53	8784.12671784694	176.841444087683	8785.90661750621	1.15331895769086	559.026941588593
39	158.49	8804.89462822567	180.396823771187	8806.74244134481	1.17372566082223	560.496968584881
40	125.89	8827.13455029538	183.043537177659	8829.03218396676	1.18794148277758	562.152001580703
41	100	8849.90276369355	189.002028997243	8851.92073472169	1.2234453828864	563.637029576953
42	79.433	8877.12679746358	196.88189735475	8879.30980762311	1.27052964328341	565.247057572888
43	63.096	8908.27993028131	206.834878182411	8910.6807811236	1.33007009447412	566.812086568937
44	50.119	8930.61824857809	188.909556404742	8932.61602904418	1.21179811573511	593.582584501348
45	39.811	8949.91927292103	231.049001653863	8952.90112940875	1.47880584840798	602.582748478625
46	31.623	8981.88831840718	244.88579569744	8985.22603039421	1.56174815267954	604.237779474446
47	25.119	9006.79368537258	267.958468891279	9010.77878054488	1.7040872318487	605.822811470444
48	19.953	9041.55221487653	289.500648590609	9046.18577522444	1.83392187256833	607.767845465534
49	15.849	9071.98673439012	312.788385324288	9077.37736810276	1.97468961017373	609.887887460181
50	12.589	9110.91763328278	353.480635308613	9117.77213358621	2.22181745532347	611.887922455132
51	10	9145.70958304301	388.531068585192	9153.95871569348	2.43259560893822	614.247967449173
52	7.9433	9184.79450090541	435.368781455993	9195.10717717465	2.71384802135486	616.543007443379
53	6.3096	9230.33120632564	488.497376731934	9243.2485558673	3.02944177643021	618.988052437205
54	5.0119	9279.74171532834	551.730510075762	9296.12891793963	3.40253649003621	621.458099430969
55	3.9811	9330.75853162434	633.718464979615	9352.2539458858	3.88539889323001	624.02814742448
56	3.1623	9381.18253338445	723.809782783011	9409.06405155847	4.4119433660344	626.588193418017
57	2.5119	9445.97842831822	820.291433919735	9481.52870083803	4.96313061765177	629.158240411528
58	1.9953	9534.81502100263	962.297803952098	9583.2517731837	5.76304193784729	631.813292404825
59	1.5849	9607.22679450474	1133.29997619232	9673.83975043454	6.72770689545819	634.768346397364
60	1.2589	9706.83417576487	1290.20332870699	9792.20375325205	7.57120490819026	637.888402389487
61	1	9782.19972872506	1533.35483046727	9901.64676045282	8.90859371066482	643.068502376408
62	0.79433	9910.7836285239	1809.33258234867	10074.5876602949	10.3460955078871	646.278560368303
63	0.63096	10030.73038119	2111.63742665933	10250.5885002666	11.8881368664311	649.843625359303
64	0.50119	10150.2526919114	2527.51357702068	10460.2081524068	13.982840363956	653.693696349582
65	0.39811	10290.3202377805	3009.26977355557	10721.3056651748	16.300869692969	657.873772339028
66	0.31623	10501.2582909413	3644.53577403565	11115.7126042953	19.1396918115867	662.613860327061
67	0.25119	10697.6416495701	4291.02572605427	11526.1632230451	21.8566514629677	668.19896531296
68	0.19953	11002.4196511373	5160.36939632036	12152.4750765518	25.127578654977	674.609084296776
69	0.15849	11270.1639083818	6193.60559932503	12859.9123185884	28.7913346878257	681.989219278143
70	0.12589	11499.7152884341	7554.31015902452	13759.0353475012	33.3014239463318	690.539380256556
71	0.1	12077.511435532	9179.22075462045	15169.8508937122	37.2357723772729	700.739568230803
