Index	Frequency (Hz)	Z' (Ω)	-Z'' (Ω)	Z (Ω)	-Phase (°)	Time (s)
1	1000000	3314.83299095498	5859.83335061972	6732.44121065744	60.5037124530563	142.165415641067
2	794330	4545.69808553043	6115.86380731979	7620.18117858619	53.3779264140608	143.820443636888
3	630960	5937.13311769559	6661.47063089799	8923.26961508808	48.2905110790325	145.460475632748
4	501190	7322.28596985324	7186.12408413396	10259.4469235373	44.4622930895716	147.145505628493
5	398110	9131.44084077358	8223.80080276748	12288.7799016886	42.0062871488809	152.745610614354
6	316230	10684.803882747	8532.32930945	13673.5393171507	38.6090463483029	154.03063461111
7	251190	12154.2324650866	8612.60658402959	14896.3874475201	35.3217549195507	159.515738597261
8	199530	13779.5650407621	8774.21635269795	16335.950701338	32.4871775613202	160.830758593941
9	158490	15424.7700773612	8753.07111173987	17735.2695447978	29.5735452439952	162.200784590482
10	125890	17015.0468974322	8598.49777569817	19064.2593593484	26.8096012846628	163.695812586708
11	100000	18510.6036587071	8297.03589083345	20285.0499724185	24.1434261069307	165.260843582756
12	79433	19906.4097945347	7893.92400282252	21414.462100886	21.6308939930403	166.915873578578
13	63096	21178.3815741922	7403.8526988614	22435.2597686882	19.2693624929308	168.440900574728
14	50119	22330.9362260093	6863.91166785881	23362.0203774044	17.0859791391124	169.830925571218
15	39811	23352.2932927109	6274.64057589078	24180.5855261076	15.0398528543939	171.340955567406
16	31623	24183.508743956	5649.57504944187	24834.6490494283	13.1492020493416	172.690979563997
17	25119	24891.1965913272	5145.23067208099	25417.4165960473	11.6790558467668	174.071006560513
18	19953	25552.7477177885	4676.67660761534	25977.1865301299	10.3715155584992	175.491031556928
19	15849	26095.0185178745	4259.33174554247	26440.3460334164	9.27029321252671	176.971057553191
20	12589	26588.4814023987	3866.94897923322	26868.2086804032	8.27490839227806	178.476087549391
21	10000	27055.5532005489	3538.07812911449	27285.9113066698	7.45034119972199	181.091135542789
22	7943.3	27464.54206587	3271.53027052824	27658.7053420605	6.79296912876155	182.36615953957
23	6309.6	27850.1686014931	3050.18732138037	28016.7009804349	6.2501988202124	183.741184536098
24	5011.9	28202.8800509166	2867.27800906199	28348.2579067504	5.80509519170049	185.121210532614
25	3981.1	28540.6902531836	2723.14742462126	28670.3074979043	5.45025224129542	186.531234529054
26	3162.3	28856.4062843812	2613.40247887721	28974.5070047081	5.17491835580003	188.076264525153
27	2511.9	29157.1354756373	2527.36588085503	29266.4676283349	4.95406522269084	189.741296520949
28	1995.3	29461.6085982299	2468.1466962575	29564.8123503184	4.78877272677902	191.146323517402
29	1584.9	29777.122787404	2436.52351051631	29876.641181924	4.6778258655638	192.336343514397
30	1258.9	30092.9411289355	2417.55211894251	30189.8934088443	4.59306029946312	193.711367510926
31	1000	30423.0724533668	2424.65988234792	30519.5398564244	4.5567310288161	195.176395507227
32	794.33	30742.0372115522	2442.40973948053	30838.9075236456	4.54252405406742	196.871426502947
33	630.96	31052.7851885942	2472.71243784951	31151.0798331177	4.5528177943534	198.241454499488
34	501.19	31401.6240648901	2513.6784921793	31502.0725266566	4.57672881435467	199.576478496118
35	398.11	31742.0130978549	2573.24980437229	31846.1459216039	4.63469782520334	201.00150549252
36	316.23	32110.9554166137	2638.99461937309	32219.2139936535	4.69821618301243	202.401528488985
37	251.19	32480.6960009265	2714.14371005081	32593.8980298983	4.7766383425572	203.911558485173
38	199.53	32861.0292574463	2802.38089354484	32980.3059799519	4.87437698596378	205.281583481714
39	158.49	33239.8352728754	2896.671619389	33365.8111760895	4.98043486784883	206.75661147799
40	125.89	33642.3665775822	3007.27418101681	33776.5085072485	5.10806440445769	208.156635474455
41	100	34061.6975666455	3123.68230516782	34204.6288134405	5.23974472285166	209.486661471097
42	79.433	34484.4431118756	3256.00723369546	34637.8174809278	5.3938535178654	211.136690466931
43	63.096	34945.2896109934	3395.49546263486	35109.8655000696	5.54978224170046	212.68171846303
44	50.119	35418.7404629463	3592.49039738276	35600.4657727513	5.7916513913923	214.201747459193
45	39.811	35912.066570708	3741.85198134854	36106.4811582254	5.94845985768699	223.416919435927
46	31.623	36420.2019487767	3933.51709920404	36632.0033134882	6.16426282331498	225.116950431634
47	25.119	36957.9473330158	4150.23799200255	37190.245313257	6.40725697732487	226.901984427128
48	19.953	37539.9962126046	4402.74030467672	37797.2940543737	6.68916671354592	228.847020422217
49	15.849	38132.2401770837	4669.03597908856	38417.0227620103	6.98073480663561	230.952057416902
50	12.589	38760.2787879526	4969.70581839537	39077.5790913562	7.30639841888995	233.157100411335
51	10	39424.6847309362	5296.38034654518	39778.8563298266	7.65140351479483	235.487143405452
52	7.9433	40105.2156855118	5668.24275214065	40503.7936627992	8.04457699831663	237.837186399519
53	6.3096	40847.3296423415	6081.73327990135	41297.600639722	8.46852149140013	240.157230393661
54	5.0119	41599.0637725712	6554.5780948009	42112.2856272999	8.95422174285878	242.587274387526
55	3.9811	42395.1086230414	7093.14038330808	42984.3910699779	9.49820192713623	245.042318381328
56	3.1623	43239.7963226422	7706.47705495321	43921.1768355779	10.1055176353467	247.587367374902
57	2.5119	44191.2049125049	8462.10730705438	44994.1090776904	10.8402575350674	250.257417368161
58	1.9953	45134.4487262743	9277.20739472146	46078.0320637651	11.6151472580306	252.982465361281
59	1.5849	46183.4264570502	10275.7707781606	47312.7926083323	12.5439241614289	255.717518354375
60	1.2589	47309.8426836062	11427.6556596696	48670.44820652	13.5796332269154	258.532570347268
61	1	48493.0313593149	12806.2915745059	50155.5101091271	14.7932407150494	263.622666334417
62	0.79433	49811.2955603674	14386.8841725385	51847.3490315206	16.1101847460092	266.782720326438
63	0.63096	51305.9541343252	16197.1937075847	53801.951764174	17.5208091537936	270.312786317526
64	0.50119	52771.422816552	18446.0785680525	55902.4228510901	19.2669069604629	274.147859307843
65	0.39811	54546.3832967692	21071.7725874096	58475.0162952827	21.1220078830211	278.392938297125
66	0.31623	56366.952044635	24424.1895598903	61431.0533725382	23.4274179734801	283.143023285133
67	0.25119	58971.5213232319	28071.4167199653	65311.9036917646	25.4552185799536	288.663126271196
68	0.19953	61626.3141895799	32706.9833761265	69767.8246913219	27.9562694047172	295.033245255113
69	0.15849	64582.9403365906	37710.2413060673	74786.4859575675	30.2808293582678	302.293378236783
70	0.12589	67402.787303445	43892.0046003794	80434.0960296887	33.0717627595824	310.85353821517
71	0.1	71630.7995010491	52018.6603823126	88526.337691841	35.9873486598514	321.218729189001
