Index	Frequency (Hz)	Z' (Ω)	-Z'' (Ω)	Z (Ω)	-Phase (°)	Time (s)
1	1000000	3413.06494553205	2797.95134460909	4413.33706499056	39.3441038924915	141.013389643975
2	794330	3864.69881827187	2530.80480568007	4619.61794095629	33.2188546361307	142.418415640428
3	630960	4364.44609721367	2396.26917119452	4979.00549068797	28.7686851581605	143.793442636956
4	501190	4851.66237593723	2288.00201936941	5364.10114098563	25.248159531668	145.303469633144
5	398110	5358.92807907885	2101.51765257568	5756.25630082843	21.4127584692534	150.348564620406
6	316230	5721.75334412385	1942.48924137808	6042.49334164814	18.7519367592489	151.658585617099
7	251190	5950.19933044627	1686.61575473358	6184.6216356507	15.8256645565432	155.773662606709
8	199530	6236.46740060216	1534.51878231668	6422.48188257905	13.8233524839041	157.038686603515
9	158490	6475.22171584771	1373.48700392517	6619.28718362764	11.9757524643621	158.413710600044
10	125890	6667.22610729846	1221.16030304417	6778.1366504057	10.3791757728054	159.703736596787
11	100000	6822.77955688464	1075.20653658785	6906.98124929873	8.95562895046129	161.193761593025
12	79433	6954.6076925291	944.284422960059	7018.42156246189	7.73223525325973	162.478787589781
13	63096	7057.66884772032	823.306225315165	7105.52761621011	6.65371644094931	163.753810586561
14	50119	7148.99660338237	717.104488727653	7184.87239155477	5.72808828810246	165.068834583241
15	39811	7222.66826912721	623.957780459769	7249.56965879033	4.93745627308615	166.468861579707
16	31623	7277.07828680627	540.235178245271	7297.103702163	4.2457313141318	167.728882576525
17	25119	7332.094036647	476.110063222332	7347.53589678445	3.71528957888015	169.063907573155
18	19953	7378.97793700349	424.931288708296	7391.20301405039	3.29583715699984	170.34893356991
19	15849	7417.23176741484	375.517418225133	7426.73147642611	2.8982792298653	171.623956566691
20	12589	7455.01863609202	336.00910368418	7462.58701672804	2.58066195992545	172.913978563434
21	10000	7485.71433599076	306.227366549929	7491.97532831507	2.34256308933517	174.219005560139
22	7943.3	7519.47420335193	276.856994190751	7524.56922953782	2.10860158239576	175.49402755692
23	6309.6	7548.16960353388	252.314034003851	7552.38549965957	1.91452354207721	176.764049553714
24	5011.9	7576.93772699209	232.684746812868	7580.509713081	1.75897780861948	178.054074550457
25	3981.1	7600.54343249181	216.500200970361	7603.62629317187	1.6316194446517	179.354097547174
26	3162.3	7624.13295178296	201.793516053222	7626.80299270828	1.51613542748115	180.65912554388
27	2511.9	7646.41485659184	190.099452473015	7648.77754683316	1.42415149093606	181.944146540635
28	1995.3	7665.46845558501	179.644789327847	7667.57320759974	1.34251475211398	183.289170537239
29	1584.9	7692.43881233156	170.669737527217	7694.3318774779	1.27099504482902	184.56419453402
30	1258.9	7712.33394964662	164.044551548678	7714.07840028637	1.21852132281797	185.824219530839
31	1000	7736.13661419895	156.217244551739	7737.71371537129	1.15682710448702	187.109241527595
32	794.33	7753.4771488086	149.390309620085	7754.91620597576	1.10381124735217	188.504266524072
33	630.96	7772.92576129556	145.827586800404	7774.29357406088	1.07479801569156	189.814291520765
34	501.19	7791.5086227265	141.347016423607	7792.79061678634	1.03929798907726	191.169319517344
35	398.11	7808.66044489206	137.328594636432	7809.86793015904	1.00754001009801	192.344340514377
36	316.23	7831.1058581967	135.82765628311	7832.28371003592	0.993674625696122	193.614363511171
37	251.19	7846.96036921766	133.20607662846	7848.09090766177	0.972531101414082	194.984386507712
38	199.53	7869.81122101048	134.9125555125	7870.96754230237	0.982128124431872	196.259411504493
39	158.49	7884.14308083726	135.521320350437	7885.30773954851	0.984765877979002	197.679439500907
40	125.89	7901.02016270687	140.630982876342	7902.27161548155	1.01970516265819	199.10446549731
41	100	7921.59449869492	144.846117456098	7922.91864147902	1.04753487341221	200.404489494027
42	79.433	7935.10868025118	149.441415852274	7936.51576601279	1.07892036199799	201.80951649048
43	63.096	7955.17153124168	154.127269130315	7956.66445858864	1.10993676226592	203.33454248663
44	50.119	8028.57064314253	151.226584547547	8029.9947728379	1.07909874847958	204.789570482956
45	39.811	7990.98028843763	174.262493826018	7992.88016843448	1.24927390159797	214.049742459576
46	31.623	8012.9878456634	190.158887749046	8015.24389007217	1.35945009286582	215.664771455499
47	25.119	8032.39297152691	203.541008127451	8034.97142440621	1.45156562880419	217.229799451547
48	19.953	8058.56416362288	226.799208538137	8061.75503598444	1.61209961124004	219.114833446788
49	15.849	8085.77220071932	249.931131614445	8089.633962824	1.77044822613912	220.994868442042
50	12.589	8117.41002604023	277.016484242293	8122.13541277172	1.95452960968767	223.104907436714
51	10	8143.41201018763	309.944958296948	8149.30825560316	2.1796723847494	225.37994943097
52	7.9433	8166.63234177706	349.269589387314	8174.0976903772	2.4489269084552	227.624993425302
53	6.3096	8204.16395713	394.49212136737	8213.6429353419	2.75291155408046	229.925034419495
54	5.0119	8241.59861225919	449.646655124302	8253.85545063985	3.12285765309003	232.305080413486
55	3.9811	8279.54213268598	516.589906695632	8295.64241385934	3.57025810844268	234.710125407414
56	3.1623	8322.59249132188	587.992890861627	8343.33754658837	4.04124377708001	237.235171401039
57	2.5119	8374.30187627467	683.867391283482	8402.17867721452	4.66856370442575	239.840217394462
58	1.9953	8423.43244778461	796.567459685808	8461.01258244076	5.40214830134913	242.490266387771
59	1.5849	8518.60259571043	973.007683081087	8573.99172701836	6.51617072796688	245.285321380714
60	1.2589	8516.89184483281	1117.68791649572	8589.91693645871	7.47631092942234	248.200374373354
61	1	8612.97928625049	1334.00810773695	8715.67494901502	8.80421276515176	253.575475359783
62	0.79433	8702.55621535655	1589.84267509098	8846.58603151416	10.3530180342562	256.830533351565
63	0.63096	8805.90692945909	1876.61482887114	9003.64815317851	12.030260873642	260.370598342627
64	0.50119	8896.88436754365	2268.28747269474	9181.48569177268	14.3030240118847	268.840754321242
65	0.39811	9001.0292420987	2726.58494722929	9404.93449693156	16.8525703963191	281.310987289758
66	0.31623	9151.56037610126	3293.7609902996	9726.2489572623	19.7944381307322	287.201094274887
67	0.25119	9318.47905561593	3991.87118644134	10137.5089385457	23.1894335290049	296.611270251129
68	0.19953	9445.21855640291	4908.24075341403	10644.3872943299	27.4588014483645	305.401433228936
69	0.15849	9675.32270787304	5900.60721818816	11332.6534864884	31.3774089752746	314.99660820471
70	0.12589	9970.97094328671	7151.56689546523	12270.5000147582	35.649557502884	323.741771182631
71	0.1	10145.1905601841	8798.78135701442	13429.2012000339	40.9346401575149	334.746977154845
