Index	Frequency (Hz)	Z' (Ω)	-Z'' (Ω)	Z (Ω)	-Phase (°)	Time (s)
1	1000000	2502.88569999488	1750.22729151026	3054.13365771477	34.9644684778369	779.304757032445
2	794330	2755.87549583212	1630.46989620915	3202.07461358605	30.6100059397923	781.400794027153
3	630960	3055.39997731156	1543.5275747349	3423.14860841923	26.8020017671276	783.411830022075
4	501190	3346.57104446189	1469.49435076954	3654.98993193885	23.7064932895066	785.55286801667
5	398110	3640.14508841533	1338.39938153257	3878.39775799247	20.187338578327	793.863023995689
6	316230	3868.45671079971	1232.90695601327	4060.17448954071	17.6774810744899	795.779060990851
7	251190	4000.35245529427	1073.67773414573	4141.93235620516	15.0238710955566	802.638185973533
8	199530	4187.27191375313	975.988085260125	4299.51146321015	13.1204993688789	804.579220968633
9	158490	4336.71271254054	873.561696573448	4423.82042908966	11.3889166198879	806.615261963492
10	125890	4457.03088617411	773.503621927597	4523.65252571913	9.8454397021352	808.761299958074
11	100000	4556.95312638583	680.896917102175	4607.54190515907	8.49822542218194	810.767335953009
12	79433	4638.01909361045	597.273160011842	4676.31867395344	7.33802935097032	812.688372948159
13	63096	4704.53030049112	523.205315619094	4733.53453040444	6.34596295136247	814.814411942791
14	50119	4759.49691561083	457.74182763766	4781.45777671184	5.49349222005614	816.8704479376
15	39811	4803.59335257457	401.108156540419	4820.31086654604	4.77322108194407	818.796483932738
16	31623	4837.85012984689	353.604709196057	4850.75562868561	4.180388692115	820.742522927824
17	25119	4872.96324893339	316.437708651326	4883.22676607507	3.71542403039632	822.663557922974
18	19953	4905.37412983098	284.926585629283	4913.64208228616	3.32426603458925	824.769596917657
19	15849	4933.10624054723	258.714342974482	4939.8856557401	3.00209878616249	826.670629912857
20	12589	4958.63445349474	237.828706071847	4964.33461168936	2.74594684173141	828.77666890754
21	10000	4979.01280166498	220.635189385479	4983.8989120907	2.53729021203119	830.742704902576
22	7943.3	5006.08687557711	207.446481317616	5010.38320375163	2.37291357506483	832.7137448976
23	6309.6	5029.69236140224	197.219617585753	5033.55747239551	2.24547845987327	834.674778892649
24	5011.9	5052.96705746306	189.136385486988	5056.5055775824	2.14362369643629	836.700814887534
25	3981.1	5074.88145611291	183.767081570929	5078.20757097106	2.07383755284675	838.701854882481
26	3162.3	5096.41189565822	179.043673639747	5099.55594608757	2.01204883410112	840.632888877606
27	2511.9	5119.62138031856	176.632872735144	5122.667493557	1.97598703866039	842.578926872693
28	1995.3	5138.12545264135	175.492281333794	5141.12154183196	1.95617253435683	844.489958867868
29	1584.9	5163.17114776102	174.983022105679	5166.13543754875	1.9410460272808	846.641001862437
30	1258.9	5183.39071964993	176.743327981681	5186.4031425005	1.9529156432058	848.507033857726
31	1000	5207.58215258085	177.69095898282	5210.61281931242	1.95426462848424	850.428068852876
32	794.33	5229.63009157197	180.610799417893	5232.74795452078	1.97798411221294	852.594111847407
33	630.96	5258.00010483249	184.931155030049	5261.25124229201	2.01434169417715	854.49014684262
34	501.19	5277.75709167309	189.976157176773	5281.1751399666	2.061507260086	856.426181837732
35	398.11	5303.37023878557	196.411376344424	5307.00605976609	2.1209912742531	858.492220832516
36	316.23	5331.63314512334	204.787112026258	5335.564614493	2.19963974064639	860.388254827728
37	251.19	5358.89045334455	216.056531931463	5363.24410370604	2.30876646270004	862.374293822714
38	199.53	5386.79233910601	228.254817543823	5391.62609667837	2.42634543886024	864.425329817536
39	158.49	5419.35650000168	241.933848753009	5424.75408302376	2.55613204324575	866.49136881232
40	125.89	5448.38485301715	258.882640508023	5454.53185233555	2.7203906019135	868.592405807015
41	100	5479.25227826019	278.19627356903	5486.3101165945	2.90656390522876	870.568444802026
42	79.433	5517.9242701305	299.664211317491	5526.05527392187	3.10853216573619	872.589481796923
43	63.096	5555.78299529983	323.098426398088	5565.17001393522	3.32830652377004	874.680519791644
44	50.119	5600.43554837193	328.75272535308	5610.076352947	3.35948029024523	876.636556786705
45	39.811	5641.19672114293	383.254447276757	5654.20059937664	3.88661695637139	886.327733762238
46	31.623	5688.91712375938	417.84897291716	5704.24191327565	4.20081155096641	888.708779756226
47	25.119	5743.49253906719	456.854972046781	5761.63371031206	4.54790607839327	890.859820750795
48	19.953	5802.58815510075	503.706128686597	5824.40976939226	4.96124636187637	893.385866744418
49	15.849	5867.3779467493	554.635269277932	5893.53410543513	5.40004604391567	896.061914737661
50	12.589	5940.45841500736	605.779652163369	5971.26579272829	5.82262328182911	898.622963731195
51	10	6016.84710365474	666.639834512643	6053.66481874554	6.32233083314	901.589016723707
52	7.9433	6101.83440407067	732.142898291216	6145.60137970392	6.8420585200847	904.610074716079
53	6.3096	6190.47227351424	803.072416216905	6242.34509418031	7.3915390771697	907.706131708262
54	5.0119	6286.98220390089	884.977074684507	6348.96288025718	8.01250542199041	910.682187700749
55	3.9811	6386.57887331075	976.441020997805	6460.79149737139	8.69261117887879	913.698244693134
56	3.1623	6490.75537639326	1085.28783450532	6580.86278841181	9.49233947546224	917.029304684724
57	2.5119	6608.79153056686	1207.29538610635	6718.16103139884	10.3526489599929	920.285362676503
58	1.9953	6727.06302028015	1348.18286524692	6860.8289526096	11.33261806513	923.661425667979
59	1.5849	6863.32200247426	1536.01611587977	7033.1027589457	12.6149617416051	927.052489659417
60	1.2589	6977.20694211886	1765.39474003245	7197.08519480531	14.1991507694707	930.593553650477
61	1	7135.95196928021	2019.84266739713	7416.30466667276	15.8042506036064	937.065675634137
62	0.79433	7300.60504864318	2338.04805972765	7665.85303836895	17.7578726090928	940.801745624704
63	0.63096	7467.22155535355	2698.00766224353	7939.68784665125	19.8654700463283	944.967822614186
64	0.50119	7664.9523528679	3188.53063538209	8301.69995750903	22.5867399338707	949.383903603036
65	0.39811	7873.91666470458	3740.06167687508	8717.03074386812	25.4074287408753	954.204990590864
66	0.31623	8120.44222176048	4477.62124137942	9273.11564999609	28.8723929106852	959.611091577215
67	0.25119	8414.07210499955	5299.52611751222	9943.92208629601	32.2043984791787	965.677203561899
68	0.19953	8685.77158381197	6392.37976179811	10784.4864052583	36.3515787333655	972.563331544514
69	0.15849	9040.06910695466	7621.69778446178	11824.2600857807	40.1342954051961	980.544481524363
70	0.12589	9480.98298177923	9193.05694563906	13206.1097340038	44.1166539401064	989.745652501132
71	0.1	10115.9305429099	11115.0231826015	15029.1646839984	47.6942544947206	1000.66185147357
