Index	Frequency (Hz)	Z' (Ω)	-Z'' (Ω)	Z (Ω)	-Phase (°)	Time (s)
1	1000000	2409.19939172997	1597.07283629729	2890.48150894462	33.5406384562729	139.554368647659
2	794330	2642.77988655909	1491.16081736702	3034.44329524412	29.4334081988068	140.899390644263
3	630960	2917.6691138207	1409.32598274138	3240.21492857699	25.7820043287074	142.329414640653
4	501190	3185.40211844566	1314.31699699855	3445.89840604701	22.4213524090386	143.824441636878
5	398110	3429.38173226538	1202.36959555949	3634.05444509592	19.3210882495025	148.894538624077
6	316230	3639.65611309866	1095.47773164562	3800.9430516844	16.7509465497569	150.264564620618
7	251190	3749.73766701212	944.951974515756	3866.97127032911	14.1443032901698	154.64464660956
8	199530	3909.98663938764	853.542207787525	4002.06569419652	12.3143691305022	155.964668606227
9	158490	4038.34583549328	761.047575196206	4109.43189489227	10.6725204783966	157.289691602882
10	125890	4141.07504897748	671.862980289973	4195.22376346578	9.21557373102371	158.574717599637
11	100000	4223.46675476347	589.383023074672	4264.39254483929	7.94429791280792	159.95974259614
12	79433	4292.26925697955	515.581888541731	4323.12387726792	6.8494789062061	161.29476759277
13	63096	4348.51187266763	451.081970792493	4371.84519981042	5.92225257758574	162.694791589235
14	50119	4395.41718023112	394.653853620124	4413.09912107672	5.13069111690859	164.129819585612
15	39811	4436.838864862	345.475239211543	4450.26878442845	4.45236225676616	165.564844581989
16	31623	4466.70374496494	304.359323627967	4477.06119493168	3.89808494669317	166.874871578681
17	25119	4497.82473898161	271.438455626683	4506.00779158092	3.4535446774563	168.284896575121
18	19953	4521.68791147952	243.64337795407	4528.24730601597	3.08430186964401	169.634919571713
19	15849	4546.82381322198	221.371557314486	4552.20959039348	2.787362954141	171.059948568115
20	12589	4569.07075140074	203.130254055042	4573.58387169386	2.54556083400968	172.45997256458
21	10000	4587.25825825656	188.234874583774	4591.1186758733	2.34977322608414	173.819997561147
22	7943.3	4608.45576166081	176.058958762823	4611.81756622542	2.18783309312342	175.165023557751
23	6309.6	4628.98988198051	167.006482983659	4632.00156442509	2.06624304253667	176.530050554304
24	5011.9	4649.50636196603	159.403474447313	4652.23805040417	1.96355694582168	177.960074550694
25	3981.1	4668.04924420835	154.200844245112	4670.59542742893	1.89197791639426	179.455103546919
26	3162.3	4687.13211925443	150.069611900497	4689.53392052584	1.83383333156022	180.945131543157
27	2511.9	4705.09051507048	146.6744470677	4707.37614265408	1.78553549262062	182.395156539497
28	1995.3	4723.3418601235	144.586021903725	4725.55430032551	1.75333122683484	183.800183535949
29	1584.9	4740.16279193633	143.181253670324	4742.32476381154	1.73014899479277	185.025207532856
30	1258.9	4758.26709501788	142.791255808216	4760.40913055435	1.71887823525625	186.285228529675
31	1000	4776.70115428069	142.320462937302	4778.82088296655	1.70660670231739	187.70525652609
32	794.33	4799.81212675765	142.659101572622	4801.93170207899	1.70243305892873	189.235284522227
33	630.96	4818.25434531686	143.492590779828	4820.39055054396	1.70582330531932	190.740313518427
34	501.19	4835.04538605175	145.078617176455	4837.22148452417	1.71868069275018	192.260338514589
35	398.11	4857.32869170945	147.547265270799	4859.56913880158	1.73989396122946	193.695367510966
36	316.23	4875.3069672579	151.044519597107	4877.6462020009	1.77454388220217	195.170392507242
37	251.19	4895.15043971538	156.176552532864	4897.6411611108	1.82736428167002	196.615421503594
38	199.53	4915.8268287341	162.750160041469	4918.52020679955	1.89622068600765	198.045446499983
39	158.49	4933.96822212784	171.335404556731	4936.9421951064	1.988835768113	199.350471496688
40	125.89	4956.7979147021	181.489168855234	4960.11934187141	2.09690218295581	200.820497492977
41	100	4980.7008567218	194.920076802475	4984.51350288972	2.24113067297236	202.160522489594
42	79.433	5001.8022782308	210.332589247182	5006.22271064864	2.4079467932058	203.71055048568
43	63.096	5025.79748481895	229.312578042553	5031.02619918253	2.61242854251208	205.21557848188
44	50.119	5039.51309144874	252.058073681716	5045.81266709252	2.8633399368581	206.820609477828
45	39.811	5083.32537691923	276.463692250285	5090.83775627978	3.11304341933547	216.095783454411
46	31.623	5115.11104827459	306.370664431328	5124.27790231998	3.42764799371191	217.815815450068
47	25.119	5154.82620547472	338.564071947855	5165.932523704	3.75773509567984	219.495846445826
48	19.953	5197.04910281779	378.822448102311	5210.83734387147	4.16902132358135	221.330877441193
49	15.849	5248.21320787245	418.381730008657	5264.86326007541	4.55791689639543	223.355915436081
50	12.589	5302.34923678048	464.625681643938	5322.66704320584	5.00783067564421	225.470956430741
51	10	5359.52278344966	513.045700609061	5384.02269285981	5.46803459681883	227.675996425173
52	7.9433	5422.87601480254	569.015457637636	5452.64732611153	5.990053606894	230.02603941924
53	6.3096	5496.63564667011	627.871621537125	5532.37979583617	6.5165573854403	232.406081413231
54	5.0119	5567.69825741622	692.446642017645	5610.59232502925	7.08939161143182	234.98113240673
55	3.9811	5648.92115139177	770.979579780319	5701.2910544086	7.77185892671546	237.446176400506
56	3.1623	5730.97977141236	860.8379426044	5795.27144349296	8.54241010149084	239.911223394282
57	2.5119	5817.4763393165	959.627659190049	5896.09330004113	9.36693118877297	242.501271387743
58	1.9953	5903.18775316524	1096.37741828855	6004.1376643489	10.5214515943255	245.301321380674
59	1.5849	6011.07573343773	1223.2686651016	6134.28216665515	11.5027594179038	248.226375373289
60	1.2589	6126.76333923458	1434.97260760886	6292.56508902185	13.1818560002357	251.341432365424
61	1	6240.39252196794	1607.4208759312	6444.09037030152	14.4444407861018	256.606531352131
62	0.79433	6381.67050192631	1861.5477118568	6647.63704474573	16.2620841852599	259.756588344178
63	0.63096	6507.74790788323	2145.62693662205	6852.3352066078	18.2475661387943	263.366658335063
64	0.50119	6641.64694915894	2528.21835759353	7106.57176569302	20.8398955123657	267.231726325305
65	0.39811	6808.07388048998	2964.10763531127	7425.34874843737	23.5274053686869	271.606811314259
66	0.31623	6971.78911630908	3551.53585614693	7824.27315600517	26.9949882129166	276.366896302241
67	0.25119	7223.7185476074	4196.25181339495	8354.07917944686	30.1522666751212	281.826997288455
68	0.19953	7476.8458559644	5028.20429418052	9010.33086950016	33.920966111559	288.047114272751
69	0.15849	7731.99483673484	6018.46948288641	9798.25081694326	37.8966580572377	295.257248254547
70	0.12589	7967.85452050975	7303.14340333318	10808.4508246861	42.5076208954617	303.867408232809
71	0.1	8448.89508595745	8863.81800497127	12245.4521271682	46.3729091349499	314.042594207119
