Index	Frequency (Hz)	Z' (Ω)	-Z'' (Ω)	Z (Ω)	-Phase (°)	Time (s)
1	1000000	1851.35874958868	1120.67548197349	2164.12632615914	31.1876074183166	60.9788958460431
2	794330	1998.74964332016	1044.96682025259	2255.42807291682	27.6010301461451	62.3989208424579
3	630960	2179.02675484438	988.564336047541	2392.7843707348	24.4024851167908	63.7889498389484
4	501190	2356.71955374576	932.983222372191	2534.67645829514	21.5977289069406	65.3389748350349
5	398110	2517.78288944023	842.633460534671	2655.04459984585	18.5039924810375	69.4640528246201
6	316230	2661.09317768936	776.688964347504	2772.12240849571	16.2708555486841	70.7290728214263
7	251190	2738.97519776177	665.37979814091	2818.63715467744	13.6543719134648	74.994152810658
8	199530	2853.30724456295	602.685165972095	2916.26330106838	11.9268958196204	76.3191788073126
9	158490	2945.037268741	539.218628036992	2993.99419556811	10.3755898942626	77.7592028036769
10	125890	3021.66549888585	477.796280145926	3059.20768704552	8.98541368382191	79.0542288004073
11	100000	3081.93139992789	420.154696729838	3110.43905631434	7.76318251135567	80.4392527969104
12	79433	3132.0429916879	368.634224532415	3153.66207658302	6.7126981299331	81.7442767936155
13	63096	3171.2357018682	322.761066549896	3187.6183245307	5.81142136430175	83.0893037902197
14	50119	3206.16013804955	282.811368246084	3218.60918733964	5.04094177460022	84.5443297865461
15	39811	3233.88122979384	248.672966339071	3243.42813279418	4.39717075112936	85.8693527832007
16	31623	3257.3809997403	218.617034235779	3264.70892808641	3.83961139284968	87.3693807794135
17	25119	3279.08662625469	195.688219389109	3284.92054419739	3.41522758099081	88.7644087758914
18	19953	3297.11745947444	176.546187999259	3301.84071361237	3.0650108251646	90.2994377720158
19	15849	3314.21039506835	160.046787558524	3318.07256053675	2.76472706320668	91.9594657678247
20	12589	3330.36155456749	147.34900558012	3333.6196264101	2.53335069397518	93.2694917645172
21	10000	3346.52909554122	136.885440964535	3349.32748641455	2.34230396747268	94.7395177608057
22	7943.3	3360.39541446687	129.058332452605	3362.87278896264	2.1994034751221	96.0945427573846
23	6309.6	3373.45695345916	122.603331961411	3375.6841371565	2.08141475598192	97.5295717537615
24	5011.9	3388.93661679532	118.015045207396	3390.9908498183	1.99444057681628	98.8645967503909
25	3981.1	3401.45154955194	114.817025413474	3403.38883956478	1.93330230124678	100.204618747008
26	3162.3	3415.77893048988	112.407374261059	3417.6279961059	1.88482476797079	101.499643743738
27	2511.9	3428.22904172213	111.722451245945	3430.04901839892	1.86654980672421	102.869670740279
28	1995.3	3443.78191469291	111.334921444439	3445.58113250857	1.85168522604362	104.234695736833
29	1584.9	3458.33792661612	111.562156884163	3460.13689462138	1.8476577473688	105.504716733626
30	1258.9	3472.64080985182	112.910780370763	3474.47593725618	1.86228096208266	106.879743730155
31	1000	3487.04115604027	114.606690055476	3488.92400566767	1.88243169563368	108.244769726708
32	794.33	3502.73054787081	117.168049697254	3504.68966427231	1.91585748255679	109.684793723073
33	630.96	3519.34855334316	120.184510249164	3521.40008468541	1.95587056181207	110.954817719866
34	501.19	3534.04183927439	123.952112147879	3536.21490408146	2.00875461232406	112.619848715662
35	398.11	3550.91966594118	128.469337872243	3553.24286318022	2.07201020959224	113.984875712216
36	316.23	3569.15957908814	134.315674604154	3571.68598863912	2.15515482658165	115.544902708277
37	251.19	3587.36539364021	140.964463777709	3590.13390384474	2.25026302202648	116.989928704629
38	199.53	3604.81049314992	148.73049614441	3607.87741643299	2.36262050848097	118.294954701334
39	158.49	3625.4624698465	158.37389038097	3628.92000592736	2.5013057485919	119.609980698014
40	125.89	3645.60664054651	168.774687171913	3649.51129230022	2.65063639273698	121.035004694416
41	100	3665.57035014587	181.768895769524	3670.0743757229	2.83886700006239	122.465030690806
42	79.433	3691.35873353536	195.566354028338	3696.5356076299	3.03266669764057	123.960058687031
43	63.096	3714.89725114512	211.600988720088	3720.91877968237	3.2600517552662	125.385084683433
44	50.119	3739.14365410982	228.665918151068	3746.12911792875	3.49954346848371	126.800110679861
45	39.811	3771.79789166886	249.902204906699	3780.06751892276	3.79061804706307	136.340289655774
46	31.623	3804.26277091159	272.865948637326	3814.03605856967	4.10259225278967	138.035319651494
47	25.119	3840.40274504985	298.458136388821	3851.98267173712	4.44382790434753	139.650349647417
48	19.953	3877.68998980514	327.476584078716	3891.49335990116	4.82725794076634	141.540386642645
49	15.849	3922.38822991638	358.969432086148	3938.780075018	5.22903339198732	143.660425637292
50	12.589	3966.84193160136	393.101082583031	3986.27186371411	5.6593476887969	145.735462632053
51	10	4018.21625478995	431.47793768582	4041.31600855065	6.12896275565821	148.095507626095
52	7.9433	4072.11686116856	475.188056345779	4099.74870204345	6.65592083618213	150.445548620162
53	6.3096	4131.36808131404	521.374617165404	4164.13661095849	7.19264840981456	152.805595614203
54	5.0119	4193.79173047289	574.770331070701	4232.99539476031	7.8039201414909	155.160636608257
55	3.9811	4262.77643422519	635.60723596934	4309.90249154226	8.48068602908361	157.665685601932
56	3.1623	4332.3755142176	705.680937470354	4389.47185680706	9.25140144743004	160.285733595317
57	2.5119	4407.78383045245	780.199093324709	4476.30080772314	10.0376632548075	162.940782588614
58	1.9953	4490.36557830157	870.122154628851	4573.89282676928	10.9665964904137	165.61583158186
59	1.5849	4585.54560744541	991.86237581925	4691.59029440207	12.2051604770152	168.370883574904
60	1.2589	4684.41217648675	1112.96534463581	4814.81144984699	13.3650516491699	171.200935567759
61	1	4792.03650931042	1267.48295477013	4956.82629786407	14.8153360546795	176.266030554971
62	0.79433	4910.65824815146	1449.05735618968	5119.9933253536	16.4404939363149	179.446085546942
63	0.63096	5030.77371094327	1647.8956661179	5293.79299341484	18.1368848174779	183.006152537954
64	0.50119	5150.81839041484	1917.42822979007	5496.13146744432	20.4181352465039	186.836224528284
65	0.39811	5284.41598350221	2231.64469894011	5736.31330638426	22.8946633273441	190.986299517806
66	0.31623	5454.70277828906	2636.61783486303	6058.50938817398	25.7975434565694	195.776388505712
67	0.25119	5623.81578315555	3069.62325429387	6407.01887668291	28.6268470437745	201.226489491952
68	0.19953	5840.55948591736	3623.88295393864	6873.47530528671	31.8182968107076	207.491608476134
69	0.15849	6058.22281572104	4311.7038636599	7435.9164796831	35.439876735747	214.881742457476
70	0.12589	6297.15317258938	5222.28199985689	8180.85370637331	39.6692025874361	223.381902436015
71	0.1	6687.48116071422	6189.32729910685	9112.08958968122	42.7845529182601	233.637089410123
