Index	Frequency (Hz)	Z' (Ω)	-Z'' (Ω)	Z (Ω)	-Phase (°)	Time (s)
1	1000000	1859.69222547931	1170.6864819357	2197.48993456061	32.1906405498182	387.0867610227
2	794330	2027.47313628309	1108.55504650573	2310.74481704122	28.6683751322623	388.531786019052
3	630960	2219.61692332851	1063.76563055265	2461.36072185111	25.6063690192654	390.041814015239
4	501190	2414.40109110016	1009.35401854353	2616.89284523758	22.6876417817004	391.681845011098
5	398110	2589.33637965415	921.982206435756	2748.58401290276	19.5992340453119	395.981926000242
6	316230	2754.33212882558	852.129661150049	2883.13552149262	17.190915061904	397.366947996745
7	251190	2841.62668472455	740.550303227289	2936.53826246972	14.6068349150503	401.652029985926
8	199530	2969.99661794116	675.662086634968	3045.88232962106	12.8164249020245	403.102053982265
9	158490	3077.03743578444	607.715669037295	3136.47536505746	11.1721501496645	404.40707697897
10	125890	3161.47098359133	540.900127894165	3207.40888077056	9.70880402502007	405.772105975524
11	100000	3231.19820059872	477.976579185031	3266.35935282721	8.41448526639031	407.252132971787
12	79433	3289.98590840309	421.453204875239	3316.87052526783	7.29993643102631	408.647157968265
13	63096	3338.85508644197	370.476836914543	3359.3461231242	6.33159638396958	410.132186964516
14	50119	3377.06931227165	326.05046017606	3392.77261873942	5.51471988883535	411.557212960918
15	39811	3410.51985307621	287.452428697093	3422.61224315447	4.81773384982087	412.942235957421
16	31623	3439.87989632767	253.339892910759	3449.19625456414	4.21210868713071	414.397264953747
17	25119	3464.47465975526	226.519652208762	3471.87209167088	3.74087676909421	415.852289950074
18	19953	3486.85961882363	203.947840988491	3492.8190223982	3.34743964471107	417.282317946463
19	15849	3507.15872304068	184.809760282139	3512.02462350364	3.01641172384809	418.64234294303
20	12589	3525.76319427016	169.462980306807	3529.83339603508	2.7517579885444	419.947367939735
21	10000	3543.35378789928	157.647547791909	3546.85900700112	2.54746968999417	421.282392936364
22	7943.3	3561.97415761072	147.378487027652	3565.02178365367	2.36929052649128	422.702419932779
23	6309.6	3577.00520838252	139.680854139839	3579.7314147585	2.23624477694283	424.052441929371
24	5011.9	3594.11666795356	134.31298197473	3596.62544616318	2.14016080601865	425.467467925798
25	3981.1	3609.36024443855	129.765923046477	3611.69220295938	2.05904598254581	426.852494922301
26	3162.3	3622.77895157127	126.721415894979	3624.9945722986	2.0033359400608	428.227520918829
27	2511.9	3639.80370653783	125.069160337802	3641.95185539212	1.96799533791738	429.687545915143
28	1995.3	3653.05625524507	124.737324758929	3655.1852763127	1.95566288777769	431.147574911457
29	1584.9	3669.69131474798	124.417058444987	3671.79982433259	1.94180987978976	432.462597908137
30	1258.9	3686.41871517522	125.885798131099	3688.56749670726	1.95580692549825	433.762620904855
31	1000	3701.44151013881	127.34620114368	3703.63150271789	1.97045476609058	435.157649901333
32	794.33	3717.56549625371	130.194500485777	3719.84459714285	2.0057610037951	436.507674897924
33	630.96	3733.34588970314	133.727925961722	3735.74017971611	2.05144970397089	437.862698894503
34	501.19	3753.0385889928	138.286598811968	3755.58541826438	2.1101983078003	439.327723890804
35	398.11	3770.53986432451	144.162798762683	3773.29481766365	2.18957997168049	440.652749887459
36	316.23	3788.83348273046	151.082539388062	3791.84455029045	2.28350181492202	442.547786882674
37	251.19	3809.69255194803	160.164415394397	3813.0578254633	2.4073712219735	443.877808879316
38	199.53	3827.46320764069	171.00088116516	3831.2812357229	2.5581219591074	445.197832875984
39	158.49	3850.61827423845	183.145420181118	3854.97125006561	2.7230841433695	446.65286187231
40	125.89	3872.49687376507	198.455899294015	3877.5787266392	2.933700700985	448.15788786851
41	100	3898.10591075279	216.383467089122	3904.10700369179	3.1772222591324	449.572915864938
42	79.433	3922.18968387071	236.395851787349	3929.30718002603	3.44912423801987	450.967940861415
43	63.096	3948.12212580568	260.354849703686	3956.69722976633	3.7728486527147	452.48296985759
44	50.119	3981.24273763296	283.849835500999	3991.34870251512	4.0781046334374	453.982995853803
45	39.811	4018.02006782654	318.999893838817	4030.66324538853	4.53932292535152	463.253167830398
46	31.623	4058.47539954392	354.780270326961	4073.95282359976	4.99593252096442	465.058201825841
47	25.119	4104.15658197342	395.474922060968	4123.1664607841	5.5040056499697	466.818235821397
48	19.953	4151.69893342941	441.071264871825	4175.0626216303	6.06428451413883	468.733270816562
49	15.849	4210.49111446238	489.639626372497	4238.86569599472	6.63315419507347	470.728305811525
50	12.589	4272.82162820945	542.960394012335	4307.18128895923	7.24193494491385	472.773342806362
51	10	4345.69680551688	603.024589351891	4387.33625117139	7.90012063799571	475.088386800517
52	7.9433	4422.17737396552	666.881033086682	4472.17877986819	8.57579970710346	477.433429794596
53	6.3096	4508.07197410587	737.442740863533	4567.99022763525	9.29031598304226	479.933475788284
54	5.0119	4599.08614571044	812.663838898789	4670.33359522844	10.02079088381	482.373523782124
55	3.9811	4697.08446403859	897.930250503891	4782.14190474129	10.8225195633246	484.95357177561
56	3.1623	4800.82750974167	986.186680954095	4901.07222431823	11.6082259757698	487.493615769197
57	2.5119	4912.53067271995	1101.9252909429	5034.59997986274	12.6426992488274	490.223666762304
58	1.9953	5034.38766974636	1220.37700237555	5180.19104254094	13.6261283181598	493.173723754856
59	1.5849	5158.87813152735	1383.47150907369	5341.16251319595	15.0119602910217	496.123777747408
60	1.2589	5290.01166640463	1561.31746538695	5515.60836702711	16.4436715322845	499.153834739758
61	1	5441.58838203303	1761.10698950705	5719.47392230854	17.9335727598757	504.533932726174
62	0.79433	5607.86823236486	2006.25008593999	5955.9403555527	19.6849887636088	507.72399171812
63	0.63096	5775.79301974567	2310.95623319464	6220.9568169763	21.8068740375867	511.274059709157
64	0.50119	5947.3223901427	2675.07492908869	6521.24754081085	24.2179693138369	515.424133698679
65	0.39811	6144.97581051342	3101.18419498493	6883.17304177509	26.7787025525304	519.799218687633
66	0.31623	6386.69066213665	3633.72335331851	7348.04484351285	29.6378184483702	526.319335671171
67	0.25119	6649.44387640353	4316.56710478347	7927.66393305992	32.9901064402519	532.149443656452
68	0.19953	6944.70633147282	5072.66240330611	8600.04941196933	36.145731320622	540.909604634335
69	0.15849	7276.12735353449	6030.5020901013	9450.34310083867	39.6521620911893	548.359744615525
70	0.12589	7712.1916947883	7218.05823820046	10563.0613681458	43.1044234782717	557.264907593041
71	0.1	8259.44385010613	8522.07206460756	11867.7767499823	45.8965971884151	567.760102566544
