Index	Frequency (Hz)	Z' (Ω)	-Z'' (Ω)	Z (Ω)	-Phase (°)	Time (s)
1	1000000	2559.88883933432	1818.75370918079	3140.20635060935	35.3930901820152	456.236045848115
2	794330	2825.20882178471	1694.88842891843	3294.60948720356	30.960224305347	457.661069844517
3	630960	3137.00004307862	1619.7039519009	3530.46883035082	27.3083282278387	459.096097840894
4	501190	3445.49407769877	1541.28146950431	3774.51692375259	24.1005194335337	460.581123837144
5	398110	3744.88379129571	1434.62306625195	4010.27404955465	20.9612771044967	465.641217824369
6	316230	4004.89128261324	1328.61153954751	4219.52163267002	18.3531199746992	466.956240821049
7	251190	4150.42025589901	1173.51314921275	4313.13359542131	15.7880180104639	471.016318810798
8	199530	4355.21035799195	1080.88179497027	4487.33358655878	13.9381277091616	472.36634380739
9	158490	4525.89376075773	983.801211268776	4631.5849508521	12.2637010499911	473.786367803804
10	125890	4668.22953257305	879.58214803843	4750.37174586738	10.6705015803466	475.051392800611
11	100000	4788.60206626695	783.816636989648	4852.32709835991	9.29595623417691	476.436416797114
12	79433	4888.39419961458	695.438811363604	4937.61409905395	8.09675218267034	477.70143979392
13	63096	4969.56792181995	614.256490323239	5007.38618098166	7.04622597424539	479.181468790183
14	50119	5039.51010404939	542.170835182622	5068.5906624365	6.14049318486598	480.626496786535
15	39811	5097.01318203985	477.161446030966	5119.29940748403	5.34820818732349	482.011521783038
16	31623	5146.54187649795	420.839410074659	5163.71950202749	4.67474947340976	483.296546779794
17	25119	5188.50944219598	375.319008563383	5202.06637692618	4.13737418104311	484.626570776436
18	19953	5227.80469555377	337.39966439871	5238.68117644034	3.69271690779154	485.95159277309
19	15849	5262.43798725276	302.948457864549	5271.1508551552	3.29477158738383	487.261617769783
20	12589	5292.60606266055	274.60622972185	5299.72523022781	2.97012131807693	488.546640766538
21	10000	5318.67011099657	251.845048241799	5324.62934653035	2.71099507039934	489.841666763269
22	7943.3	5348.16484680234	232.742023815267	5353.22669781711	2.49183177270418	491.266690759671
23	6309.6	5373.72387481706	218.258121581695	5378.15441303197	2.32583584267942	492.581717756351
24	5011.9	5399.49673783463	205.117940410784	5403.3913786959	2.17552568320534	493.901739753018
25	3981.1	5418.17322966356	194.906844505282	5421.67776842906	2.06020107686609	495.266766749572
26	3162.3	5442.13683849634	188.070313112736	5445.38555215269	1.97924986464015	496.611789746176
27	2511.9	5463.57782023721	182.274117883764	5466.6174598044	1.91077459504192	497.961816742767
28	1995.3	5483.06601140592	179.198564929562	5485.99352999141	1.87188485246094	499.276838739447
29	1584.9	5506.79464436637	176.516084782422	5509.62296200104	1.83594370804222	500.56686473619
30	1258.9	5528.71667022235	176.868779971735	5531.54504500535	1.83232028169302	501.816889733034
31	1000	5549.33519868186	176.835678788189	5552.15201562619	1.82517550307902	503.131913729714
32	794.33	5574.64307947125	179.686158821898	5577.53821853055	1.84616220054955	504.641939725902
33	630.96	5596.10925244105	183.539582078849	5599.11828268041	1.87849713379351	506.031964722392
34	501.19	5620.22369667481	188.868705269958	5623.3962859197	1.92471144837324	507.381991718984
35	398.11	5643.42410563393	196.866242516436	5646.85682070058	1.99790633209421	508.667015715739
36	316.23	5670.4594630929	205.861338663382	5674.1950454083	2.07916274480414	509.967039712457
37	251.19	5693.89796291037	217.795040894726	5698.06183643818	2.19053030877837	511.27706070915
38	199.53	5718.5774342957	233.749251130058	5723.35273982304	2.34068599309311	512.582088705855
39	158.49	5750.99139069518	251.426257854975	5756.48479012922	2.50330681639999	513.922111702471
40	125.89	5780.18740701878	271.489654327114	5786.559694038	2.68914944757313	515.352139698861
41	100	5817.05606234539	296.500441867082	5824.60760433667	2.91789088481077	516.717164695415
42	79.433	5851.17756310534	325.12842526596	5860.20369679274	3.1804451783362	518.107190691905
43	63.096	5890.56885724995	354.045690774502	5901.19901487477	3.43955744053234	519.542213688282
44	50.119	5928.46833286529	395.582084392111	5941.65145050419	3.81745073048524	520.897239684861
45	39.811	5982.30999290648	433.197555147851	5997.974072386	4.14173528648518	530.172412661443
46	31.623	6035.9041828985	479.877050763545	6054.95014752237	4.54566824804686	531.807442657315
47	25.119	6094.81348514309	528.415751357132	6117.67722464698	4.95511037980436	533.377472653351
48	19.953	6157.45579343928	591.700608543791	6185.82019285317	5.48898281260811	535.327508648428
49	15.849	6229.0617659616	658.396841392961	6263.76060245927	6.03362341454799	537.312546643416
50	12.589	6306.7778172458	734.882877365776	6349.44873824091	6.64628787149434	539.297579638405
51	10	6386.58752545026	822.585472256059	6439.34368390161	7.33922771522726	541.532622632762
52	7.9433	6478.30489848993	921.39443688907	6543.5007500671	8.094756384229	543.807666627018
53	6.3096	6575.05999640706	1040.89180570285	6656.94146793644	8.99578869449895	546.212710620945
54	5.0119	6682.16654568278	1175.40158645028	6784.75634298476	9.97634238287436	548.617752614873
55	3.9811	6803.59709406194	1335.49681465867	6933.43242271038	11.1055477086202	551.032800608776
56	3.1623	6947.52137653677	1518.41786642846	7111.515035105	12.3284427377635	553.522844602489
57	2.5119	7080.06687459443	1741.66629329155	7291.14177793282	13.8201093992673	556.087890596013
58	1.9953	7240.24301086876	1990.07564896841	7508.76287713569	15.3689587578382	558.812945589133
59	1.5849	7430.85856287909	2300.9781554178	7778.95619303923	17.2052291093988	561.612994582063
60	1.2589	7637.01208050918	2672.48812395736	8091.11526864722	19.2869308888449	564.483048574817
61	1	7853.62185624611	3092.74315404726	8440.64194702114	21.4944372964308	569.463143562244
62	0.79433	8126.12030130059	3611.57968091476	8892.54400848295	23.9623162153443	572.63319955424
63	0.63096	8400.86964608866	4204.3177423576	9394.19493566515	26.5862331512428	576.213264545201
64	0.50119	8721.67916308346	4961.69260430025	10034.2454087655	29.6351970204652	580.048335535519
65	0.39811	9081.82995422906	5842.59588879795	10798.8685535722	32.7543131312956	584.318416524738
66	0.31623	9540.07263090239	6939.21352106194	11796.8500072596	36.0312183557748	589.143504512556
67	0.25119	10047.4292669747	8169.53399371014	12949.5992428046	39.1144546359178	594.568605498859
68	0.19953	10672.7189477379	9684.03541698568	14411.3660592893	42.2194528219045	600.848721483003
69	0.15849	11325.3082561925	11525.4989990627	16158.5808249109	45.5019424960373	608.073854464761
70	0.12589	12161.9818600681	13836.1178583136	18421.5080857613	48.6844489862478	616.599014443237
71	0.1	13223.2440907559	16349.794513629	21027.8378565559	51.0350631054962	626.754199417598
