Index	Frequency (Hz)	Z' (Ω)	-Z'' (Ω)	Z (Ω)	-Phase (°)	Time (s)
1	1000000	2555.01541215156	1877.08892976208	3170.4205725057	36.3035468207127	67.534009829493
2	794330	2839.16944141424	1758.92333197405	3339.86442910833	31.7790586711909	69.1040378255291
3	630960	3163.28837655625	1677.31951434586	3580.47400583517	27.934571266451	70.6140638217166
4	501190	3487.5638666561	1594.30897586836	3834.69983630266	24.5670906763444	72.2490958175886
5	398110	3800.7569673045	1481.86104800339	4079.41977370599	21.3001024423372	77.3641928046742
6	316230	4071.28626257184	1374.36343022913	4297.00438330675	18.6533834161351	78.7942178010637
7	251190	4221.34109115916	1205.83751830223	4390.18960051318	15.9421340326502	82.9442957905858
8	199530	4428.4300709084	1100.94496366618	4563.23051203286	13.9611768893733	84.2543167872783
9	158490	4602.85457041374	995.957224030953	4709.37373633459	12.2093329789454	85.6493437837562
10	125890	4743.75942975586	891.602353843029	4826.82175813196	10.6447096565986	87.0993717800952
11	100000	4861.23109689441	790.624685452655	4925.10458474339	9.23763290565695	88.6243977762449
12	79433	4960.55113724824	699.307962771033	5009.60070385353	8.02432761770558	89.9744217728364
13	63096	5040.03872171824	616.090900018663	5077.55436342193	6.96922188299873	91.2494457696173
14	50119	5109.05495198232	541.224313340375	5137.64209143901	6.04703719591935	92.5594697663098
15	39811	5166.18069156657	476.53745054117	5188.11245827262	5.27014857029305	93.8894947629518
16	31623	5211.040793503	418.083492100174	5227.78537795108	4.58703370101702	95.3395227592908
17	25119	5256.43041224129	372.065488650306	5269.58190054768	4.04880972551115	96.7295507557814
18	19953	5292.50781862092	332.725132251362	5302.9562532417	3.59729087655828	98.0295717524991
19	15849	5324.3672263978	298.862777829117	5332.74838348021	3.21270589375275	99.3295977492169
20	12589	5354.79390496059	269.615858310027	5361.57723768438	2.88242957784559	100.634619745922
21	10000	5383.53331976786	247.377748606854	5389.21392742546	2.63093713769902	102.054645742337
22	7943.3	5411.33866609777	226.78736086358	5416.0888717092	2.39984222363509	103.524674738625
23	6309.6	5434.88973787298	211.097712909895	5438.98783848915	2.22431949133434	104.954700735015
24	5011.9	5456.12068054984	198.145879888781	5459.71745335238	2.07985421219583	106.269724731695
25	3981.1	5480.29503249273	187.607099286857	5483.50527189199	1.96064243371797	107.559748728438
26	3162.3	5500.05713579953	179.319261507345	5502.97954699151	1.86736220136128	108.854771725168
27	2511.9	5521.83674910932	172.48219464373	5524.52995206681	1.78913103857515	110.249798721646
28	1995.3	5539.77021783563	168.082578722689	5542.31953424636	1.73788233613143	111.669824718061
29	1584.9	5562.22367890756	164.647299873555	5564.66000646541	1.69551641334172	112.974851714766
30	1258.9	5582.18097842386	162.878063869477	5584.55671826932	1.67131424736729	114.219872711623
31	1000	5603.36226026861	161.610977244736	5605.69235043884	1.65205464751835	115.574898708201
32	794.33	5623.21465760344	161.06115808452	5625.52075652821	1.64062780774546	116.974924704667
33	630.96	5644.38608904199	162.502602423704	5646.72483993733	1.64909734182664	118.379949701119
34	501.19	5664.92632431246	164.605499994585	5667.31728691069	1.66437248494069	119.829976697458
35	398.11	5685.33015351723	168.615879827937	5687.83001411104	1.69878387097037	121.029999694429
36	316.23	5709.81421256558	173.508354941095	5712.44986772315	1.74055368398674	122.310022691197
37	251.19	5734.53564960796	180.920320722814	5737.38889034682	1.80703970054457	123.700048687687
38	199.53	5757.7434890817	188.6284961715	5760.83247418554	1.87638659646035	125.12507368409
39	158.49	5782.2412397028	199.699747347262	5785.68870085578	1.97802308894152	126.550101680492
40	125.89	5808.61730068973	212.86587311563	5812.51639359489	2.09875433872192	127.885124677121
41	100	5835.22594190272	226.777017971216	5839.63094800813	2.22559168813676	129.200148673801
42	79.433	5860.05738863748	243.29359549214	5865.10565733749	2.37739911805544	130.625176670203
43	63.096	5893.42810619819	262.970875141755	5899.29220534969	2.55490237706825	132.110202666454
44	50.119	5929.79596211428	295.227375367652	5937.14067169318	2.85023754234004	133.675232662502
45	39.811	5964.33516101258	309.747679407152	5972.3728565612	2.97288882387481	143.235410638365
46	31.623	5997.79222883887	337.046351199182	6007.25493575698	3.21635752868096	145.545453632533
47	25.119	6038.54152556861	369.105817155331	6049.81180370716	3.49785223495095	147.430486627774
48	19.953	6085.06258627988	407.487533439046	6098.69107012738	3.83110445244015	149.330521622977
49	15.849	6130.40311737225	451.97766805049	6147.04206866227	4.21663029398561	151.430559617675
50	12.589	6182.26374305407	500.537568688226	6202.49327660653	4.62876915763705	153.570601612272
51	10	6238.94852343983	556.339609265892	6263.70437033631	5.09570220178194	155.950647606262
52	7.9433	6296.90090764376	621.382524632686	6327.48585795367	5.63574091618238	159.050702598436
53	6.3096	6364.90090506146	698.201442685561	6403.08119469216	6.26006398555148	161.485748592288
54	5.0119	6433.08248566982	791.176131071621	6481.55150699347	7.01134401959709	163.815789586405
55	3.9811	6513.08264640277	896.496089157296	6574.49243643547	7.83725449995235	166.285838580169
56	3.1623	6603.43565734204	1024.21584015682	6682.39332633783	8.81652267414693	169.14089157296
57	2.5119	6687.23626915274	1174.48780417234	6789.59133686421	9.96133612855427	171.800939566244
58	1.9953	6792.75113787838	1349.17936506844	6925.44243931567	11.2339106768855	174.435986559591
59	1.5849	6914.01991471854	1575.06187849532	7091.15585093246	12.8333687408525	177.241040552509
60	1.2589	7023.2588022418	1787.35659852739	7247.12410640016	14.2781689289979	180.141091545187
61	1	7175.4358438614	2133.11193170356	7485.78960848801	16.5561487890257	185.096185532677
62	0.79433	7352.92669033558	2493.58481727023	7764.24472530136	18.7332469745295	188.336243524497
63	0.63096	7532.67210981493	2949.37613074278	8089.49743028446	21.3825525478463	191.881311515546
64	0.50119	7750.20984294752	3473.85058164922	8493.1378461288	24.143193994885	195.756381505763
65	0.39811	7987.40500831394	4137.83500132509	8995.57209214787	27.386188165458	199.961461495146
66	0.31623	8274.03880750746	4901.24395441946	9616.75155595032	30.6409798926909	204.836549482837
67	0.25119	8580.39362819115	5891.21370792892	10408.1484312625	34.4731087625168	210.266651469128
68	0.19953	8924.2590864975	6983.31168667676	11331.7713688642	38.0434944533061	216.726769452818
69	0.15849	9369.0775328931	8392.14569588054	12578.0651611545	41.8516962668521	223.971903434525
70	0.12589	9980.5255893231	10037.1605196924	14154.6982425344	45.1621033423826	232.447060413128
71	0.1	10447.5225850816	11970.0685872874	15888.1487326294	48.8854173340578	242.602250387488
