Index	Frequency (Hz)	Z' (Ω)	-Z'' (Ω)	Z (Ω)	-Phase (°)	Time (s)
1	1000000	2387.50438574549	1423.70221388419	2779.7671099883	30.8082142098296	702.553415226223
2	794330	2565.11372826366	1304.72504402711	2877.86654997035	26.9598087295484	704.623451220997
3	630960	2789.67356864461	1207.34757984855	3039.73136940758	23.4025606854694	706.708488215733
4	501190	3007.5490227748	1106.33080033055	3204.57781371489	20.1961108116925	708.853527210317
5	398110	3208.35463955078	996.293373597399	3359.48507652603	17.251185393009	715.653656193148
6	316230	3373.20492871433	891.438333587309	3489.00756572575	14.8031618649683	717.598689188237
7	251190	3453.1949332595	756.015842956478	3534.98446982307	12.3490538864065	724.328818171246
8	199530	3580.04305074355	677.240079325017	3643.53706859439	10.7121130885831	726.28385016631
9	158490	3679.77686360238	596.712563781392	3727.84437036713	9.21090503693354	728.313887161184
10	125890	3760.61024220532	522.101949351986	3796.6801075804	7.90409802783061	730.293925156185
11	100000	3822.2048389153	453.823564205828	3849.05256628901	6.77122486170743	732.333962151034
12	79433	3872.81196578436	391.651389429367	3892.56513537853	5.77460003098371	734.379003145871
13	63096	3912.3983031241	340.546815730183	3927.19144122009	4.97465733217207	736.409040140746
14	50119	3947.31971430027	295.740208169616	3958.38290184663	4.28469653580615	738.449075135595
15	39811	3974.85047349962	256.884843562675	3983.14274280152	3.69774337048443	740.564117130255
16	31623	3998.39410272967	224.047547433283	4004.66636616014	3.20717978222026	742.504152125357
17	25119	4018.16798152243	197.985600285669	4023.04265769735	2.82083094375862	744.449189120446
18	19953	4035.56244511874	176.30512637606	4039.41180693913	2.50153985583043	746.394224115536
19	15849	4052.51049503651	158.197773755396	4055.59710129128	2.23551913827184	748.369261110549
20	12589	4068.80240563325	144.517017133976	4071.36809737565	2.03419458276173	750.309295105651
21	10000	4079.48046368953	132.771399175543	4081.64049103588	1.86409926237613	752.384336100412
22	7943.3	4094.75670949607	123.359352598831	4096.61446072689	1.7255807042659	754.3693710954
23	6309.6	4109.08193602234	115.704829288478	4110.71063983659	1.61292648678071	756.324410090464
24	5011.9	4121.67032356983	110.259127747629	4123.14483512863	1.53235845535814	758.359445085326
25	3981.1	4133.28152247166	105.813643967307	4134.63573622336	1.46647433746088	760.344481080315
26	3162.3	4145.25178674651	102.618162596938	4146.52177889131	1.41810130751636	762.269518075454
27	2511.9	4159.41715233298	99.7530358570494	4160.6131417478	1.37383012056459	764.344557070216
28	1995.3	4169.92950325138	97.8939220119972	4171.0784315394	1.34483772326467	766.304591065267
29	1584.9	4183.41567328262	97.0510974348351	4184.54126649266	1.32896691902204	768.29963106023
30	1258.9	4194.64897220932	96.1123487411211	4195.74994293478	1.31259339432846	770.339668055079
31	1000	4206.93317594367	95.8661048683555	4208.02531562229	1.30541002811331	772.304704050118
32	794.33	4220.45836217563	96.1219055182009	4221.55281947042	1.30469894084077	774.364742044917
33	630.96	4233.86155411485	96.7063830155893	4234.96585392701	1.30847554574033	776.304776040019
34	501.19	4246.89606060305	98.5008713503607	4248.03820265572	1.32865802642988	778.249814035108
35	398.11	4259.44966291399	100.578042364782	4260.6369680488	1.35266926895639	780.219849030134
36	316.23	4271.09313308798	103.483595508383	4272.34659245369	1.38793823547616	782.194887025148
37	251.19	4285.45655474801	108.388340169854	4286.82702180965	1.44882363521856	784.179924020136
38	199.53	4299.30995959308	113.830404583066	4300.81660730422	1.51663371257427	786.174962015099
39	158.49	4314.58501273221	121.455164075751	4316.29414995944	1.61244500814603	788.204998009974
40	125.89	4326.01368072729	129.787694737879	4327.96016750906	1.71845439184048	790.255035004798
41	100	4342.89213983723	140.834441998618	4345.17508028308	1.85737800313846	792.220072999837
42	79.433	4361.13975846084	153.041727897816	4363.82421315362	2.00980680134403	794.250107994711
43	63.096	4375.82803483745	167.783440805775	4379.04353409258	2.19583035298638	796.345147989422
44	50.119	4397.61175893944	177.698687133601	4401.20051869617	2.31394888142139	798.515187983943
45	39.811	4421.16510445691	204.351454566561	4425.88526713593	2.64639485163593	808.280367959288
46	31.623	4443.19231024464	225.464611260654	4448.9091018752	2.90491588675354	810.54541095357
47	25.119	4469.47960064515	252.313863889537	4476.59582567982	3.23106780788474	812.970457947447
48	19.953	4498.7337017198	282.508312398046	4507.59535290863	3.59330159354414	815.465503941148
49	15.849	4533.30743159545	314.685171021252	4544.216436991	3.97088787834349	818.030548934671
50	12.589	4567.93297864203	354.167274328901	4581.64229895471	4.43346571240473	820.725600927867
51	10	4608.83020476444	398.905116497196	4626.0610835047	4.94675677037305	823.620652920558
52	7.9433	4649.28264897647	450.489919492768	4671.05665964761	5.53436919135518	826.585706913072
53	6.3096	4695.23399381491	509.530679284846	4722.80041604635	6.19354797464416	829.635763905371
54	5.0119	4742.76983853808	577.732286544041	4777.82799358264	6.94516904509924	832.690819897658
55	3.9811	4796.2463731006	660.793703630931	4841.55218811478	7.84443275231118	835.725878889995
56	3.1623	4856.77406129165	759.73847243007	4915.83734768816	8.89064924372005	839.005938881714
57	2.5119	4922.24063436149	878.750775430758	5000.0655783579	10.1221812863106	842.280999873445
58	1.9953	4988.26247573349	1009.33407036084	5089.35337664835	11.438889536606	845.621059865012
59	1.5849	5064.34312191619	1167.19007751095	5197.10534177823	12.978455223283	849.061123856327
60	1.2589	5163.21627593004	1393.52816283404	5347.9643840101	15.1039874035437	852.651190847263
61	1	5251.60403877462	1630.62732475883	5498.93539263047	17.2496111917866	858.966309831319
62	0.79433	5363.73747010204	1920.78005228688	5697.28669257918	19.7026888912204	862.836378821548
63	0.63096	5487.63810786654	2287.2646542107	5945.22931444286	22.6265260149106	867.041458810931
64	0.50119	5609.54742347301	2714.34750197452	6231.74972681573	25.8214087776947	871.526541799607
65	0.39811	5750.43856879043	3273.87834689715	6617.0857001942	29.654015643568	876.356629787412
66	0.31623	5954.56434915519	3916.6775705524	7127.21542959789	33.3353414874524	881.926733773349
67	0.25119	6141.82619300309	4728.95642504323	7751.45520886347	37.5948085004686	887.981844758061
68	0.19953	6445.50416566839	5730.98462122749	8624.88890817699	41.6417197543166	894.80697074083
69	0.15849	6722.9539783512	6971.77243914535	9685.23211586872	46.0408882101968	902.842119720543
70	0.12589	7104.03294294032	8431.23910407625	11025.1111960146	49.8830245317755	911.977288697479
71	0.1	7510.88844268115	10160.3514498249	12635.1172049317	53.5268875466255	922.927492669832
