Index	Frequency (Hz)	Z' (Ω)	-Z'' (Ω)	Z (Ω)	-Phase (°)	Time (s)
1	1000000	2954.91115832233	2379.47945329625	3793.86642124322	38.8431935522653	21.941533944603
2	794330	3148.93183143229	2217.39790362787	3851.31472902706	35.1522348322926	23.9485709395357
3	630960	3778.09320985449	2124.99546700943	4334.69653345643	29.3556572433023	25.9156059345694
4	501190	4180.18767966447	2029.48081801709	4646.80120383021	25.8965697865789	27.7926429298303
5	398110	4648.82605263317	1896.00081319158	5020.59784799221	22.1878493568305	29.8446789246494
6	316230	4987.57268993004	1772.55424568026	5293.18712036662	19.5649163632521	31.716715919923
7	251190	5185.12705810725	1567.78244046462	5416.96265349367	16.8232919179189	33.6687499149946
8	199530	5459.82424086317	1440.26715463101	5646.59633919638	14.7776262552949	35.5457839102555
9	158490	5692.94178455878	1303.12949368335	5840.18258615968	12.8930359118112	37.5578229051756
10	125890	5882.0280846195	1164.04076333633	5996.10250804314	11.1940744310944	39.3948579005375
11	100000	6035.4116232731	1029.50736860469	6122.5875971154	9.68021908306564	41.3118928956975
12	79433	6166.80853141376	905.453057878313	6232.92649588768	8.35287581703985	43.2939298906933
13	63096	6274.05938663027	791.032281132026	6323.72937883622	7.1859255538889	45.2759668856892
14	50119	6361.16410207176	687.189571389706	6398.17460222157	6.16568929014698	47.2480038807103
15	39811	6433.15887169417	593.896329098803	6460.51436947357	5.27448127513534	49.1000358760343
16	31623	6487.88774314039	511.630549420709	6508.02990056836	4.50897604234178	50.9670718713205
17	25119	6532.63964718138	445.323639246884	6547.80069211015	3.89976382233907	52.7391038668466
18	19953	6574.98137021939	388.478458473013	6586.44786902846	3.38135245841723	54.6461408620318
19	15849	6607.40717168631	339.365897268557	6616.11659092255	2.94020970546998	56.3581698577093
20	12589	6634.88728763621	298.445970914018	6641.59614228322	2.57550355776374	58.1402038532101
21	10000	6658.94482771983	265.148679201945	6664.22163802339	2.28022296779762	59.7522338491401
22	7943.3	6683.38830301726	237.12494789098	6687.59354699583	2.03198760359539	61.6592698443253
23	6309.6	6703.62496149522	215.107512931585	6707.07528409376	1.83788998244649	63.6313038393464
24	5011.9	6727.77204689256	197.493435902688	6730.67012801649	1.68143208610802	65.7933448338878
25	3981.1	6744.96335986145	183.536117084074	6747.45998373816	1.55868165231951	67.6453788292118
26	3162.3	6761.66273999502	172.459640499725	6763.86171776436	1.46104117808812	69.6674198241067
27	2511.9	6780.38452073518	164.703462582909	6782.38464550722	1.39150778353645	71.6244538191656
28	1995.3	6799.72773332322	158.178634371724	6801.56729935804	1.33260245928516	73.6964908139342
29	1584.9	6814.67614500224	154.589779408539	6816.42934102307	1.29952221682104	75.4435248095234
30	1258.9	6833.61263234067	152.996368776531	6835.3251201201	1.28256932888921	77.3855598046202
31	1000	6845.79246986088	153.116912418532	6847.50460600593	1.28129656306283	79.0825918003356
32	794.33	6868.54857542022	155.185524828421	6870.30145481429	1.29430010257904	81.0146267954577
33	630.96	6888.49387260614	159.145916090257	6890.33201344758	1.32347762460478	82.6616567912994
34	501.19	6903.66533679025	164.220020029601	6905.61824150291	1.36265875037599	84.9637007854873
35	398.11	6925.15430535893	171.930991586983	6927.28824424821	1.42219169785247	86.7957357808618
36	316.23	6944.67992978021	182.373958532458	6947.07417463229	1.50429640352153	88.6327707762238
37	251.19	6966.72770622605	194.275343527285	6969.43597730837	1.59734580191604	90.699807771005
38	199.53	6987.95657483169	210.170375672946	6991.11641145704	1.72271341918067	92.5468397663417
39	158.49	7010.55981802288	228.022788010303	7014.26712878324	1.86292386259398	94.5688777612365
40	125.89	7034.27540296413	251.009783492689	7038.75247157869	2.04366487868641	96.4959147563712
41	100	7057.83574291775	275.1348501186	7063.19648316236	2.2324248090885	98.6979567508116
42	79.433	7094.03653467698	305.574993955882	7100.61479255585	2.46648589137567	100.449989746388
43	63.096	7127.0157358907	341.942484261555	7135.21393948189	2.74685080781458	102.507024741195
44	50.119	7170.94122434268	382.591047386101	7181.14015686348	3.05400470236218	104.549063736039
45	39.811	7221.17517043818	421.569124135059	7233.47021619477	3.3411108987848	107.206113729331
46	31.623	7279.15844822405	469.916419811279	7294.31073892248	3.69368499065135	109.763158722875
47	25.119	7341.42670983661	520.123492772886	7359.82843438872	4.05250517290288	111.875197717542
48	19.953	7404.71923134476	575.548202128999	7427.05342838065	4.44450521280068	114.417246711124
49	15.849	7488.26571277813	631.775019170418	7514.86946393724	4.82254794058658	117.169295704176
50	12.589	7569.61722566497	700.555441780358	7601.96572408031	5.28756675929734	119.616343697998
51	10	7656.44987158508	766.596599918779	7694.73163814712	5.71764378050379	122.563404690557
52	7.9433	7752.57779596794	843.484245475968	7798.3285487918	6.20938433232951	125.830455682309
53	6.3096	7852.89378625751	928.230512092757	7907.56300650345	6.74121636569296	128.847523674691
54	5.0119	7963.55976515663	1021.66170047051	8028.82785737929	7.31066127032412	131.904571666973
55	3.9811	8073.37375464517	1135.53739084263	8152.84054475464	8.00625436721894	134.976627659217
56	3.1623	8194.81552074963	1263.34185809528	8291.62433239318	8.76392644135717	137.948680651713
57	2.5119	8318.86349965092	1416.84253216005	8438.65704284526	9.66568800710518	141.030739643932
58	1.9953	8449.65733333182	1597.09298687483	8599.26828628186	10.7033629349609	144.167795636011
59	1.5849	8596.66286656791	1819.62103682007	8787.12883478248	11.951170122307	147.469859627674
60	1.2589	8750.61190617145	2073.52509204518	8992.92583310741	13.3308037771515	151.106926618492
61	1	8912.69498479387	2400.55923189021	9230.32049919086	15.0744071765915	155.464004607491
62	0.79433	9100.84408404596	2787.5951709234	9518.19572603284	17.0298645888743	159.081074598359
63	0.63096	9291.29846404231	3254.920548436	9844.93448045978	19.3063391935963	162.97814458852
64	0.50119	9497.46576238162	3810.65638725028	10233.4235722608	21.8620756716452	167.175221577923
65	0.39811	9732.45207641407	4520.74898689625	10731.1599942513	24.9149894366145	172.267315565067
66	0.31623	10014.2059648113	5412.56646074469	11383.3297763721	28.3907264927386	178.464432549421
67	0.25119	10338.7127325821	6509.25896487279	12217.1777935263	32.1945397561485	184.656545533787
68	0.19953	10717.978311981	7712.52234291903	13204.4712119085	35.7383157217936	191.368671516841
69	0.15849	11150.4505435947	9252.22980136518	14489.1788456911	39.6846274670337	199.420818496511
70	0.12589	11681.6388644515	11135.6089097264	16138.8497839791	43.6291404558168	208.792992472848
71	0.1	12202.1550590867	13473.475700643	18177.6548416404	47.8346671142973	220.045200444439
