Index	Frequency (Hz)	Z' (Ω)	-Z'' (Ω)	Z (Ω)	-Phase (°)	Time (s)
1	1000000	4074.32455752174	3953.61507004505	5677.25221582695	44.1385556748641	21.5555259455775
2	794330	4722.30688306717	3629.24219907356	5955.80231685033	37.5434170913132	23.5625609405103
3	630960	5623.11741803571	3390.59304730694	6566.2447951217	31.0888804008936	25.5245979355566
4	501190	6388.97134005482	3180.04855998791	7136.64232170305	26.4613809145142	27.6416609302115
5	398110	7194.9865943948	2959.51376712069	7779.88135072109	22.3588352633929	29.7436759249044
6	316230	7723.25560335643	2710.63001075125	8185.12016832751	19.3395362967594	31.5407089203674
7	251190	8016.41048110355	2343.26560757771	8351.86989297627	16.2940945980649	34.719769912341
8	199530	8409.48707949895	2095.73192585479	8666.69286667682	13.9936578773781	36.5018029078418
9	158490	8722.66620845446	1855.16101910986	8917.76475306105	12.0069197496321	38.2638359033931
10	125890	8970.32309130983	1632.14506530979	9117.59803219585	10.3121249603764	40.4258758979345
11	100000	9173.03078067733	1414.23151356211	9281.40853950552	8.76444209210836	42.0879038937383
12	79433	9336.85373047069	1218.46975784263	9416.02390263436	7.43514453756537	43.6849358897061
13	63096	9462.12950666878	1047.01532543872	9519.88108605751	6.31427651959278	45.2569648857371
14	50119	9562.75438829544	894.644462587442	9604.51249180832	5.34475530286622	46.8389928817429
15	39811	9648.8502696391	761.020707933235	9678.81521901404	4.50967676118586	48.3560208779128
16	31623	9708.22556926816	647.278485809642	9729.77970675514	3.81444763234058	50.0580538736156
17	25119	9754.16852794306	561.752052889851	9770.33106094368	3.29607883117008	51.5350798698864
18	19953	9804.44648371801	486.112890259858	9816.49003433341	2.83844967169768	53.0521078660563
19	15849	9844.90764841248	421.695650366052	9853.93494129671	2.45270158757498	54.6891398619232
20	12589	9870.90094744207	370.654766206754	9877.85758501936	2.15046030670639	56.3061678578406
21	10000	9902.5546435503	327.888459640577	9907.98159619128	1.89645645695946	61.2642628453226
22	7943.3	9934.64262211172	292.789077720509	9938.95615611173	1.68810541881751	62.5862838419848
23	6309.6	9955.29134181357	265.38059226792	9958.82787074567	1.52698572743941	64.0233098383567
24	5011.9	9984.69124637178	242.024924298085	9987.62410933425	1.38855488096144	65.4203378348295
25	3981.1	10004.2750005221	223.80923144662	10006.7781457446	1.28157070419714	66.8323648312645
26	3162.3	10022.3911431478	209.18459735201	10024.5739272059	1.19568818021077	68.1393888279646
27	2511.9	10044.8528484914	198.905350981532	10046.8219893902	1.13440665692664	69.5214148244753
28	1995.3	10069.2026785706	190.225510484441	10070.9993708158	1.08229250097627	70.9584388208472
29	1584.9	10093.9994198073	184.878793923948	10095.6923712796	1.04929571602667	72.2954658174715
30	1258.9	10114.7782879577	181.465748824926	10116.4059642018	1.02781355610492	74.047496813048
31	1000	10133.5947256334	179.440023228777	10135.1833128622	1.01445557309518	75.4145238095966
32	794.33	10153.6114566661	179.62683490743	10155.2002152966	1.0135099314406	76.9665508056781
33	630.96	10171.4128253149	181.784302249377	10173.0371274032	1.02388574254256	78.3535768021762
34	501.19	10195.1584968262	186.832899062489	10196.8702702142	1.04986484647336	79.8606027983714
35	398.11	10217.2091910565	194.076058439599	10219.0522637996	1.08820341848876	81.2776317947937
36	316.23	10240.0171822136	203.451915512546	10242.0381064491	1.13822100000474	82.7046557911908
37	251.19	10262.5604118868	215.561641604092	10264.8240622505	1.20330170090724	84.1166827876258
38	199.53	10290.4685069544	230.384048395829	10293.0471145515	1.28252944844953	85.518707784086
39	158.49	10310.4143790235	247.898724702071	10313.3941282627	1.37732724568982	87.0707367801675
40	125.89	10340.3808658156	266.357131296063	10343.8108340938	1.47555159121658	88.6777677761102
41	100	10374.7554133269	298.630894188279	10379.052475892	1.64876818901967	90.2797977720654
42	79.433	10403.5374653757	325.077914985407	10408.6150588966	1.78973107472312	91.9218267679197
43	63.096	10459.1405027654	374.686221038879	10465.8496941636	2.05167552488281	93.5838597637235
44	50.119	10472.0767923697	397.604138593048	10479.6221972127	2.17436351327522	95.3558917592495
45	39.811	10545.7537970779	437.830807683426	10554.8386517625	2.37739847116998	96.987922755129
46	31.623	10608.2679411576	483.997748783704	10619.3032978732	2.61228419129911	98.6249527509959
47	25.119	10664.5744255704	530.138786402732	10677.7429642869	2.84584560820398	100.401984746509
48	19.953	10738.0204079134	584.857487517956	10753.9360497201	3.11759402623602	102.37402074153
49	15.849	10824.9444561236	632.69036099457	10843.4182604498	3.34498652562536	104.851065735277
50	12.589	10893.3960039785	694.563185950029	10915.5162277729	3.64824181836346	107.418115728795
51	10	10989.9414628674	766.017303618454	11016.6054602448	3.98716304336332	110.140165721923
52	7.9433	11084.2122174426	840.639122086352	11116.0440182147	4.33707364383821	113.112218714419
53	6.3096	11175.9202718266	912.509149885313	11213.1113822547	4.66782155570953	116.309280706347
54	5.0119	11272.5655270089	1007.57421182526	11317.5058804069	5.10768755325948	119.466337698376
55	3.9811	11378.2605104215	1125.32930367811	11433.7735802636	5.64828146137368	122.383391691012
56	3.1623	11498.0861172471	1256.81898129447	11566.5715884774	6.23805284990426	125.965459681968
57	2.5119	11615.3172242987	1411.39202533633	11700.7530385985	6.92811867641296	130.01253367175
58	1.9953	11743.101157976	1604.50931548135	11852.2097074733	7.7803850191928	133.859603662037
59	1.5849	11895.05928719	1831.26678508606	12035.1972764855	8.75207998161115	138.291686650847
60	1.2589	12025.3217926148	2097.01697640896	12206.7950099641	9.89196533327652	141.78375164203
61	1	12207.2470583829	2425.68536073439	12445.9162062775	11.2387706565633	147.54285862749
62	0.79433	12412.9202487207	2825.3637976915	12730.4072869019	12.8228989049707	151.089925618535
63	0.63096	12600.6102515091	3295.1044878384	13024.3269421575	14.6548796245878	155.632006607067
64	0.50119	12811.544061838	3885.09433929093	13387.6666851848	16.8699008921946	159.759082596647
65	0.39811	13005.4351856058	4607.92030806375	13797.618415236	19.5096065802183	164.506171584662
66	0.31623	13289.2009206979	5489.18800034037	14378.2490593869	22.4433803318329	169.758271571402
67	0.25119	13575.8512380975	6678.84743469796	15129.79642609	26.1955843495425	175.575377556715
68	0.19953	13914.4073525589	7915.86006155859	16008.484390695	29.6354037929617	182.147500540122
69	0.15849	14388.7034254564	9492.14799523949	17237.6233811181	33.4126153222827	190.009642520272
70	0.12589	14780.5776323819	11516.9471635271	18737.8106275611	37.9255311705742	199.061810497417
71	0.1	15455.19606413	14136.669741335	20945.3698166511	42.4487563968053	209.774010470372
