Index	Frequency (Hz)	Z' (Ω)	-Z'' (Ω)	Z (Ω)	-Phase (°)	Time (s)
1	1000000	2864.65770556317	1972.48439311261	3478.06820679459	34.5496848170185	15.8244209600472
2	794330	3145.24341351182	1780.5517367666	3614.26626267934	29.5146064455479	17.5514529556868
3	630960	3474.58081015203	1671.14116459721	3855.5705930884	25.6857839720086	19.5434879506574
4	501190	3799.00241288448	1561.08883174441	4107.23966596779	22.3387765722326	21.495525945729
5	398110	4132.71712904497	1405.88611159185	4365.30258143334	18.7875059042883	23.6475669402956
6	316230	4376.32635308617	1289.1208871448	4562.24341858142	16.4132283617654	25.2945969361373
7	251190	4497.41817716953	1116.48645714881	4633.930542135	13.9418638964979	27.2316329312467
8	199530	4686.77117229407	1007.99000523712	4793.94074557714	12.1377852334139	28.9486629269117
9	158490	4841.42721016202	896.917461714805	4923.80730374637	10.4955602659753	30.7556959223493
10	125890	4966.03002033072	789.637805877826	5028.41744759696	9.03484183804785	32.4277299181279
11	100000	5064.68963307044	689.136347176589	5111.35891758064	7.74847098491847	34.2047619136413
12	79433	5144.30627746686	599.307763762825	5179.09807515665	6.644960751542	35.8117909095839
13	63096	5209.57173127166	519.058015445363	5235.36616166079	5.68991192877211	37.6088239050468
14	50119	5259.55748483583	448.046207285102	5278.60685599478	4.8691032758087	39.0908499013051
15	39811	5303.36792505224	386.548290808302	5317.43649981828	4.16876414335914	40.8378828968943
16	31623	5334.59905194768	333.958290270098	5345.04211252645	3.58217417344471	42.5299148926223
17	25119	5361.95406912508	293.110104618866	5369.95949452476	3.12894767523096	44.6619538872394
18	19953	5386.52295289206	258.253023525645	5392.71027834735	2.74490361388248	46.4589878827023
19	15849	5407.07008418666	229.294602672204	5411.92968451374	2.42825525271985	48.4360238777108
20	12589	5428.73720104404	206.541181478983	5432.66480262184	2.17881851214674	50.0280538736913
21	10000	5447.57756596807	188.647019785159	5450.84296557078	1.98333303629559	51.8850868690027
22	7943.3	5464.62159476373	174.659828818204	5467.41211449813	1.83066023216639	53.5171198648823
23	6309.6	5481.86200774043	164.089042635183	5484.31730353203	1.71452750686495	55.3091508603578
24	5011.9	5496.81340893235	156.967700957411	5499.05414701132	1.63570103209007	57.0661838559217
25	3981.1	5513.35985613693	152.361105050812	5515.46469570738	1.58295980788262	58.7982168515488
26	3162.3	5528.09664648328	150.480335431668	5530.14438005115	1.5592635331707	60.2352438479206
27	2511.9	5545.57887124777	150.418170508303	5547.61846590487	1.55370862704593	61.7522708440905
28	1995.3	5557.79375808001	152.738348782637	5559.89212670012	1.57419670471181	63.4393018398312
29	1584.9	5577.61290867642	157.106572580023	5579.82510784896	1.61344363899163	64.9463278360263
30	1258.9	5595.96269238082	163.07798005067	5598.33840367796	1.66924562859267	66.7233638315397
31	1000	5616.07461461163	171.681211911563	5618.69811570336	1.7509643565587	68.5103968270279
32	794.33	5637.33959405262	182.537845583206	5640.29412032241	1.85459738083355	70.4224298222005
33	630.96	5660.95402007519	195.403221188703	5664.3254528899	1.97693472233243	72.1094628179411
34	501.19	5684.35986363429	210.22757506308	5688.24601196303	2.1180336701973	74.0214968131137
35	398.11	5708.98411485507	226.59812653351	5713.47935452785	2.27296214886433	75.6585288089806
36	316.23	5739.15875783353	247.014497501649	5744.47207405461	2.46450033387923	77.5705628041532
37	251.19	5768.09409434254	269.153863011345	5774.37037980448	2.67162808770221	79.2825937998307
38	199.53	5801.05005575717	294.397289363082	5808.51543110497	2.90520916965632	81.0796297952936
39	158.49	5835.83987629544	323.859940926611	5844.81927206453	3.17637127456439	82.7466587910848
40	125.89	5872.67190399644	357.009585087599	5883.51350264734	3.4788253679732	84.6886957861816
41	100	5914.51826830332	394.100710453026	5927.63373666704	3.81214104660755	86.4907297816319
42	79.433	5963.03841206748	439.688667482444	5979.22680855182	4.21711133462024	88.5127647765268
43	63.096	6019.73713180873	493.857601091362	6039.96113118557	4.69002692317205	90.459802771611
44	50.119	6084.43973626102	547.821639300362	6109.05192748251	5.14483886607983	92.7218427658999
45	39.811	6156.91003902115	604.105490770837	6186.475949406	5.60382684996567	94.7688807607316
46	31.623	6238.88009221833	669.401373266069	6274.68907624981	6.1241282994113	97.3559287541999
47	25.119	6330.04389160218	738.08629932569	6372.92923661187	6.650685002285	99.7629757481227
48	19.953	6432.90077161306	808.558368589978	6483.5159422058	7.16400090480952	102.265020741806
49	15.849	6543.86485601176	880.479671035712	6602.83361178009	7.66314747630344	104.442060736309
50	12.589	6660.21890305481	960.96666651075	6729.18812121889	8.21023482982519	107.069108729676
51	10	6784.25326737534	1046.86415696881	6864.54783354585	8.77200719936218	109.746157722918
52	7.9433	6918.74542174532	1142.09033173776	7012.37538475877	9.37339446141542	112.838217715111
53	6.3096	7053.15926070529	1248.9134646676	7162.87933718702	10.0413660489804	115.99527570714
54	5.0119	7188.81569429019	1370.97623855237	7318.3773429052	10.7972030412386	119.597340698046
55	3.9811	7332.60438671889	1516.56087284828	7487.79299748487	11.6854001058481	123.504412688181
56	3.1623	7494.18450056571	1693.18537288786	7683.07738054751	12.731267412576	126.941476679504
57	2.5119	7658.95209087498	1902.17870824819	7891.63043790261	13.9477813096052	130.043533671672
58	1.9953	7835.42911336496	2149.62244138185	8124.95083253183	15.3414344097942	133.33559666336
59	1.5849	8029.29221567549	2450.75798329717	8394.9835126343	16.9736122366042	136.687656654897
60	1.2589	8243.16033111816	2809.19690452619	8708.68988384128	18.8186609455077	140.184723646068
61	1	8472.1352322084	3238.31936774465	9069.93868338353	20.9184451331053	144.13679763609
62	0.79433	8740.28753005218	3770.07975763177	9518.72509776863	23.3327128528796	147.923867626528
63	0.63096	9026.3670320785	4367.27883722564	10027.3838183183	25.8193557725428	152.000942616235
64	0.50119	9352.28484854145	5119.49815113715	10661.8241032084	28.6965672711911	156.203019605625
65	0.39811	9673.354210887	6043.39475278683	11405.9809673389	31.9949398605917	161.070111593337
66	0.31623	10068.5834238843	7154.92224567567	12351.8939643029	35.398307779808	166.20220558038
67	0.25119	10549.6748332032	8564.40993168882	13588.4052252033	39.0702940372651	172.039313565642
68	0.19953	11058.9003413717	10112.1393848558	14985.147303218	42.4394602133177	178.966441548153
69	0.15849	11627.4493867539	12081.3232901363	16767.7056177139	46.0967199084913	186.45357852925
70	0.12589	12260.2039512755	14598.659828421	19063.9311190747	49.9758858766208	195.430747506585
71	0.1	13181.1075291416	17577.09422561	21970.3399407193	53.1336764707447	205.937939480057
