Index	Frequency (Hz)	Z' (Ω)	-Z'' (Ω)	Z (Ω)	-Phase (°)	Time (s)
1	1000000	4412.80760369662	4888.68304935259	6585.74922877193	47.9287674328855	16.2994209588479
2	794330	5338.04946162183	4501.98361201575	6983.02430882061	40.1434850466974	17.9564489546643
3	630960	6406.06749383234	4360.8766729735	7749.51263579974	34.2447476976226	19.7534829501272
4	501190	7353.40206822641	4262.60344156008	8499.54763955095	30.0999145972746	21.5205169456659
5	398110	8587.56640239987	4150.74343423509	9538.07987870057	25.7964934583776	23.4625499407628
6	316230	9353.24750233758	3923.60026854249	10142.8732569865	22.7575957203371	25.0695799367054
7	251190	9864.7841139053	3516.88254261961	10472.9379083684	19.6215993933582	28.0436389291966
8	199530	10489.6832247594	3247.23873514198	10980.8020453337	17.2006946389478	30.0906749240283
9	158490	11020.1297638906	2948.80629839563	11407.8358420186	14.9804559609911	31.8777079195165
10	125890	11457.7472957499	2640.75208911069	11758.126750865	12.9787418745413	33.6497389150426
11	100000	11827.9046987402	2339.27922935495	12057.0127674881	11.1873719625701	35.4617749104676
12	79433	12127.9272072742	2052.84354654919	12300.4384056647	9.60715650487124	37.1438059062209
13	63096	12365.043442127	1790.40092515239	12493.9919480715	8.23890336771117	39.0708419013556
14	50119	12566.9391684641	1551.6099220522	12662.3636582626	7.0385512895152	41.1578778960863
15	39811	12728.05172884	1331.87820508533	12797.5466541524	5.97375685620933	42.7099088921678
16	31623	12846.8974978849	1139.42463285831	12897.3277780758	5.06844882828183	44.1069358886407
17	25119	12943.5356677132	990.959151196722	12981.414238083	4.37803344337171	45.4939598851388
18	19953	13038.583535584	859.141881767212	13066.8582829771	3.76989930349923	46.815982881801
19	15849	13108.3236254018	747.239326445172	13129.6045210529	3.26261205305009	48.2330108782234
20	12589	13173.7296961002	653.16012128978	13189.9117605068	2.8384291552787	49.6500378746457
21	10000	13207.0278689573	562.323053871198	13218.9936208598	2.43804207465197	51.1420628708787
22	7943.3	13256.3073853094	501.828338492393	13265.8025454596	2.16794330541959	52.5490908673263
23	6309.6	13309.538418512	451.24364347332	13317.1856538693	1.94179963878095	54.0561178635214
24	5011.9	13357.2959972047	409.872358701195	13363.5830415112	1.75758549743185	55.4381438600321
25	3981.1	13397.2171344062	374.823048630401	13402.459448333	1.60258490796472	56.8551708564545
26	3162.3	13433.1540588051	346.773801157834	13437.6292565601	1.47874902780502	58.2321958529778
27	2511.9	13466.5330102224	324.016784793758	13470.4305125055	1.37832157241591	59.5742248495895
28	1995.3	13499.0258537142	306.317913659604	13502.5008670051	1.29992433195238	61.0662468458225
29	1584.9	13536.0096235111	293.153387823832	13539.1837064343	1.24067779331486	62.6782788417526
30	1258.9	13563.9012213183	283.171802586764	13566.8567697702	1.19598280718289	64.2453058377962
31	1000	13596.8814445385	276.516404560146	13599.6928766361	1.16504945555362	65.6523328342438
32	794.33	13634.3494942777	272.879415288067	13637.0799406398	1.14657114604688	67.1793618303884
33	630.96	13660.2320176248	271.894810043738	13662.9376622698	1.14027113898922	69.5414038244248
34	501.19	13695.6156349653	274.922477694252	13698.3747207268	1.14998718010529	71.5634428193197
35	398.11	13730.8346554668	280.501453569341	13733.6994797914	1.17030863040299	73.2104718151613
36	316.23	13757.4291758869	289.172818337294	13760.4679589181	1.20414522384567	74.9975068106495
37	251.19	13794.2377758408	302.989328729153	13797.5649427628	1.25829487936263	76.5995368066048
38	199.53	13822.1827460216	319.319586613036	13825.87070903	1.32340971054532	78.0665638029009
39	158.49	13861.4006002513	339.825163649728	13865.5655399445	1.40437815891467	80.1535997976316
40	125.89	13901.4107201434	367.783079119012	13906.2750009988	1.51549394272458	82.1806397925138
41	100	13949.4719200679	393.869039116766	13955.0313388662	1.6173400339041	83.6526647887973
42	79.433	13986.3644218739	433.300101379812	13993.0746699685	1.77446607125621	85.3496967845127
43	63.096	14021.2744282022	471.592330274667	14029.2029679854	1.92636328033916	86.87172678067
44	50.119	14111.3549316842	531.492886385297	14121.3605115175	2.15698009350022	88.7587617759057
45	39.811	14159.7530409721	576.562159164469	14171.4865171124	2.33170306244199	90.3757917718231
46	31.623	14242.6800725707	630.268645399341	14256.6186108409	2.53380605962348	93.0928417649632
47	25.119	14317.1665507456	705.870381726137	14334.5565343888	2.82253282473806	95.0198747600979
48	19.953	14415.0544886959	780.452085588462	14436.166436072	3.09905139601089	96.9769117551568
49	15.849	14509.7896106187	859.769956383723	14535.2398990288	3.39106622428839	99.0639497498876
50	12.589	14620.3162875453	950.707185941954	14651.194234644	3.72050275536641	101.160990744593
51	10	14744.4657513561	1036.35370820802	14780.8423068994	4.02057283765783	103.643038738326
52	7.9433	14872.798876528	1141.11850373775	14916.5109144607	4.38743449877179	106.12508373206
53	6.3096	15018.023028063	1253.07864776039	15070.209745352	4.76961558551101	109.322142723988
54	5.0119	15158.989732036	1377.74874246169	15221.4704050998	5.19314973249209	112.179192716775
55	3.9811	15322.6564434617	1523.93139618571	15398.2520886183	5.67973590526412	115.291252708918
56	3.1623	15489.8654077157	1690.88071787417	15581.8807578298	6.22976671999782	118.178304701628
57	2.5119	15685.353645623	1886.66572248356	15798.4121523858	6.8587009818674	120.895356694769
58	1.9953	15880.7915276749	2107.91876189173	16020.0768116824	7.56089339185789	123.967412687012
59	1.5849	16092.5746733171	2374.7771015087	16266.8535955217	8.39453784182127	127.419475678297
60	1.2589	16336.7844550754	2745.94371338528	16565.9510203511	9.54128789936158	132.838578664615
61	1	16591.2304972433	3054.16480015515	16869.998578517	10.4304126736445	138.237679650983
62	0.79433	16866.3819107381	3504.26587223702	17226.5701189238	11.7371485850575	141.599739642495
63	0.63096	17161.7540834407	4016.34109937439	17625.4588322409	13.1717949018914	145.521812632593
64	0.50119	17454.3388182897	4667.13176268305	18067.5416831925	14.9701520295301	149.623886622236
65	0.39811	17857.9990540854	5457.28843974474	18673.2462986564	16.9928116981493	154.510976609897
66	0.31623	18216.802346508	6421.83329784562	19315.5851745956	19.418702465128	159.718075596751
67	0.25119	18707.9968282336	7452.18909065074	20137.6331173257	21.7194909668296	165.575181581963
68	0.19953	19247.2203116727	8928.48643286881	21217.2891696369	24.8858527681251	172.267307565067
69	0.15849	19799.968458661	10610.657766035	22463.855617233	28.1865306058916	180.064452545381
70	0.12589	20571.7147557926	12529.0663356447	24086.7795945552	31.3432270741742	189.011616522792
71	0.1	21173.7774309798	14746.3715518811	25802.7968376065	34.8550896546088	199.653813495923
