Index	Frequency (Hz)	Z' (Ω)	-Z'' (Ω)	Z (Ω)	-Phase (°)	Time (s)
1	1000000	2493.10686369183	1660.75418421119	2995.6111720586	33.6691075026288	83.7686737885044
2	794330	2738.57209231354	1520.58495438296	3132.4041419163	29.0411092025516	85.8657137832099
3	630960	3017.08320739033	1428.20980345165	3338.04947881126	25.3316740290831	87.6577457786855
4	501190	3278.16064979223	1323.65671766332	3535.3082400353	21.9878861823898	89.4847817740726
5	398110	3557.40398456707	1181.22685639991	3748.3889867107	18.3686141969681	91.4168167691947
6	316230	3757.92014264074	1082.24198913768	3910.65359262588	16.0658512879804	93.1238457648849
7	251190	3854.78651850027	944.551425913304	3968.82306224481	13.7681056922317	95.0008827601458
8	199530	4016.32449600674	854.228284776273	4106.16224956292	12.0072632772471	96.7279147557855
9	158490	4146.03207133323	761.30058675812	4215.34820862073	10.4048302829054	98.5949487510717
10	125890	4252.34427935748	671.497323632227	4305.03664628184	8.97360656401682	100.341979746661
11	100000	4337.23487987918	587.841944980447	4376.8898267513	7.71848296540458	102.324018741657
12	79433	4407.82762554577	512.501814812147	4437.52211112352	6.63204929999499	105.381072733938
13	63096	4463.42599860559	444.606476919384	4485.51519497448	5.68852680794614	109.368147723872
14	50119	4509.26742054584	385.103466945386	4525.68197626053	4.88136780400443	111.485187718527
15	39811	4545.73210930363	332.659782301084	4557.88799119884	4.18548327804372	113.812230712652
16	31623	4575.5029262497	288.711088740625	4584.6026131914	3.6105375573484	116.024271707067
17	25119	4601.36846508831	253.372389028562	4608.33910634094	3.15178467994209	117.751304702707
18	19953	4624.2813998218	223.323341237482	4629.67080681546	2.7648731083053	120.113347696743
19	15849	4642.07642262268	198.194576400939	4646.3054789353	2.44477238331662	121.735377692648
20	12589	4660.93069476384	177.886280756253	4664.32401000113	2.18565550436014	123.622412687883
21	10000	4676.70750347175	162.196558560183	4679.51929119196	1.98632369268858	125.37444468346
22	7943.3	4692.70732434956	149.354381246454	4695.08346711765	1.82293236213062	127.166478678936
23	6309.6	4708.35833968635	140.012346543086	4710.43965167568	1.70330136150146	128.763537674903
24	5011.9	4720.57620233351	132.79726093964	4722.44373122122	1.61139574162486	130.395537670783
25	3981.1	4735.43640041046	128.063833158537	4737.16774536174	1.54911364367816	132.077566666536
26	3162.3	4748.70185155343	125.561056170198	4750.36154979529	1.51461240729552	133.669597662517
27	2511.9	4761.06591554439	124.587155196591	4762.69572945811	1.49896884982416	135.456628658005
28	1995.3	4775.16264572841	126.0045045973	4776.82482705183	1.51154042249045	136.883655654402
29	1584.9	4789.48196084614	128.842267445724	4791.21464590673	1.54094706804466	138.585688650105
30	1258.9	4805.37509572044	133.29214006368	4807.22337791505	1.58887061954672	140.18771964606
31	1000	4820.76539668713	141.429467394706	4822.83954783316	1.68043605008072	141.919748641687
32	794.33	4836.2122333089	150.51145648711	4838.55375749206	1.78257037387693	143.556780637554
33	630.96	4853.19717909135	162.048864178257	4855.9018414216	1.91240278205502	145.34881363303
34	501.19	4873.48161682444	176.57678750178	4876.67944726842	2.07504240700816	147.05584662872
35	398.11	4893.20564871617	193.018858080912	4897.01110885025	2.25893535189862	148.682875624612
36	316.23	4916.11572281581	213.930543905432	4920.76824060354	2.49172104388118	150.419909620226
37	251.19	4944.27649314882	237.126122945544	4949.95947850962	2.74578568456141	152.156941615841
38	199.53	4970.69592274718	263.582470250017	4977.67954724272	3.0353962401947	153.90397261143
39	158.49	5002.4066822778	294.448371590483	5011.06500241514	3.36861970155757	155.901007606388
40	125.89	5039.06869069693	327.862166871431	5049.72344490544	3.72264774268298	158.163049600677
41	100	5083.93402946879	365.278314918945	5097.03967645346	4.10961327523618	159.755081596657
42	79.433	5128.48968612284	405.421125759575	5144.48955192646	4.51998795972754	161.492111592272
43	63.096	5182.55668188182	448.233741395076	5201.90419441217	4.94314923570439	163.154144588075
44	50.119	5242.20123102282	500.730505494501	5266.0616010136	5.45628902512863	165.10118058316
45	39.811	5312.34384196873	550.677145171569	5340.80915344458	5.91813885331053	166.743211579014
46	31.623	5383.10186614005	605.844332274072	5417.08713758502	6.42136573046371	168.645244574212
47	25.119	5470.69926949668	665.179043481485	5510.99026102918	6.93252965915746	170.342277569927
48	19.953	5558.2280094903	731.189625985935	5606.11602400734	7.49427523991957	172.504317564468
49	15.849	5651.65751759208	800.784361277349	5708.10724228456	8.0645667739643	174.891360558442
50	12.589	5753.46485462531	877.470186387461	5819.99241935997	8.67145152166521	177.26840655244
51	10	5864.8612252834	961.625751543017	5943.17434355273	9.31158690204668	179.810452546022
52	7.9433	5979.33655722367	1059.64678898963	6072.50500057163	10.0495114108687	182.667503538809
53	6.3096	6105.09187933082	1166.31107187077	6215.49904444039	10.8154161141053	185.299554532164
54	5.0119	6235.75359358352	1291.97746186569	6368.18880387969	11.7054180669043	188.086603525127
55	3.9811	6377.79748963428	1439.10749912549	6538.1443248696	12.715462925843	190.908656518002
56	3.1623	6523.63957735324	1609.05649340364	6719.14697965255	13.8554578924454	193.910712510423
57	2.5119	6686.69782512618	1812.84690582754	6928.08355236249	15.1689653420767	196.787766503159
58	1.9953	6854.52286776084	2046.33344230483	7153.45820577372	16.6223472489308	199.719819495756
59	1.5849	7038.08211326924	2340.07811334161	7416.91077266411	18.391349107003	202.736877488139
60	1.2589	7224.03476277759	2683.71532282397	7706.42629159451	20.3799368042499	206.083977479688
61	1	7445.83250047944	3099.09813894627	8065.03756345971	22.5980141046273	209.75100447043
62	0.79433	7680.01956264744	3614.20366744447	8487.9425441279	25.201592809393	213.488074460994
63	0.63096	7930.70311844348	4226.16134461973	8986.46157637405	28.0525326754457	217.260145451471
64	0.50119	8211.54488761706	4985.99197284019	9606.74686845535	31.2658277502984	221.397220441026
65	0.39811	8495.67706177145	5886.41481357022	10335.6861453572	34.7169956389163	225.914306429621
66	0.31623	8841.77462693858	7031.65681965474	11296.9542879031	38.4944101983253	230.92139741698
67	0.25119	9266.07204398631	8468.44412137704	12552.8736535197	42.4247994477531	236.768507402217
68	0.19953	9748.4344475424	10091.8012046308	14031.2660060245	45.9914953894044	243.885639384248
69	0.15849	10348.3017757778	12204.8525580042	16001.4304237211	49.7059147749807	252.167791363338
70	0.12589	10999.9781925571	14674.8255387889	18339.8480045671	53.145450406428	261.119957340735
71	0.1	11668.6336579642	17777.7316592196	21265.1064984635	56.7206129725997	271.817155313728
