Index	Frequency (Hz)	Z' (Ω)	-Z'' (Ω)	Z (Ω)	-Phase (°)	Time (s)
1	1000000	2729.9450869255	1812.10869814156	3276.63518132687	33.5757866311831	20.9345159471454
2	794330	2982.25872367468	1643.50329818508	3405.13879101557	28.858872122331	22.6665479427725
3	630960	3282.25663350573	1526.90335523413	3620.03348940553	24.9478139579582	24.4285789383238
4	501190	3565.50051415021	1425.5781087823	3839.93058018563	21.7927910537829	26.2806129336478
5	398110	3863.22279670695	1275.40380141823	4068.30987434197	18.2701156451904	28.0176459292622
6	316230	4081.22964495518	1165.88893842776	4244.49436701348	15.9431027615983	29.7396799249145
7	251190	4186.30320588876	1003.43824295313	4304.88360342709	13.4792383932094	31.556710920327
8	199530	4357.34670396309	904.730788587779	4450.28179988152	11.7298495036	33.1837439162191
9	158490	4495.09729670392	804.22189583441	4566.47266110008	10.14351968047	34.820774912086
10	125890	4605.52158846963	707.624687140258	4659.56669656204	8.7350164416323	36.3828019081423
11	100000	4691.71491117702	617.516750353747	4732.17875240657	7.49808851709203	38.3448389031886
12	79433	4764.84429271103	536.88897957865	4794.99644527229	6.428808491286	39.9418658991565
13	63096	4821.29087729919	465.029619463251	4843.66578848155	5.50932673917428	41.7138998946825
14	50119	4869.81946079154	402.285724467461	4886.40720620113	4.72236353458995	43.3109288906504
15	39811	4906.05994716588	347.03376927644	4918.31847710206	4.04611989445755	45.0979618861386
16	31623	4934.03560180039	300.478375385346	4943.17656713858	3.4849579914727	46.7349948820055
17	25119	4962.79426754712	264.503736046419	4969.837941863	3.05082612427927	48.6120288772664
18	19953	4983.72224483004	233.386482453737	4989.18396772517	2.68118838381852	50.2340568731712
19	15849	5004.595129998	208.651826877106	5008.94280263399	2.38739582603085	52.1310948683816
20	12589	5022.97544635349	188.475367488292	5026.5102505436	2.14888155760213	53.8481238640466
21	10000	5036.54388374185	172.533840783716	5039.49821103977	1.9619796796421	55.6751568594337
22	7943.3	5054.16307210676	160.931350555268	5056.7245583519	1.82375850251863	57.2171868555405
23	6309.6	5070.45656402427	152.60926366802	5072.75264082668	1.72395281703722	59.0342228509529
24	5011.9	5085.58283910103	146.881034841011	5087.70349487417	1.65434814788247	60.7312508466683
25	3981.1	5099.6275801682	143.775725698	5101.65393923502	1.61493374851093	62.4082838424342
26	3162.3	5114.58178274846	142.750836418641	5116.57352275139	1.59874217895546	64.1203138381118
27	2511.9	5131.14721864876	143.952392025927	5133.16608640486	1.60698988436343	65.9823488334106
28	1995.3	5147.06626124167	146.949260215394	5149.16354204157	1.63535604222871	67.6843798291134
29	1584.9	5166.5389091923	152.234641806777	5168.78125735303	1.68776034209726	69.3614118248793
30	1258.9	5182.66975570006	159.514632316432	5185.12398256504	1.76291974506856	71.0184448206957
31	1000	5200.87265427429	168.187836486893	5203.59140539688	1.85220765190968	72.6954748164616
32	794.33	5220.39169854821	179.444748289257	5223.47488784618	1.96869906026391	74.5075068118866
33	630.96	5247.01329576104	192.892129263772	5250.55767508796	2.10537491822887	76.0795358079176
34	501.19	5269.77837463781	207.730182593708	5273.87105896236	2.25738216777731	77.8465698034563
35	398.11	5294.65837067025	225.369267386294	5299.45266690729	2.43734665080534	79.3335957997019
36	316.23	5324.41186622406	245.164013502291	5330.05319998817	2.63633786983011	81.1206317951901
37	251.19	5355.49414038533	267.644899114005	5362.17784857266	2.86101993716418	82.63765879136
38	199.53	5387.61978051413	292.644098819102	5395.56183061234	3.10913006874423	84.4296927868355
39	158.49	5423.11738936411	321.883015336677	5432.66149271107	3.39674133020984	86.1517227824878
40	125.89	5461.64958837314	355.027228844873	5473.17645973504	3.71920296015342	87.938756777976
41	100	5504.53814761586	391.482412686489	5518.4416910937	4.06802277459246	89.6507857736535
42	79.433	5555.7305072795	434.734226362342	5572.71346088124	4.47426023663278	91.4828227690281
43	63.096	5610.80115806663	486.062682510643	5631.81556575597	4.95116193134711	93.3748587642511
44	50.119	5673.06500159036	533.509203114044	5698.09604886376	5.37243747048266	95.436893759045
45	39.811	5750.20442776955	593.467520728227	5780.74862446896	5.89252391425789	97.1739257546594
46	31.623	5827.18810031135	656.058211698946	5864.00320033574	6.42363712106357	99.085963749832
47	25.119	5918.05822722809	719.225859984326	5961.60205133924	6.92921631732656	100.827997745434
48	19.953	6017.59408091919	788.122514892343	6068.98472738183	7.4615419215652	103.180037739495
49	15.849	6125.28262847627	858.922208941703	6185.21096161857	7.98229458092667	105.572083733456
50	12.589	6241.9711808404	933.561533857067	6311.39773425346	8.50621927220211	108.094128727089
51	10	6359.91907620793	1016.30718644425	6440.60951720656	9.0790342090579	110.756179720368
52	7.9433	6484.10928144622	1108.30765962021	6578.14708273613	9.69964423968784	113.553230713306
53	6.3096	6613.24142965008	1213.19518904582	6723.60058105507	10.3952917034225	116.235280706534
54	5.0119	6748.60589985152	1336.31473827739	6879.63797530423	11.2004475892454	118.852329699927
55	3.9811	6891.33671960939	1482.35728352252	7048.96481045614	12.1396008836902	121.789383692511
56	3.1623	7041.66346134672	1656.15980549284	7233.80187758799	13.2351060575962	124.711435685134
57	2.5119	7202.76215959965	1864.69077567338	7440.21870758125	14.5143878703185	127.638492677744
58	1.9953	7374.12770749939	2115.1109621256	7671.47012173117	16.0044071787933	130.580546670316
59	1.5849	7567.82488073718	2417.5980483663	7944.60532367526	17.7164689363862	133.63260166261
60	1.2589	7772.50908328037	2771.62080004446	8251.89549793954	19.6258685404111	137.039663654008
61	1	8005.10386083851	3208.17696460718	8624.0412370911	21.8392561117687	140.78173564456
62	0.79433	8274.09276300914	3731.02345227492	9076.40606475414	24.2719658600555	144.283800635718
63	0.63096	8565.98056930415	4336.88066282971	9601.27892508714	26.852692710275	148.050867626207
64	0.50119	8861.47822857463	5097.22302245512	10222.88995031	29.9080024045158	152.457950615081
65	0.39811	9243.47494488871	5997.54918476196	11018.7306564969	32.977176320536	157.160038603209
66	0.31623	9648.12889249079	7088.42680295168	11972.1420667698	36.3045186271335	162.247133590365
67	0.25119	10060.3952062436	8423.80453595933	13121.4341657403	39.9402270569249	168.019237575792
68	0.19953	10654.3696995944	10033.1161036259	14634.8560787071	43.2799014360116	174.706361558909
69	0.15849	11263.9047022303	12016.6194168836	16470.4186756484	46.8518637003746	182.498508539236
70	0.12589	11952.7453947559	14353.9607552644	18678.9804816946	50.2153742568804	191.61067751623
71	0.1	12584.5307446472	17332.5495509703	21419.3297747575	54.017969749554	202.112868489714
