Index	Frequency (Hz)	Z' (Ω)	-Z'' (Ω)	Z (Ω)	-Phase (°)	Time (s)
1	1000000	2582.40697825815	1993.18470808595	3262.14823113605	37.6621139733769	21.6865059452468
2	794330	2902.68514896929	1858.57225287441	3446.71900409673	32.6311967989446	23.2385319413283
3	630960	3261.03009924759	1783.20087897755	3716.73548735783	28.6707801637098	25.0805829366776
4	501190	3604.04194525094	1680.31979677077	3976.50511914017	24.9964407124121	26.9125999320522
5	398110	3974.04918493137	1551.1635842984	4266.04915460513	21.3218549814379	28.7696319273637
6	316230	4244.80517330607	1437.83510391934	4481.71180972056	18.7126885594349	30.2566619236093
7	251190	4399.6936076234	1263.88500979307	4577.63139177259	16.0275904980366	32.1386939188576
8	199530	4618.62707415962	1153.2677405734	4760.4351199872	14.020024526396	33.7457259148002
9	158490	4798.96160614777	1036.34691117119	4909.58729605397	12.18602330337	35.4777569104273
10	125890	4942.82090013204	920.06875515663	5027.72363649769	10.544496185802	37.0647889064204
11	100000	5065.22190736077	810.182441507582	5129.60705701077	9.08748579554034	38.8818219018328
12	79433	5167.27409781055	709.95535131066	5215.81807607958	7.82314725970637	40.6338538974094
13	63096	5244.49052323492	618.323736576198	5280.81481321912	6.72411272456734	42.4208858928976
14	50119	5313.57618482944	536.651073541409	5340.60729193972	5.76710122406489	44.1129178886256
15	39811	5367.31434247529	463.970426172748	5387.3306755112	4.94057652836246	45.7899468843915
16	31623	5410.73582499034	401.259164050105	5425.59407664894	4.2412805137843	47.4119768802963
17	25119	5444.12375047742	350.540621281108	5455.39752334149	3.68412102280042	49.2040108757718
18	19953	5477.33144173795	306.920272437872	5485.92378513268	3.20719420787573	50.911041871462
19	15849	5504.10143747478	270.788599816837	5510.75848679677	2.81654411241562	52.5430748673415
20	12589	5525.35632971261	240.434289749127	5530.5850701334	2.4916374778454	54.3401058628044
21	10000	5549.37271872157	216.878958845796	5553.60910166364	2.23807786826751	55.9871388586461
22	7943.3	5569.72691979098	196.37474645505	5573.18768767835	2.01927053435275	57.8341708539828
23	6309.6	5585.76609605314	180.271827326382	5588.67433400305	1.8484896891416	59.4011988500264
24	5011.9	5605.73506460502	167.970490147358	5608.25103754304	1.71629970460955	61.2582358453378
25	3981.1	5623.12958312235	158.863812960386	5625.37323380894	1.61828130148627	62.845264841331
26	3162.3	5638.06513215918	151.116479922371	5640.08994830519	1.53532529961088	64.7222978365919
27	2511.9	5657.04834417349	146.255221178298	5658.93864236377	1.48097383916381	66.309327832585
28	1995.3	5673.34648478328	143.659278744152	5675.16504824063	1.45052163193307	68.1213608280101
29	1584.9	5687.89239571236	142.646204778441	5689.68082100746	1.43661519842236	69.6433908241673
30	1258.9	5707.50400359922	143.50083407969	5709.30770238237	1.44025484785486	71.3754208197944
31	1000	5722.60422763172	145.187742304401	5724.4457047494	1.45333494519031	73.062452815535
32	794.33	5739.77023983594	149.097980966254	5741.70642004923	1.48799760623201	75.0744898104551
33	630.96	5761.95104476871	154.254393640976	5764.01546322256	1.53351098345119	76.7165198063094
34	501.19	5780.03389860329	161.098142111875	5782.27848519899	1.59650528473766	78.5785568016082
35	398.11	5796.27987266507	170.072957319065	5798.77445440616	1.68067585800641	80.0505827978917
36	316.23	5817.05814877725	181.451213571847	5819.88746018018	1.78664516157691	81.8276177934051
37	251.19	5836.72220361435	195.40081081481	5839.99208552819	1.91742242148903	83.5646487890195
38	199.53	5861.84955502528	211.651482405306	5865.66931865022	2.06785773867698	85.3866827844193
39	158.49	5882.18525718429	232.035303667283	5886.76004114183	2.25898261004996	87.0537137802105
40	125.89	5908.41641290575	255.484345139307	5913.93750042265	2.4759699731466	88.9357457754588
41	100	5938.30083077336	285.489592461409	5945.15946499061	2.7524311101842	90.6677807710859
42	79.433	5968.16112998943	316.70670170573	5976.55840835025	3.03761119077305	92.4898137664857
43	63.096	6013.44069879707	358.925295395097	6024.14279425907	3.41577084658613	94.5068487613931
44	50.119	6052.52652016613	396.30861738481	6065.48743280602	3.74627740596682	96.808893755581
45	39.811	6097.58303534595	449.370725561413	6114.11914521874	4.2148806995345	98.6209287510061
46	31.623	6158.49009210718	504.933660347223	6179.15513771372	4.68718800797372	100.742966745648
47	25.119	6219.58533246707	563.603595580596	6245.06931272911	5.17786142570211	102.725001740644
48	19.953	6291.27614916571	630.670370070174	6322.8079759507	5.72450383681142	104.992045734921
49	15.849	6373.12927073537	702.739739765654	6411.75637741718	6.2923589006553	107.384090728881
50	12.589	6457.49355478808	780.584586355204	6504.50115739747	6.89249695081842	109.796133722791
51	10	6549.47673489536	868.79168051656	6606.84830195687	7.55620257097286	112.253179716588
52	7.9433	6646.91678576537	967.782403070232	6717.00123094985	8.2839806459842	115.090230709425
53	6.3096	6753.72906780988	1084.2472041116	6840.20820743082	9.12047108515296	117.872284702401
54	5.0119	6865.3395397069	1218.3510559747	6972.60828464196	10.0631732528452	120.444329695907
55	3.9811	6991.25685115109	1378.12315205586	7125.79088810494	11.1512317983406	123.351385688568
56	3.1623	7115.11945339678	1564.58687536787	7285.11200508809	12.4017390952936	126.228436681304
57	2.5119	7261.31193281077	1791.73066191444	7479.10086510567	13.8608666618135	129.10548967404
58	1.9953	7416.30421631743	2055.64731588317	7695.92451342042	15.4922815169781	132.152546666347
59	1.5849	7593.86305102821	2376.32300744596	7956.98856813861	17.3762983943269	135.329605658326
60	1.2589	7771.43135719745	2754.20703120504	8245.04710176789	19.5144036360849	138.646669649951
61	1	7995.64646642112	3211.14375053526	8616.36852755232	21.8809630174183	142.293734640743
62	0.79433	8248.56116727027	3762.70421306323	9066.23981180748	24.5208077524969	145.810800631863
63	0.63096	8510.29430217221	4424.52011310987	9591.74057931607	27.4700173414468	149.682872622087
64	0.50119	8800.84153561617	5249.071986933	10247.320062291	30.8130513088411	154.079952610986
65	0.39811	9109.98919348047	6202.72335389134	11021.1469507597	34.2497958551654	158.632036599493
66	0.31623	9500.66784438289	7402.22595133371	12043.904621172	37.9231156468581	163.949138586068
67	0.25119	9887.30717944006	8906.91137559348	13307.5885686808	42.0138863101299	169.686241571583
68	0.19953	10435.3158729887	10642.3373127571	14904.8703733898	45.5627321630897	176.543368554271
69	0.15849	10990.5015386807	12799.8623620798	16870.9098912871	49.3492208688926	184.220513534888
70	0.12589	11618.8674842848	15433.5979175177	19318.2304131868	53.0264881679782	193.367679511794
71	0.1	12295.2015762672	18819.2752474495	22479.7042382747	56.8422004107292	204.034877484861
