Index	Frequency (Hz)	Z' (Ω)	-Z'' (Ω)	Z (Ω)	-Phase (°)	Time (s)
1	1000000	2697.13111492093	1977.38077472587	3344.33117070216	36.2467175579979	48.2740228781198
2	794330	2991.59377982119	1822.51485586117	3503.02636919843	31.3502748024243	50.1860548732924
3	630960	3353.64235293873	1729.51498683425	3773.34587880685	27.2807196851092	51.913088868932
4	501190	3681.90217205791	1623.72756695483	4024.03961415563	23.7975927491527	53.7801218642182
5	398110	4027.31647660156	1496.93670962972	4296.52155997657	20.3898900144642	55.4071548601104
6	316230	4289.67502308122	1382.69530240694	4507.01210370519	17.8657409193681	57.1641848556743
7	251190	4429.90645224956	1205.37709467038	4590.96995372855	15.2216560280341	58.8112178515159
8	199530	4640.35898719298	1096.29691204901	4768.10218529247	13.2925453111154	60.6932508467643
9	158490	4811.38589751334	981.64816429421	4910.50581643607	11.5315644998665	62.4202818424039
10	125890	4949.53912326358	868.924371735369	5025.2330390254	9.95718702921965	64.19231583793
11	100000	5062.79734309144	762.745128097883	5119.93135380259	8.56756895523657	65.9493488334939
12	79433	5153.54771967362	666.024489183456	5196.40671225273	7.36386796022643	67.7263798290073
13	63096	5226.64596566588	578.624053929548	5258.5771693679	6.31729496682375	69.4684138246091
14	50119	5288.40590808617	501.36203913488	5312.11831033216	5.41568282279214	71.2004468202362
15	39811	5337.10322707485	432.845429315191	5354.62659969225	4.63660812501942	73.0424788155855
16	31623	5374.96104741884	373.6763014584	5387.93469146959	3.97689973261512	74.8695118109727
17	25119	5406.78976357326	326.980480946811	5416.66795940094	3.46079888059882	76.5515428067259
18	19953	5436.20976133546	286.954143039666	5443.77803087585	3.02159358230689	78.3285788022393
19	15849	5461.36941869955	253.787537509662	5467.26293877493	2.66059673570167	80.0356077979295
20	12589	5483.63045431692	225.990019885657	5488.28520109878	2.35992403825557	81.667637793809
21	10000	5502.09727928584	203.683781113355	5505.86610383991	2.12008144031669	83.4846737892215
22	7943.3	5521.78982480869	186.309043964838	5524.93202937592	1.93246649780309	85.1467057850252
23	6309.6	5537.87254664751	172.164430272636	5540.54807162282	1.78066921096492	86.9337367805134
24	5011.9	5555.14718290276	161.563302168669	5557.49610205172	1.66589405648886	88.5507647764308
25	3981.1	5572.80831054152	153.671322902501	5574.92666691887	1.57954250047052	90.337800771919
26	3162.3	5589.46167909838	148.096707696087	5591.4232979573	1.51773677090512	91.8998287679752
27	2511.9	5602.59313688136	144.508766472716	5604.4564982715	1.47751350345872	93.7118617634003
28	1995.3	5619.64428159813	143.095699054238	5621.46584360222	1.45863472874806	95.3188907593429
29	1584.9	5637.80125627712	143.701760522598	5639.63236401604	1.46009439464384	97.1109247548185
30	1258.9	5651.33803868453	145.157912321409	5653.2019641078	1.47135198340845	98.6779557508621
31	1000	5668.84073381855	149.799407722825	5670.81961694732	1.51369165519111	100.534989746174
32	794.33	5687.43890168302	155.460127713996	5689.56317406585	1.56572967632228	102.227018741902
33	630.96	5704.73403884446	162.896721015116	5707.05929491433	1.63561685719958	103.954051737541
34	501.19	5727.4844899391	173.314210770795	5730.10614196177	1.73324669098989	105.601082733383
35	398.11	5745.98490917647	184.589918061569	5748.94912260786	1.83999564600405	107.348114728972
36	316.23	5766.50935755533	199.040755822491	5769.94344801156	1.97687522851538	109.400151723791
37	251.19	5788.42928669904	216.851604426942	5792.48981228777	2.14546527630038	111.402190718737
38	199.53	5811.3895895695	237.855818599743	5816.25518286453	2.34376511881352	112.904217714944
39	158.49	5839.73226104915	262.324725525211	5845.62119388181	2.57203611461021	114.866254709991
40	125.89	5869.10899385461	291.370584127256	5876.33705628257	2.84210261906267	116.483282705908
41	100	5898.95540968791	325.447197479113	5907.92610006534	3.15782461263307	118.145313701712
42	79.433	5938.70094881959	364.314396297171	5949.86503534829	3.51045654223549	119.827345697465
43	63.096	5984.48807176296	409.023294865854	5998.44959442155	3.90992825031767	121.794380692499
44	50.119	6033.71604967228	460.048616343425	6051.22913939576	4.36015587262196	123.776420687495
45	39.811	6085.76964722734	515.520466205092	6107.56527187306	4.84191843583068	125.503451683134
46	31.623	6152.07630595748	574.383586792774	6178.83155451744	5.3339112485858	127.465487678181
47	25.119	6223.7122474515	642.975778744591	6256.83721948477	5.89833930685534	129.582527672836
48	19.953	6302.14149046909	721.70689648948	6343.33100274079	6.5329231689345	131.649566667617
49	15.849	6396.9900038186	806.009056339717	6447.56789090714	7.18132067857564	134.016607661641
50	12.589	6489.5131547475	897.86551788304	6551.33142756831	7.87722717349698	136.403653655614
51	10	6594.72399388216	1001.32044471339	6670.30937726925	8.63365143793032	139.075702648868
52	7.9433	6709.34160486278	1122.91145923109	6802.66087027827	9.50126873360629	141.69275164226
53	6.3096	6832.87195215983	1256.83234043197	6947.50074822366	10.422433629596	144.484801635211
54	5.0119	6967.97435113611	1416.60350942998	7110.51559741064	11.4917335846853	147.366856627934
55	3.9811	7114.21337829263	1601.76663827272	7292.30336418895	12.6885749393601	150.013903621251
56	3.1623	7272.18545670924	1814.34037605655	7495.09921995449	14.0087591593304	153.025959613647
57	2.5119	7451.8121208971	2067.99086660923	7733.43973336109	15.5101412578998	156.088015605916
58	1.9953	7646.90548950704	2365.47466792274	8004.41340574293	17.1887995201295	159.12007259826
59	1.5849	7863.41174590116	2721.38352524013	8321.00790631909	19.08980459328	162.182129590529
60	1.2589	8101.91020775311	3134.35218294256	8687.06582346484	21.1497509522171	165.504189582142
61	1	8363.00955735342	3626.73813011055	9115.54487240244	23.4446527794799	169.166257572896
62	0.79433	8671.57865916486	4227.49523802429	9647.17536015602	25.9897708633992	173.263333562552
63	0.63096	9000.88682211659	4925.43147748788	10260.4014942877	28.68819493604	177.140406552763
64	0.50119	9354.15870808559	5795.60033734844	11004.0569067198	31.7813088580473	181.387486542041
65	0.39811	9724.52669836523	6815.46248243452	11875.055720151	35.0248030773487	186.009572530371
66	0.31623	10171.2434472055	8066.13071140059	12981.3966088292	38.415574012445	191.146664517401
67	0.25119	10679.9336793043	9656.49065673325	14398.2219457097	42.1189853458359	197.118776502323
68	0.19953	11271.3773839443	11461.6624537418	16075.2497440881	45.4795784843391	203.695898485717
69	0.15849	11940.8893617978	13698.9454947715	18172.6703161483	48.9224816390644	211.388042466296
70	0.12589	12664.1265200526	16513.8281394199	20810.7332964073	52.5161186265192	220.31020644377
71	0.1	13716.161790191	19975.8496245827	24231.5427176776	55.5250583368194	230.807401417267
