Index	Frequency (Hz)	Z' (Ω)	-Z'' (Ω)	Z (Ω)	-Phase (°)	Time (s)
1	1000000	2836.63213739599	2924.09321695405	4073.91740519422	45.86981507502	16.7104299578102
2	794330	3339.23707893465	2678.86405710889	4280.98317046469	38.7379230508877	18.6524659529071
3	630960	4105.45999674613	2752.41252100666	4942.7296578588	33.8389797499903	21.0095099469561
4	501190	4709.97251186117	2596.65651628573	5378.33302483743	28.8684022162792	23.7565599400205
5	398110	5324.34851258291	2379.89726797416	5832.03207206157	24.0838673293908	25.9636009344482
6	316230	5730.06117680464	2154.403617241	6121.68735202189	20.6053899329741	28.1906409288255
7	251190	5944.55639245577	1865.80465366122	6230.48775849135	17.4253920214413	30.0726759240738
8	199530	6246.71854528842	1690.31669750583	6471.37258407498	15.1412244153391	31.9097109194357
9	158490	6495.33777280945	1516.55995197617	6670.03499772101	13.14222984451	34.056748914015
10	125890	6698.92684615698	1349.82986129985	6833.56872685271	11.3925146889207	35.9737839091749
11	100000	6872.5478136589	1192.43796273569	6975.22915365516	9.84324655134351	37.9758219041203
12	79433	7022.58312978709	1047.92898101738	7100.34005974547	8.48720597188243	40.0478608988889
13	63096	7139.4654135409	912.867227419146	7197.58938576261	7.28642392500221	42.0748978937711
14	50119	7241.13509027104	791.569864437421	7284.27211503251	6.2385577367889	44.1719368884766
15	39811	7328.92418460927	681.487713595344	7360.54041545402	5.31243223755848	45.9539688839774
16	31623	7388.65309379891	584.71295377428	7411.75308404264	4.52476384588385	48.2310108782284
17	25119	7438.7431324801	506.655910998478	7455.97744116555	3.89642177585365	50.2280498731864
18	19953	7483.29221901536	438.761493993788	7496.14394764318	3.3555329830655	52.8400968665916
19	15849	7521.20539219846	381.780545711158	7530.88885435967	2.90587138235742	54.8771368614485
20	12589	7554.50044077096	334.270758353002	7561.89221355994	2.53356515098913	56.4991648573533
21	10000	7582.26473805076	294.687145054198	7587.98913226344	2.22569860512743	58.5762038521093
22	7943.3	7608.20496024215	262.41520534315	7612.72910703176	1.97541021992253	60.6032408469915
23	6309.6	7631.50533874596	236.123560368962	7635.15737041939	1.77220196576508	62.8752838412552
24	5011.9	7655.01808271795	215.263919281972	7658.0441629494	1.61076883451482	64.8823198361879
25	3981.1	7676.15251406688	198.053575757353	7678.70709417188	1.47796919811359	66.9393578309944
26	3162.3	7693.56892283768	184.856147270977	7695.78940496929	1.37640146788868	69.0163978257503
27	2511.9	7711.99479847674	174.680523822366	7713.97284524227	1.29755607594023	71.168437820317
28	1995.3	7729.0721585526	167.007712393935	7730.8762768597	1.23783917087158	72.9954698157042
29	1584.9	7745.93223679141	162.378304375294	7747.63402147367	1.20091795043158	74.7475038112807
30	1258.9	7765.97684851815	159.498136850285	7767.6145673803	1.17657902736553	76.6045378065921
31	1000	7783.49080899351	160.640640835654	7785.14833443619	1.1823389361776	78.4115708020298
32	794.33	7800.64381691095	163.148666037926	7802.34973873518	1.19815333056935	81.0086177954729
33	630.96	7821.40080103515	167.71844616037	7823.19883216678	1.22843552669976	82.8556537908096
34	501.19	7843.32455006302	175.10987119748	7845.2790558789	1.27897169311699	85.5177037840886
35	398.11	7862.85331207782	185.235959891468	7865.03493749964	1.34954519834132	87.9897497778472
36	316.23	7886.65338061177	197.716157548823	7889.13133525301	1.43608809380034	89.9817867728178
37	251.19	7910.31148539192	212.900300244599	7913.17599537427	1.54170219106911	92.4488307665891
38	199.53	7934.74096522955	230.911489571649	7938.10016951841	1.6669127453386	94.3758677617238
39	158.49	7962.02581536714	251.635776955363	7966.00123329244	1.81020143239021	96.3629027567071
40	125.89	7993.95660441031	274.76881486754	7998.6773965962	1.96859937683921	98.2549377519301
41	100	8023.68471846984	300.745369599774	8029.31903954141	2.14656709649488	100.521981746206
42	79.433	8065.68893684527	329.211007770434	8072.40471690967	2.3373002879945	102.824023740394
43	63.096	8107.56444891441	356.314519306288	8115.39039911015	2.51643877391485	104.756059735516
44	50.119	8158.35119819167	400.359977631272	8168.16885138428	2.80945855249291	107.453107728707
45	39.811	8208.13419132301	434.58082171994	8219.63061173509	3.03070335905368	109.635147723198
46	31.623	8262.91665670748	475.847119139627	8276.60692291759	3.2959247949553	111.772189717802
47	25.119	8322.45679356939	521.813370185933	8338.79945040856	3.58771677056205	114.864246709996
48	19.953	8391.909970278	577.827953930278	8411.77972212745	3.93890432232777	117.766300702669
49	15.849	8457.19195670763	637.346591856791	8481.17364936904	4.30974880374227	121.083360694294
50	12.589	8527.56273116239	711.900678375302	8557.22669500937	4.7721187395653	123.730410687611
51	10	8609.0352919219	787.654394989317	8644.99208232736	5.2275287889525	126.48746268065
52	7.9433	8696.3457755575	882.752289973409	8741.03434688997	5.79615049955002	129.549518672919
53	6.3096	8790.98668630825	989.711730379036	8846.52339781559	6.42345754839101	132.786577664746
54	5.0119	8900.40371011063	1115.80324799869	8970.07263578147	7.14563286355724	136.188639656157
55	3.9811	9008.19847121612	1263.13237122284	9096.32580133602	7.98199013293843	139.875707646848
56	3.1623	9133.84819240864	1437.08232529674	9246.20940773281	8.94138438509072	142.752763639584
57	2.5119	9270.05239947208	1641.29911832377	9414.2304138346	10.0403896221605	146.519831630073
58	1.9953	9423.26687786683	1881.39765383837	9609.24636916812	11.2908969901271	149.951894621408
59	1.5849	9595.81560897405	2172.21752602618	9838.60793922623	12.7551468128665	153.38895861273
60	1.2589	9777.52512535111	2515.58982713903	10095.9491755494	14.4282980313916	156.836024604027
61	1	9981.23850538427	2917.91917000893	10399.0083365709	16.2957734750044	160.823095593961
62	0.79433	10238.7134287514	3411.86868089451	10792.2240790193	18.4297319904169	165.50518458214
63	0.63096	10490.0217482565	3997.53715328833	11225.9012810026	20.860841532303	169.662261571644
64	0.50119	10770.1818430485	4673.01420593842	11740.2674033105	23.4552711324595	173.904338560934
65	0.39811	11100.3780327725	5513.97100987091	12394.4450770559	26.4153016100014	179.171437547636
66	0.31623	11507.3196199871	6540.21832079532	13236.0439905664	29.6118596819056	184.458534534287
67	0.25119	11965.4822472912	7784.41042273087	14274.7963572081	33.0469097855299	190.875654518085
68	0.19953	12443.7057643769	9372.38088647626	15578.4253578971	36.9864179716154	197.847782500482
69	0.15849	13045.2620192916	11173.3170524534	17176.2008344866	40.5801817694804	205.559926481011
70	0.12589	13730.2792812778	13377.1349445708	19169.4629154586	44.2536161757835	215.012099457147
71	0.1	14663.8392348707	16017.4822949674	21716.0751558776	47.5262200657755	226.124306429091
