Index	Frequency (Hz)	Z' (Ω)	-Z'' (Ω)	Z (Ω)	-Phase (°)	Time (s)
1	1000000	2762.01334835744	2631.98556677497	3815.24124534956	43.6190949142133	34.9347669117982
2	794330	3098.59012371397	2499.28281666643	3980.91388408011	38.8891997753934	36.9668049066678
3	630960	3884.22326066756	2408.30265982887	4570.24201110288	31.7998103807905	39.0088409015121
4	501190	4385.46184987243	2236.18830613346	4922.68359507033	27.0174628146643	41.2408848958768
5	398110	4901.29022805518	2011.93848048971	5298.16405454799	22.3177383051167	43.3729208904939
6	316230	5231.06816921267	1801.75957200235	5532.66768803731	19.0054672383818	45.3299568855529
7	251190	5399.77314550369	1540.33223352688	5615.17349799137	15.9212595711914	47.501998880069
8	199530	5638.9123260705	1377.81285094599	5804.79977891931	13.7306310730001	49.4990378750269
9	158490	5832.43864130502	1222.64048426181	5959.21053985709	11.8393453378364	51.8510818690886
10	125890	5990.76446989916	1077.92982933743	6086.96900359954	10.2001961005815	53.973119863731
11	100000	6124.17862250904	945.512725307187	6196.73769931523	8.77660659536808	56.2001588581082
12	79433	6232.16013903381	825.383188686171	6286.57914980219	7.54431026829956	58.3421998527001
13	63096	6324.934419352	717.410476896018	6365.49080601518	6.47116039739019	60.1292328481883
14	50119	6399.28867561871	620.803823205033	6429.33067595748	5.54100351728648	62.2212718429064
15	39811	6460.91208847579	534.031666408965	6482.94491999895	4.72508577477408	64.1633088380032
16	31623	6507.30937844806	458.91126544751	6523.47107730177	4.03395889044841	66.2253448327971
17	25119	6548.61609279685	398.772572379486	6560.74632151862	3.48467628124506	68.2373838277172
18	19953	6583.06454783768	346.114506931582	6592.15701367207	3.00964054070858	70.3194198224605
19	15849	6614.75098099331	302.222690787418	6621.65153835346	2.61597914222234	72.3464598173427
20	12589	6639.42383606081	265.353522712486	6644.72432587451	2.28868499531114	74.333496812326
21	10000	6664.20038682018	235.115493481029	6668.34657849823	2.02057856478164	76.8405408059963
22	7943.3	6679.27358385902	210.713050079956	6682.5964712461	1.80692788831158	78.7425758011941
23	6309.6	6701.38275094758	191.016740409142	6704.10457628864	1.63272131046618	81.164622795079
24	5011.9	6719.56825282259	175.144825806308	6721.85043082245	1.49307028899879	83.4166627893932
25	3981.1	6736.34179264849	162.349620912459	6738.29786717633	1.38059320999174	85.3137007846036
26	3162.3	6754.92897215923	153.092625552213	6756.66358278364	1.29832008318274	87.6257427787663
27	2511.9	6770.18652148867	145.787198535223	6771.75600882102	1.2335997568812	89.7077797735096
28	1995.3	6787.37814421446	140.874778842752	6788.83994330947	1.18902636029201	92.1198237674198
29	1584.9	6800.52325960529	137.955839840282	6801.92240606864	1.16214636420086	94.5018697614057
30	1258.9	6817.53762030753	136.861465829627	6818.91122285204	1.15005324058503	96.2338997570328
31	1000	6831.4158056548	138.499906946884	6832.81963277054	1.161453698235	98.4859427513469
32	794.33	6846.38393449425	141.291001945026	6847.84171295829	1.182263395511	100.672982745825
33	630.96	6866.40334105266	146.164698175083	6867.95886424866	1.21946750084794	102.985024739988
34	501.19	6881.84453550829	152.902826584297	6883.54294569903	1.27280490606026	105.597073733393
35	398.11	6902.19490364502	161.246269518521	6904.07813160721	1.33827726722015	107.859115727682
36	316.23	6923.11693374939	172.697796124596	6925.27058006789	1.42895220846998	110.406164721251
37	251.19	6941.25814091714	185.800300169792	6943.74440272621	1.5333000717334	112.623205715654
38	199.53	6965.94234806105	200.524794288497	6968.82794949299	1.64888709232663	114.89024570993
39	158.49	6993.4925137255	217.446288653041	6996.87218891296	1.78090447155028	116.852283704976
40	125.89	7017.16525346172	236.315632821906	7021.14330239075	1.92880924652064	119.479331698344
41	100	7047.03259401981	258.310858783482	7051.76523155324	2.09925222116967	121.436368693403
42	79.433	7079.33878587146	282.599329990606	7084.97706605004	2.28597005916911	123.528406688121
43	63.096	7117.15133765833	311.684806582631	7123.97294925986	2.50757917769357	126.245455681261
44	50.119	7150.87167631177	342.183390478933	7159.05407185876	2.73962687017951	128.482497675613
45	39.811	7197.25536383817	373.035910219174	7206.91616175812	2.96700255337119	130.61453867023
46	31.623	7245.19023653014	409.40669314197	7256.74826653792	3.23419476460825	133.21658466366
47	25.119	7292.82024447683	452.95066362754	7306.87288940568	3.55402532665951	135.673632657457
48	19.953	7346.36023931622	502.59623285958	7363.53255843219	3.91375320716505	138.440682650471
49	15.849	7407.00809432497	556.411647358188	7427.87741085644	4.29596876009144	141.317737643207
50	12.589	7464.17623334063	619.806933762056	7489.86565149914	4.74681122198523	144.539796635072
51	10	7536.02463017724	697.103391251547	7568.19796019715	5.28498025078076	147.581852627392
52	7.9433	7611.93617332964	784.41111459963	7652.24627828664	5.88357041981051	150.728910619446
53	6.3096	7689.06759196266	884.540954407465	7739.77862304824	6.56238931454613	153.9159696114
54	5.0119	7779.50229801272	1004.61587127695	7844.10027049672	7.35824085671102	156.718019604325
55	3.9811	7880.13954389989	1145.44259237492	7962.95409780574	8.27048474662008	159.94008159619
56	3.1623	7988.3729524472	1312.55924473306	8095.48727368058	9.33082249888524	163.242142587853
57	2.5119	8106.78274787541	1507.15766989044	8245.69286131614	10.531799171385	166.604203579365
58	1.9953	8236.78089608373	1738.40517944974	8418.23093636826	11.9176033894954	170.056267570649
59	1.5849	8389.98978180732	2018.64602387152	8629.41830649805	13.5283275110749	173.64833356158
60	1.2589	8551.41338845373	2343.53978754533	8866.72711185101	15.325790390669	177.260403552461
61	1	8736.84209213304	2740.47328428636	9156.56068427195	17.4150047811491	181.207473542495
62	0.79433	8956.16511231781	3209.54267820422	9513.88762401118	19.7157128687721	184.874544533237
63	0.63096	9214.04339868091	3773.75887808868	9956.89970938386	22.2723379316823	188.871615523145
64	0.50119	9474.9337537328	4451.22928026837	10468.4197347615	25.1636693632285	193.863708510541
65	0.39811	9760.97563901691	5274.8005210596	11095.0514177471	28.3866479113671	198.760798498177
66	0.31623	10127.6078142398	6292.84436091657	11923.4361737618	31.8549766121107	203.98789748498
67	0.25119	10480.0168323515	7494.16420695983	12883.8367719887	35.5682125088413	210.090009469574
68	0.19953	11042.1017358378	9004.94788373617	14248.4068279018	39.1975988313698	216.782132452678
69	0.15849	11580.6242898724	10819.8659676936	15848.6705594519	43.0548865666838	224.599276432941
70	0.12589	12301.321898832	12951.2377610416	17862.1689612912	46.4742750043553	233.961451409304
71	0.1	12947.7447346048	15464.3968844933	20169.0769425279	50.0618572977391	244.80365238193
