Index	Frequency (Hz)	Z' (Ω)	-Z'' (Ω)	Z (Ω)	-Phase (°)	Time (s)
1	1000000	2488.92482249889	1789.05354845418	3065.20135901177	35.7087986616498	31.6166789201756
2	794330	2788.38623620862	1640.63965828415	3235.24284878468	30.4718410285917	33.513709915386
3	630960	3105.68699459382	1547.53457251271	3469.89264409021	26.4866435527096	35.4007449106217
4	501190	3393.68530150955	1441.5111030508	3687.1471608685	23.0139772980556	37.1077789063119
5	398110	3696.91704983264	1284.31130049344	3913.64934427172	19.1572590014239	38.9048119017748
6	316230	3917.65448819303	1173.26400636728	4089.56783994299	16.6719715194271	40.5068418977301
7	251190	4022.35062715357	1020.40905248203	4149.76375257074	14.2347728364459	42.3488738930794
8	199530	4195.82673403884	919.488274988094	4295.39528680605	12.3606033623888	44.1409068885549
9	158490	4334.72729553691	816.569453106909	4410.96887298245	10.6682727504102	46.032941883778
10	125890	4446.24259487439	717.902064340824	4503.82688238127	9.17196947564766	47.6349718797333
11	100000	4535.98698837535	626.868094158368	4579.09833550058	7.86836984147254	49.4420068751709
12	79433	4608.89505290148	544.320526780214	4640.92646403	6.73555565365539	51.0740348710505
13	63096	4666.15415998328	470.931623946066	4689.85833892259	5.76306236155285	52.8010668666901
14	50119	4714.07310171398	406.79088627769	4731.59212458785	4.93199935645085	54.5280998623298
15	39811	4752.14871929066	350.389898845968	4765.04884880198	4.21695545855335	56.1851308581462
16	31623	4783.4322674477	302.596210258859	4792.99371204709	3.61966335140225	57.967163853647
17	25119	4812.27651910509	264.774285213853	4819.55503324121	3.14927216417115	59.6891968492993
18	19953	4834.94409193664	232.270090367303	4840.51998932266	2.75036736327411	61.3812278450273
19	15849	4852.5098314864	204.395103502382	4856.81264030309	2.41195970614059	63.0332568408563
20	12589	4874.07126843644	181.770882260424	4877.45952145534	2.13576691527585	64.7052878366349
21	10000	4885.91433257965	161.83416428469	4888.59378165511	1.89709136353881	66.3523178324765
22	7943.3	4906.52757070955	148.291793216699	4908.76799798772	1.73114450815942	68.144352827952
23	6309.6	4919.26372005203	135.909043084863	4921.14080426606	1.58256085354307	69.7713808238442
24	5011.9	4933.47435635763	125.715532274575	4935.07584743066	1.45970373957942	71.4784128195344
25	3981.1	4948.2469172229	117.872799466854	4949.65064935497	1.36459175131723	73.0354428156032
26	3162.3	4958.08162010432	111.695054184152	4959.33958675401	1.29053400034564	74.8524768110157
27	2511.9	4972.2267156296	106.954404567324	4973.37689666458	1.23226301937595	76.3845038071477
28	1995.3	4984.4404239929	104.067800175714	4985.52669708707	1.19607800559432	78.3315418022319
29	1584.9	4995.29452945795	102.563954229004	4996.34734588575	1.17623817842829	79.8135677984901
30	1258.9	5007.0549429696	102.953530819229	5008.11328061022	1.17793229251307	81.6806017937763
31	1000	5019.26238148542	104.369527098179	5020.34738363605	1.19122518602977	83.3026317896811
32	794.33	5031.70254553775	107.159742891053	5032.84350216332	1.22003893218068	85.0096657853712
33	630.96	5041.6097255039	111.665087189837	5042.84619198252	1.26881941879417	86.5216947815537
34	501.19	5058.34805195642	117.708515805775	5059.71741398909	1.33304078060999	88.3037247770545
35	398.11	5072.32248750407	126.200044404985	5073.89218139756	1.42523242548886	89.8807557730729
36	316.23	5085.95197783389	135.778321779088	5087.76407407986	1.52924711332469	91.7577907683338
37	251.19	5103.70261104969	148.22793742818	5105.85466532975	1.66358605692569	93.5348217638473
38	199.53	5120.4724500492	161.611806101303	5123.02220252696	1.80776318030761	95.1468517597773
39	158.49	5138.03828441308	177.961137595694	5141.11929239041	1.98370410651105	96.8288827555306
40	125.89	5163.10739665108	196.152941149187	5166.83210155649	2.17569234812895	98.565916751145
41	100	5184.15508904801	215.721189643655	5188.64140396729	2.38279662947373	100.307946746747
42	79.433	5213.92670017478	238.996446460556	5219.40139634961	2.62449204952625	102.109980742197
43	63.096	5247.00284991354	267.553649174308	5253.81993050649	2.91908152020809	103.972016737496
44	50.119	5277.37624985727	294.027637541829	5285.56073980765	3.18892248540054	105.894049732643
45	39.811	5318.16280335948	321.069625810507	5327.84584120585	3.45488357682366	107.666082728169
46	31.623	5361.14398027799	353.274169991697	5372.77092536563	3.77007187070598	109.578118723342
47	25.119	5407.07695780822	388.293071178385	5421.00108252947	4.10747414502371	111.490155718514
48	19.953	5456.14135102904	428.925114141843	5472.97498586925	4.49496411028226	113.762195712778
49	15.849	5505.59517446353	472.935580327033	5525.87063621792	4.90970651199095	116.069240706953
50	12.589	5563.56187248431	522.61878884198	5588.05432216007	5.36638944238623	118.33628270123
51	10	5624.70051857041	578.226108858222	5654.34358317317	5.86945799980149	121.078333694307
52	7.9433	5688.84867386405	644.579087415028	5725.2494647882	6.46436995543586	123.46537568828
53	6.3096	5758.25572230117	718.497982595892	5802.90860813855	7.1124366749994	126.18242768142
54	5.0119	5834.00858255675	808.232544553757	5889.72800623438	7.88744418007779	128.884475674598
55	3.9811	5916.24842132007	913.722806172089	5986.39163013006	8.77956205261533	131.756530667347
56	3.1623	6003.27282828438	1039.3661753569	6092.58292494189	9.82243441046263	134.618582660121
57	2.5119	6104.32360135313	1186.91992615776	6218.64499237151	11.0032524767572	137.350632653223
58	1.9953	6208.85005984009	1362.67627747901	6356.62691234749	12.3786261270992	140.322687645719
59	1.5849	6328.42726620787	1568.31044486111	6519.86114232072	13.9186224298546	143.459745637799
60	1.2589	6459.37248642267	1818.78809359331	6710.55013003785	15.7258126701052	146.741809629513
61	1	6595.75653633802	2110.82469578657	6925.28592788689	17.7461105097234	150.348876620406
62	0.79433	6763.36224079445	2469.72879307354	7200.18257487549	20.0603166074402	153.860938611538
63	0.63096	6935.38848071437	2900.6618699156	7517.54299369201	22.6966673676956	157.703010601838
64	0.50119	7116.6327689421	3414.28353352437	7893.27524005568	25.6298797717614	161.835087591406
65	0.39811	7351.20031857272	4079.9473130219	8407.50356531701	29.0304602121494	166.417172579837
66	0.31623	7599.91278081059	4875.42089307645	9029.30801116977	32.6805822329265	171.54926856688
67	0.25119	7841.85299225754	5795.90305483576	9751.26405002106	36.4680570939618	177.116369552824
68	0.19953	8195.24724358809	6931.95326902779	10733.7809511618	40.2262252926009	183.408488536938
69	0.15849	8552.09279136289	8344.45202498329	11948.5635416701	44.2959305664576	191.040627517669
70	0.12589	8935.16959739671	10087.583211054	13475.7779283491	48.4667873182991	200.022795494991
71	0.1	9478.26872636453	12327.1718104043	15549.8148828983	52.4435899578578	210.484987468576
