Index	Frequency (Hz)	Z' (Ω)	-Z'' (Ω)	Z (Ω)	-Phase (°)	Time (s)
1	1000000	2503.9536291872	1643.79923820296	2995.30628027192	33.2841582610664	26.9426269319764
2	794330	2719.46481358022	1491.17617803701	3101.46663149	28.737475152859	28.5296529279696
3	630960	3001.79943111348	1397.02187877898	3310.96208894339	24.9570242035946	30.0066809242404
4	501190	3252.21956766967	1306.22841792232	3504.73462563449	21.8824734716938	31.6837129200063
5	398110	3519.67179934286	1163.78394552671	3707.08546528875	18.2965338302099	33.4057449156586
6	316230	3717.7668730704	1062.09206237186	3866.50101143825	15.94358573027	34.9727739117022
7	251190	3811.46113573491	912.500275150014	3919.16990463115	13.4637423361113	36.3497999082256
8	199530	3968.81107882025	822.843714486081	4053.21269585444	11.7130455962522	37.8968259043197
9	158490	4089.60788471798	730.322638492881	4154.30665780015	10.1251538636196	39.3088539007547
10	125890	4191.60413165805	642.205573363474	4240.51567559795	8.7106849612144	40.7408788971392
11	100000	4271.23127186421	560.576896672746	4307.86060995873	7.47703744879832	42.1579068935615
12	79433	4336.03699450549	487.07064346011	4363.30776240238	6.40921508068781	43.5149308901354
13	63096	4388.08763479806	421.808363320909	4408.31434746152	5.49073142832147	44.9769588864441
14	50119	4429.5693179992	364.486383916281	4444.53987123754	4.70397635726404	46.3839848828917
15	39811	4465.74806682914	314.515411589304	4476.80977265233	4.02859702001249	49.0210338762338
16	31623	4493.71749400376	271.405294149203	4501.90601296914	3.45627227865671	50.5280618724289
17	25119	4514.01267425242	237.352897896042	4520.24853536298	3.00991776230206	52.0500888685862
18	19953	4533.29831377817	208.384638656583	4538.08525254121	2.63189418294554	53.5171158648823
19	15849	4553.49040602691	184.244728870801	4557.21636505179	2.31705550585295	55.7191598593226
20	12589	4570.19546837835	164.273197628739	4573.14687088061	2.05857946319896	57.6561918544321
21	10000	4583.95961215758	147.473406994467	4586.33122786203	1.84266249804514	59.3032228502738
22	7943.3	4599.94346181079	134.437801601037	4601.90757994499	1.6740481084266	60.6852478467845
23	6309.6	4610.0153956953	123.182377337541	4611.66085555239	1.53061339371198	62.2822808427524
24	5011.9	4622.41591848555	114.675629332421	4623.83817011705	1.42113609592766	63.7593068390232
25	3981.1	4633.47936216302	107.818713249702	4634.7336357678	1.33300315276071	65.1763308354456
26	3162.3	4645.44242493942	102.226695814717	4646.56707912026	1.26063623421458	66.5583578319563
27	2511.9	4655.69094437937	98.4116742210332	4656.73093781454	1.21093390556708	68.0753868281262
28	1995.3	4664.81841300315	96.0337681349174	4665.80682314596	1.17937119696927	69.4224098247253
29	1584.9	4676.40918929616	95.1694854816285	4677.3774849482	1.16586402949681	70.7594338213496
30	1258.9	4686.20388456666	95.604684389624	4687.17901337306	1.16874665970518	72.2264628176457
31	1000	4696.52297496236	97.074819740274	4697.52611221874	1.18410697066391	73.5734878142448
32	794.33	4707.90680865513	100.067040971304	4708.97015616686	1.21764430976965	75.2205188100864
33	630.96	4720.51288724226	105.1519353098	4721.68389964001	1.27608292722766	76.5525578067234
34	501.19	4733.79497086524	110.851182677888	4735.09269295651	1.34144896836231	78.2845748023504
35	398.11	4746.09575999557	119.038590555409	4747.58835084608	1.43675550159075	80.156611797624
36	316.23	4760.88665143353	128.403252277306	4762.61788336975	1.54491839790445	81.7336397936424
37	251.19	4772.72260713767	139.450477679551	4774.75942016015	1.67360476719034	83.1706647900143
38	199.53	4788.41860216739	152.529110070921	4790.84729865206	1.82446878223528	84.6476917862851
39	158.49	4809.318453905	168.1401159985	4812.2567564168	2.00232047503302	86.4547257817228
40	125.89	4827.32160138577	184.560219305243	4830.8484055863	2.18949030011561	88.3917627768323
41	100	4850.12116099688	204.33223417494	4854.42344035547	2.41240480938244	90.173796772333
42	79.433	4874.62423770095	225.307611851035	4879.82837595131	2.64635664441742	92.0758307675309
43	63.096	4905.22864036921	249.298581531577	4911.55960943691	2.90944182429225	94.0228657626151
44	50.119	4938.96568946749	273.192983490555	4946.51559059158	3.16602125003336	96.2599067569671
45	39.811	4974.19797711142	301.37500275849	4983.31941659242	3.46717868918566	98.0769407523795
46	31.623	5012.07681122257	331.575975682192	5023.03260881757	3.7849103765289	100.048979747401
47	25.119	5055.26151126911	364.755574895777	5068.40365171682	4.12694776019551	102.216019741929
48	19.953	5101.64197239668	402.461229569066	5117.49214516502	4.51064029364199	104.518059736117
49	15.849	5148.69919862805	443.253076154079	5167.74387208511	4.92047886557802	107.005105729838
50	12.589	5200.36277077573	490.029055073068	5223.39941249815	5.38307386082982	110.127165721956
51	10	5255.89686395229	543.443987170295	5283.91741151346	5.90323452142129	112.669210715538
52	7.9433	5316.7668272435	604.565086316991	5351.02872715802	6.4871913727254	115.416262708602
53	6.3096	5380.54749180021	677.239623441998	5423.00145851699	7.17398786204467	118.133313701742
54	5.0119	5452.4600102549	762.644234976045	5505.53779321976	7.96239418246901	121.145368694137
55	3.9811	5524.90853079545	863.387533327406	5591.96318893119	8.88187976703151	123.982422686974
56	3.1623	5609.65726394852	980.64888710528	5694.72798812649	9.91592725825284	126.76447467995
57	2.5119	5699.66960025641	1119.16609674915	5808.50809624982	11.1090540772874	129.831528672207
58	1.9953	5797.26948428284	1284.22108355809	5937.80744592245	12.4905547388021	133.128591663883
59	1.5849	5909.30629541641	1483.74829277391	6092.73418830639	14.0948299336882	136.445650655508
60	1.2589	6032.77667524966	1718.51887989821	6272.77462961989	15.9003271223455	139.937716646691
61	1	6164.33276454311	2005.51630890471	6482.3679390561	18.0218826249982	143.839787636839
62	0.79433	6310.69445844003	2345.51858687721	6732.4826022183	20.3887717861276	147.536858627505
63	0.63096	6476.28195239311	2745.80099164288	7034.31951311566	22.9758754808335	151.513933617464
64	0.50119	6649.74592743834	3234.6337260958	7394.72624520199	25.9396631447722	155.686007606931
65	0.39811	6846.69772174645	3868.10512335799	7863.80995054664	29.4646778662626	160.468095594857
66	0.31623	7072.20039265831	4594.02861105475	8433.33369866899	33.0073387540828	165.890197581168
67	0.25119	7344.10803530518	5550.08830155666	9205.40075115202	37.0790657185463	171.717304566455
68	0.19953	7611.07698119391	6618.05779348823	10085.9893799077	41.0079294202277	178.339427549736
69	0.15849	7964.83529041637	7949.91062050792	11253.429702874	44.9462686774587	186.146572530025
70	0.12589	8334.37566677069	9622.11693501472	12729.76637908	49.1019169937135	195.31374050688
71	0.1	8852.09644445158	11737.4179569695	14701.2445649497	52.9772235447773	205.885937480188
