Index	Frequency (Hz)	Z' (Ω)	-Z'' (Ω)	Z (Ω)	-Phase (°)	Time (s)
1	1000000	2857.85496245229	2032.47806950405	3506.89350985001	35.4200597790487	22.4685349432724
2	794330	3157.59189559657	1868.92025649397	3669.23009693732	30.6205052782172	24.4005669383945
3	630960	3501.44911254186	1738.6513093241	3909.35471185905	26.4067853380549	26.3226049335418
4	501190	3826.97026759866	1634.13375129444	4161.26117255379	23.1227030963761	28.3696429283735
5	398110	4184.20529179505	1488.73066605875	4441.15896134663	19.5854422305499	30.2766769235587
6	316230	4441.38066738485	1373.32590178726	4648.85859810123	17.1822093158052	31.9787089192615
7	251190	4576.26838129206	1194.66849604806	4729.63689019181	14.6309472498483	33.7907419146866
8	199530	4784.97199740368	1088.255304807	4907.16380655648	12.8129381231596	35.6677759099475
9	158490	4952.17866876312	976.186692572431	5047.47600550097	11.1513271009098	37.7748139046278
10	125890	5090.67663730776	866.514083058801	5163.89729581934	9.66006734507082	39.5968479000276
11	100000	5202.34633738939	762.869270770441	5257.98221168869	8.34236571836271	41.493884895238
12	79433	5297.86661545606	667.703384950604	5339.77700708918	7.18325681307833	43.4559198902843
13	63096	5374.89376152661	581.827348086348	5406.29318578625	6.17815921601463	45.3979578853812
14	50119	5435.21032427102	504.343414084174	5458.55965877376	5.30140257634511	47.5049948800614
15	39811	5488.38311308189	435.997407460965	5505.67370403252	4.54204087377525	49.3620308753729
16	31623	5525.06810029839	375.888993532693	5537.83983592825	3.892027468772	51.4390668701288
17	25119	5559.44804130273	328.014415187846	5569.11626566691	3.37660840760159	53.3611048652762
18	19953	5589.73814048595	286.737694210814	5597.08772349377	2.9365368660788	55.383139860171
19	15849	5614.6291859397	252.084110635611	5620.28533923686	2.57072406079576	57.2651758554193
20	12589	5633.94493336697	222.863405186526	5638.35114280609	2.26528278896484	59.2022138505288
21	10000	5655.34933981288	198.795896906045	5658.84228123992	2.01322274602308	61.0892478457645
22	7943.3	5674.52587500523	179.696073617278	5677.37039349885	1.81378802889366	63.1012848406846
23	6309.6	5691.2444929936	163.681880810851	5693.59777619878	1.64738950933063	64.8133168363621
24	5011.9	5706.99985291555	150.773799662046	5708.99115955198	1.51335090192293	66.6803518316483
25	3981.1	5722.3576950063	140.604282344164	5724.08483111592	1.40753370152463	68.3223828275026
26	3162.3	5735.86018268506	133.056357090581	5737.40324794014	1.3288679375378	70.1244138229529
27	2511.9	5751.76291773034	127.535203586595	5753.17667814328	1.2702247682145	71.7264448189081
28	1995.3	5764.03379659678	123.590723396687	5765.358642376	1.22833109524417	73.6084798141565
29	1584.9	5777.032704614	121.518779837524	5778.31062543655	1.20502807573947	75.3055098098719
30	1258.9	5793.98354108051	121.048809206254	5795.24788844464	1.19685826013274	77.317546804792
31	1000	5808.05404300549	122.86894488542	5809.35353925802	1.21190712385935	79.1045818002801
32	794.33	5823.28497916985	125.482211867923	5824.63678988831	1.23443875635328	81.2366207948972
33	630.96	5835.58199525455	129.680701736997	5837.02272633421	1.27304083299046	83.0086517904233
34	501.19	5854.16342038495	135.75441063404	5855.73723903146	1.32841542739382	85.0056907853813
35	398.11	5871.20482213671	143.538891937567	5872.95917549067	1.40048508025425	86.6227187812987
36	316.23	5885.3479011396	152.147807660205	5887.31423255325	1.48087864025241	88.5647567763955
37	251.19	5906.07553260689	163.722611715869	5908.34437811853	1.58789247659794	90.4467897716438
38	199.53	5925.12296631998	176.398163989862	5927.74817939084	1.70526180833352	92.3888637667405
39	158.49	5945.2490327994	190.142862447863	5948.2888606844	1.83182760422774	94.1158597623803
40	125.89	5969.59638573365	206.857722228105	5973.1793147209	1.98461224000363	96.1378967572751
41	100	5994.1867180444	224.714099649096	5998.39735574103	2.14693729162837	97.8449267529653
42	79.433	6023.51567701369	245.455185419229	6028.51468931435	2.33348270572178	99.8169647479864
43	63.096	6052.08855541346	265.984044544798	6057.93061981722	2.51648044891451	101.658999743336
44	50.119	6087.99569980858	298.830212206273	6095.32535116994	2.81011680913649	103.91104173765
45	39.811	6120.38536996643	325.132006983767	6129.01524707391	3.04085391427258	105.938078732532
46	31.623	6158.31106222801	360.38022752893	6168.84665456629	3.34909102244313	108.22011772677
47	25.119	6202.06214650589	399.044594082823	6214.88627870116	3.68137227616178	111.012169719721
48	19.953	6250.6218624564	445.171946267062	6266.45447834428	4.07375123683638	113.134209714364
49	15.849	6303.94014848792	496.298819883364	6323.44636367982	4.50151726310197	115.70625870787
50	12.589	6355.66152709911	556.192599185909	6379.95169687333	5.00129066797038	118.338307701224
51	10	6414.90381434329	625.312461993632	6445.30888494885	5.56749257852278	121.030355694428
52	7.9433	6481.82800099218	702.579201379769	6519.79384403048	6.18626037507987	123.842407687328
53	6.3096	6553.31222511817	796.604564281546	6601.55132917388	6.93073122749874	126.894466679622
54	5.0119	6633.79834915705	908.333044327194	6695.69633844722	7.79674198244903	130.176527671336
55	3.9811	6716.90195388358	1036.25377717728	6796.36621650123	8.77019473449728	133.123581663895
56	3.1623	6815.61656043192	1188.66769895451	6918.49405559994	9.89308336492429	136.070635656455
57	2.5119	6921.70372266225	1370.41438492355	7056.06250048296	11.1990452732537	139.892707646805
58	1.9953	7034.34598854067	1585.10632332975	7210.72711609295	12.6988216896726	142.699759639718
59	1.5849	7165.50819439463	1840.4399432825	7398.08940664861	14.4048769270656	145.781814631936
60	1.2589	7302.46026396145	2148.19910706842	7611.87790957957	16.3925492767165	148.928874623991
61	1	7466.9265806634	2518.32006558586	7880.16043705647	18.6373611778171	152.380938615275
62	0.79433	7660.30433314766	2968.62861718091	8215.41346148727	21.1830447589164	156.013005606105
63	0.63096	7875.31076129825	3479.98123302807	8609.92386547335	23.8399134749743	160.545089594663
64	0.50119	8093.16141197094	4129.7282831701	9085.91862901217	27.0340299989013	164.537163584584
65	0.39811	8383.7191943861	4915.25075202223	9718.35569865464	30.382466293052	168.894244573583
66	0.31623	8693.77251694164	5863.52877947576	10486.3077545946	33.9977585587246	174.096339560449
67	0.25119	9057.11192978025	7020.93396642807	11459.7028874885	37.782292733172	180.273454544853
68	0.19953	9518.49755549271	8484.57031347913	12751.0677638499	41.7130787525596	187.100580527616
69	0.15849	9978.27154859522	10197.5678276719	14267.3155392833	45.6227377335936	195.002726507665
70	0.12589	10588.3325318526	12275.6918390061	16211.2737294553	49.2207627045686	204.219896484394
71	0.1	11302.5694035151	14650.6613277277	18503.7821123426	52.3508331565466	214.907095457412
