Index	Frequency (Hz)	Z' (Ω)	-Z'' (Ω)	Z (Ω)	-Phase (°)	Time (s)
1	1000000	2230.94759285154	1382.63179950057	2624.65194931447	31.7886026306892	46.6119788823161
2	794330	2440.77536272161	1343.2510553158	2785.98416522345	28.8256531514961	48.3390068779557
3	630960	2645.70428029729	1177.32156950805	2895.83100625923	23.988759686127	49.941038873911
4	501190	2860.28541315529	1089.21554080265	3060.6573050629	20.8471632120358	51.5380668698789
5	398110	3067.96881222218	974.861536190632	3219.12839873031	17.6278996387227	53.7801078642183
6	316230	3230.86739474911	888.423682186701	3350.7910650357	15.3751820364174	55.202136860628
7	251190	3307.29160778254	764.680255318451	3394.54174694946	13.0186142025153	61.2592478453353
8	199530	3438.47076364732	689.874692176459	3506.99419494286	11.3448653941038	62.9062778411769
9	158490	3544.45159367936	613.481322863473	3597.15115521136	9.8195917300173	64.3433038375488
10	125890	3626.87800130786	539.42765760958	3666.77327280609	8.45962028608293	65.9753338334283
11	100000	3695.67509124765	471.080121941677	3725.57792313581	7.26420139574657	67.4873618296108
12	79433	3750.99751095442	409.911270658267	3773.32871308595	6.23656969244079	69.0243928257302
13	63096	3794.09872098877	354.744427760067	3810.64675791859	5.34156863827968	70.4314198221778
14	50119	3829.80349958509	306.526573071112	3842.05067450092	4.57603649227068	71.8634448185622
15	39811	3861.22474895033	264.612829069211	3870.28119278361	3.92039605161866	73.6554768140378
16	31623	3882.2660132254	228.777558551175	3889.000973096	3.37247552261723	75.1675048102203
17	25119	3902.37708387661	200.170050536227	3907.50751168785	2.93637852570464	76.7245328062892
18	19953	3920.63515047703	176.178287294579	3924.59154206779	2.57292143278032	78.1765628026232
19	15849	3934.50394817831	155.798037554253	3937.58737639388	2.26760702539124	80.0035957980103
20	12589	3947.99386209343	139.686420638092	3950.46425515256	2.02637223265234	82.4956397917185
21	10000	3960.07891778064	126.385260746617	3962.09518679003	1.82796482415391	86.2577097822202
22	7943.3	3972.41779343995	116.106906676568	3974.11423331242	1.67417997481833	88.7197557760041
23	6309.6	3984.16708195925	107.925264781177	3985.62858276405	1.55167948838974	90.0817807725654
24	5011.9	3993.74829253076	101.971731313362	3995.04989431664	1.46260611986523	92.0588167675738
25	3981.1	4004.69602542336	97.6801079799454	4005.88712516175	1.39724673191085	93.7408497633271
26	3162.3	4014.40688313166	94.8200417802509	4015.52654874277	1.35307117172592	95.8878907579063
27	2511.9	4025.52318636748	93.5897283347366	4026.61097714094	1.33183448751018	98.0749277523846
28	1995.3	4035.59099528258	94.2781499365648	4036.6920926374	1.33828173401647	100.061965747368
29	1584.9	4044.64272071613	96.1446525666158	4045.78528007346	1.36171374804439	101.893998742742
30	1258.9	4054.72720198859	99.36617331173	4055.94456556606	1.4038239258918	104.071038737246
31	1000	4063.70368311354	104.982244935327	4065.05951935543	1.47985739436163	106.348082731497
32	794.33	4077.0864516846	112.428112627902	4078.6362935446	1.57956530925544	108.440119726215
33	630.96	4090.07037969709	121.745095597405	4091.88191168532	1.70496360040296	110.617162720719
34	501.19	4103.04902645221	133.309819582274	4105.21410178172	1.86090978224775	113.229210714124
35	398.11	4118.08838534164	148.024642630784	4120.7478986601	2.05860987874678	115.256245709006
36	316.23	4135.12241254973	165.062233619465	4138.41550689857	2.28586971405933	117.053279704469
37	251.19	4153.19164590815	184.813598803842	4157.30163855645	2.54793397796005	119.200318699048
38	199.53	4176.14008392504	207.596897676322	4181.29674532797	2.84584397820147	120.742348695155
39	158.49	4200.0560253493	233.395806353992	4206.5358929286	3.18063740399918	122.55438369058
40	125.89	4229.40505383138	262.026914162334	4237.51403692305	3.54514932838857	124.436416685828
41	100	4264.28156025497	293.406915102881	4274.36367696535	3.93607312127858	126.458453680723
42	79.433	4302.2232464252	328.024573590428	4314.71030116282	4.36010163140098	128.060483676678
43	63.096	4347.79448371096	365.136039210672	4363.09995298273	4.80054353025752	130.052520671649
44	50.119	4399.50752277579	404.016885390304	4418.0194755842	5.24688681731519	132.164562666317
45	39.811	4452.70866467851	445.695415711715	4474.95908987887	5.71600193781864	134.281601660972
46	31.623	4511.86530641246	489.324609981798	4538.32205965401	6.18969792702961	136.808646654591
47	25.119	4576.19896495094	537.753145595638	4607.68655752711	6.70214046311952	138.855685649423
48	19.953	4645.84882712233	590.608107791734	4683.23918473776	7.2449207616869	141.542732642639
49	15.849	4718.41234578897	648.149885475339	4762.72121154865	7.8215466261829	144.404786635413
50	12.589	4797.80355828918	713.60570458936	4850.5826542339	8.45991954276039	146.926833629045
51	10	4880.35837330687	786.927251013674	4943.39482039362	9.15974587777583	149.983888621327
52	7.9433	4965.70434136522	873.110990054494	5041.87885681592	9.97228284093325	152.830941614139
53	6.3096	5059.16155170596	975.461238573712	5152.34317900308	10.9133251337151	155.898000606395
54	5.0119	5156.02586410464	1093.43554515712	5270.69293383034	11.9732941070703	158.765053599157
55	3.9811	5263.76593370565	1235.87813810453	5406.90545294486	13.2131331256181	161.812107591464
56	3.1623	5378.02343787372	1404.96436747113	5558.51247836888	14.6408391807071	164.809165583897
57	2.5119	5502.49504180531	1607.83401335497	5732.58945849022	16.288410295546	167.796219576355
58	1.9953	5638.92251979924	1851.87171042887	5935.22333330311	18.1806346795537	170.983280568309
59	1.5849	5785.94991872953	2141.97210921958	6169.7050965764	20.3146694837575	174.205340560174
60	1.2589	5948.93360676688	2498.11138959224	6452.16022526803	22.7787973866504	177.59740255161
61	1	6127.66451367641	2923.27256873414	6789.24111394511	25.5040105792384	181.649475541379
62	0.79433	6335.19764398231	3442.82794260683	7210.25612795505	28.52162269225	185.1265425326
63	0.63096	6572.60641897173	4068.81118295498	7730.0957032399	31.759825624028	189.27361652213
64	0.50119	6824.47565606659	4846.42142899728	8370.26096652246	35.3805772532578	193.500695511458
65	0.39811	7107.0142807725	5763.52819720432	9150.29558359038	39.0407861162807	198.132780499763
66	0.31623	7463.52040284727	6912.62238815749	10172.9290317476	42.8054826542724	203.449879486338
67	0.25119	7828.60145615226	8341.52976659828	11439.7604697963	46.816854540858	209.061983472169
68	0.19953	8288.18728593591	9998.41482798081	12987.0068745318	50.3429619262118	215.619106455614
69	0.15849	8837.9241572572	12062.9542582258	14954.0552642244	53.7716285260475	223.286246436256
70	0.12589	9480.13270999761	14572.8740726631	17385.0963453431	56.9546770544497	232.863426412076
71	0.1	10202.7660084937	17725.7116114178	20452.3173834953	60.0756422016465	244.275636383263
