Index	Frequency (Hz)	Z' (Ω)	-Z'' (Ω)	Z (Ω)	-Phase (°)	Time (s)
1	1000000	2826.80290027314	9471.0288026828	9883.88593713221	73.3812976355829	74.2641438125011
2	794330	5233.00307189502	10646.3779942067	11862.95433465	63.8245469667041	75.6491668090042
3	630960	7955.32552301527	12392.9801721829	14726.6140618018	57.3027054587588	76.9991908055957
4	501190	10506.5760709483	13939.1618680672	17455.3250992011	52.9930159307141	78.5442198016949
5	398110	14382.355719684	17586.9589193508	22719.0070222811	50.7242060559256	80.0042477980087
6	316230	17854.1170209127	19109.7028674335	26152.4423004437	46.9454731841844	81.3892737945118
7	251190	21199.7555590917	19842.7291732208	29037.2783987588	43.1062654890917	87.7893947783531
8	199530	25118.362934861	20726.1528987068	32565.404503982	39.5273860472834	89.8844297730636
9	158490	29110.3479849095	21139.5508010314	35976.2834082665	35.9866581909962	91.8594657680771
10	125890	33119.8954770231	21099.8624021854	39269.9843366418	32.5001992871729	93.9795047627246
11	100000	36972.042851407	20619.0718769299	42332.943172809	29.1481285597883	95.5895357586596
12	79433	40625.3729728803	19809.3568535425	45197.6940577352	25.9943470293019	97.3195687542917
13	63096	43958.7781271674	18696.0310131808	47769.401818312	23.0404497509419	98.9095977502773
14	50119	47044.7100140247	17381.7535572734	50153.0666762209	20.2779138598402	100.569626746086
15	39811	49722.6079867937	15857.5270006616	52190.0268977233	17.6885150048618	102.209659741945
16	31623	51853.173805374	14192.7926019558	53760.459405891	15.3075757145973	103.844689737817
17	25119	53617.4907997215	12927.458405282	55153.9164563906	13.5555953570109	105.674721733197
18	19953	55259.790275073	11694.3488772047	56483.6455702607	11.9489188136422	107.389752728867
19	15849	56678.059108886	10555.4366835248	57652.5769409337	10.5496200428243	109.859800722631
20	12589	57883.9043952264	9569.81382173261	58669.6490923402	9.38766333972913	111.354828718856
21	10000	58857.045766824	8612.84568249376	59483.8881307239	8.3252876636302	112.894855714968
22	7943.3	59838.6591534607	7894.03044606305	60357.1109809558	7.51517290171279	114.334883711332
23	6309.6	60708.3195115259	7288.28288125576	61144.2485052415	6.84582929715477	115.739907707785
24	5011.9	61559.9824762696	6798.32135159906	61934.2281430731	6.30187215570381	117.179934704149
25	3981.1	62325.2101667014	6393.06333119692	62652.2392343658	5.85668140488905	118.724966700248
26	3162.3	63066.1318992073	6075.68833398429	63358.116934296	5.5027999439309	120.219990696474
27	2511.9	63762.9178775947	5821.80969331902	64028.1435336846	5.21686948099205	121.845021692371
28	1995.3	64486.7366067872	5636.61774737617	64732.6089218037	4.99537907207962	123.355050688558
29	1584.9	65190.2156739228	5501.92083948495	65421.9791242709	4.82421393837707	124.89507768467
30	1258.9	65896.6272830739	5412.10591552386	66118.5025369238	4.69517821828428	126.340105681022
31	1000	66594.9352344246	5347.43938392484	66809.284585617	4.59088580000245	127.94513467697
32	794.33	67328.9171976845	5315.77605595298	67538.4376935809	4.51427196137858	129.605167672778
33	630.96	68041.3536213509	5304.83801643736	68247.8359291074	4.45804211578828	130.820187669711
34	501.19	68795.4158644331	5313.37281040128	69000.2983658955	4.41643762288023	132.240215666126
35	398.11	69544.9715417297	5326.75471541325	69748.6729804816	4.37998332517684	133.610239662667
36	316.23	70365.0510096146	5356.79309542514	70568.6590198004	4.35345042721187	135.030266659081
37	251.19	71129.1485486956	5390.70599664818	71333.1303421117	4.33402325422399	136.470291655446
38	199.53	71925.0666511223	5414.66011524266	72128.5918130389	4.30521784304551	137.850319651961
39	158.49	72692.8434534768	5434.18165506432	72895.6776469766	4.27521618565197	139.22534464849
40	125.89	73487.8212483353	5441.28074091487	73688.9910904521	4.23464115051616	140.675369644829
41	100	74298.4042268278	5443.05577545335	74497.5149037053	4.18996878952217	142.075395641294
42	79.433	75105.2052530162	5447.2665867006	75302.4871392989	4.14831223328598	143.520424637646
43	63.096	75943.7369850486	5437.04652327661	76138.1156987124	4.09499483581872	145.105451633644
44	50.119	76729.8621204651	5407.9389882812	76920.2024511543	4.03155349710369	146.700481629617
45	39.811	77524.5263499027	5377.82687674696	77710.830697484	3.96821461705217	155.855650606502
46	31.623	78334.8482429916	5332.44291325051	78516.1346264295	3.89425480819666	157.46067960245
47	25.119	79145.5588886598	5279.27854537994	79321.4364075565	3.81617066623377	159.035711598473
48	19.953	79902.0000913772	5239.58112492667	80073.6088169325	3.75180454739674	160.930747593689
49	15.849	80691.6287169877	5185.10845470868	80858.050277553	3.6766755705037	162.840781588867
50	12.589	81464.4789741576	5121.61926242228	81625.316651148	3.59741403741595	164.955820583527
51	10	82239.4766981413	5046.47822270841	82394.1652669435	3.5114499393123	167.150860577985
52	7.9433	82940.0287623677	4955.61563678123	83087.9443568192	3.41932242351878	169.480904572102
53	6.3096	83687.8277118047	4880.01162799605	83829.9887904686	3.33725716625228	171.935949565903
54	5.0119	84404.879365348	4789.36226141603	84540.6508819871	3.24763573294162	174.330994559857
55	3.9811	85049.4514663197	4707.05099060932	85179.6074406901	3.16779583375256	176.771039553696
56	3.1623	85692.6008048602	4626.83825346261	85817.4193560074	3.09059520489038	179.261086547409
57	2.5119	86315.8635003089	4575.78837355453	86437.0645674846	3.03453120100953	181.806130540984
58	1.9953	86846.5726538826	4538.91935664635	86965.1020274929	2.99176487314657	184.541181534078
59	1.5849	87425.6995943212	4534.90239829859	87543.2366851865	2.96935691105156	187.381236526908
60	1.2589	88026.9148945918	4617.58321506109	88147.9428041728	3.00278341893446	190.341290519434
61	1	88579.1720247471	4729.05424680915	88705.3192917934	3.05599896098812	195.386384506697
62	0.79433	89105.4500944353	4908.1462280782	89240.5240679821	3.1528056941313	198.461442498933
63	0.63096	89591.5714166486	5151.08257049579	89739.5304230667	3.29060782192968	201.91650349021
64	0.50119	90162.2187300414	5533.94598694022	90331.889410718	3.51227478370196	205.691572480679
65	0.39811	90728.4233111059	6040.08032533679	90929.2547360625	3.80874253132029	209.961654469898
66	0.31623	91323.1217334614	6609.66866139391	91562.0023970535	4.13966267860664	214.60673845817
67	0.25119	92051.6876182852	7392.25656598608	92348.0300304869	4.59131324059539	220.001839444549
68	0.19953	92751.7543225899	8233.82053238248	93116.5062192389	5.07300092911978	226.241953428794
69	0.15849	93555.6038553874	9289.96857107306	94015.7142652105	5.67081804708872	233.552090410338
70	0.12589	94488.2981268801	10361.3803334727	95054.7036465269	6.25792641773026	242.057247388864
71	0.1	95210.4198167469	11960.106305372	95958.6795684319	7.15985628142829	252.242437363149
