Index	Frequency (Hz)	Z' (Ω)	-Z'' (Ω)	Z (Ω)	-Phase (°)	Time (s)
1	1000000	3927.04154173647	7230.97006956113	8228.5225537403	61.4942165077464	34.0194349141092
2	794330	5659.87864315276	7389.358793779	9307.89179344151	52.5496942179076	35.4294599105492
3	630960	7501.35964182019	7871.63841325345	10873.5039331825	46.3797770278322	36.8394889069892
4	501190	9400.15589263166	8341.29052909854	12567.42051881	41.5844591698931	38.3545149031642
5	398110	11779.1608444044	9474.07879684304	15116.4413552641	38.8100147542498	39.8545448993769
6	316230	13684.5088160565	9611.17183087471	16722.4521377496	35.0818855276182	41.3545698955897
7	251190	15349.5405567497	9255.32421270062	17923.9901134068	31.0887486174552	44.5146318876114
8	199530	17145.304547158	9069.41976187579	19396.2842532249	27.8776748772477	45.9946568838747
9	158490	18833.6393110474	8719.79686016743	20754.296590856	24.8436903187249	47.4846858801127
10	125890	20350.6937379527	8176.33086371741	21931.7833750228	21.8888606729649	48.8397108766916
11	100000	21700.1208903469	7557.30246615427	22978.4261258383	19.2012264848106	50.3447368728918
12	79433	22868.2810039899	6870.81037638183	23878.1555256189	16.7229767565406	51.7497618693444
13	63096	23871.902061724	6182.81924560958	24659.5815428491	14.5205276852092	53.0947878659485
14	50119	24719.602658719	5495.31708120956	25323.0579793986	12.533384266511	54.3698128627294
15	39811	25432.8693685453	4826.72246373007	25886.8324454608	10.7459583987787	55.7398378592704
16	31623	25972.8662136766	4173.65821804616	26306.067784346	9.12898852372162	57.2298628555085
17	25119	26394.7277215522	3665.91147950456	26648.0873323103	7.90711387809705	58.8098978515193
18	19953	26778.7496092492	3206.24197205284	26970.0096073067	6.82756966847888	60.2449198478962
19	15849	27112.9184203961	2804.7214345215	27257.6009141729	5.90600890983989	61.7249468441595
20	12589	27386.208743817	2455.67209537276	27496.0861723975	5.12390611895351	63.0449708408268
21	10000	27591.3277256594	2136.3884852991	27673.9140965795	4.42756137984898	64.3699978374814
22	7943.3	27807.6619484709	1892.85267362177	27872.0102304171	3.89408612157502	65.6400208342749
23	6309.6	27995.1720059151	1685.12168728754	28045.8426641408	3.44466557744867	67.1650478304246
24	5011.9	28163.7164750765	1507.29442185688	28204.0220919403	3.06349112655416	68.6650788266373
25	3981.1	28312.4123990598	1357.9445533782	28344.9591508699	2.74596567038713	70.1301048229385
26	3162.3	28452.5982770159	1228.74114101748	28479.1178498365	2.47281332732064	71.4201298196815
27	2511.9	28575.4672006833	1120.22911238538	28597.4166490885	2.24498692535806	72.7101528164245
28	1995.3	28711.4470178041	1028.97746402722	28729.8796460697	2.05252086979962	73.9601758132685
29	1584.9	28821.763983205	952.818047660285	28837.5092775975	1.89345030651414	75.350198809759
30	1258.9	28947.3582087595	883.092863490125	28960.8252691766	1.74737210550882	76.7202268063
31	1000	29037.9272267412	822.080446418336	29049.5616814764	1.62164337153404	78.0152518030304
32	794.33	29153.4069318146	770.618720394589	29163.5901244034	1.51415994685329	79.3902767995588
33	630.96	29237.0704886816	721.711420968119	29245.9767854536	1.41404805227319	80.695299796264
34	501.19	29335.9113185779	680.917228195809	29343.8126555348	1.32965630319023	82.3403337921106
35	398.11	29420.3432299933	642.270767425925	29427.3530496595	1.25061627053625	83.9103577881467
36	316.23	29494.3007117748	607.098761134963	29500.5481878282	1.17918664496052	85.2753827847004
37	251.19	29584.7445249397	576.661735960869	29590.364096504	1.11665998136623	86.5704087814307
38	199.53	29652.6670590903	543.880814946264	29657.6544935389	1.05078512490735	87.8404347782242
39	158.49	29724.0135773358	517.689291574722	29728.5214120759	0.997793008460406	89.2454567746769
40	125.89	29780.041534048	489.980212139119	29784.0721590906	0.942620086042473	90.7154837709654
41	100	29858.0145179195	466.345288250698	29861.6561643886	0.894816512389932	92.04051076762
42	79.433	29892.9538387911	444.807002494324	29896.2630186043	0.852497995761382	93.4105357641611
43	63.096	29960.2567763889	427.48852533784	29963.3064354795	0.817470506889246	94.8705607604749
44	50.119	30020.5274895158	410.359835839062	30023.3320260035	0.783144881418206	96.3305877567886
45	39.811	30067.2922660722	397.657256533912	30069.9217742095	0.757725504428089	105.400755733889
46	31.623	30119.427386544	386.002087801178	30121.900731944	0.734246356584915	106.985787729887
47	25.119	30157.3278425175	380.736806288705	30159.7311512676	0.723321817907262	108.670817725633
48	19.953	30207.3704921549	390.593288011233	30209.8956497197	0.740815881361917	110.500851721012
49	15.849	30246.9957536081	399.140832526257	30249.6291799251	0.756034021316787	112.405885716202
50	12.589	30289.7401405504	409.907704895236	30292.5136314008	0.77533012152392	114.325922711355
51	10	30336.9328737346	429.245588157281	30339.9694785678	0.810639612857682	116.62096370556
52	7.9433	30373.0155020151	459.154671513609	30376.4858681518	0.866085261505313	119.011009699526
53	6.3096	30422.8277976021	495.386816967857	30426.8608190358	0.932887166262681	121.371051693568
54	5.0119	30472.5729215214	540.59939671774	30477.3678024394	1.01635050912625	123.80609868742
55	3.9811	30530.5793210322	595.893732327464	30536.3940735979	1.11815308340116	126.201140681373
56	3.1623	30597.1203673292	667.355103216395	30604.3973573508	1.249482591553	128.591189675338
57	2.5119	30644.654506929	754.117885667107	30653.9319441166	1.40967663353173	131.126234668938
58	1.9953	30715.1499287872	858.259834181816	30727.1385763603	1.60057411489986	133.681279662487
59	1.5849	30795.3700578808	982.38917950936	30811.0354500111	1.82714713473669	136.486331655405
60	1.2589	30885.5450617902	1124.64064440884	30906.0141451939	2.08539967201845	139.366385648134
61	1	30983.569390873	1312.00437025299	31011.3354705438	2.42475066801187	142.551444640092
62	0.79433	31105.697715271	1513.6952703088	31142.5063815546	2.78598436742544	145.766505631975
63	0.63096	31247.2278952335	1744.56702226555	31295.8905486301	3.19556868413197	149.231569623227
64	0.50119	31369.4448169935	2044.80245828407	31436.0189149295	3.72952204903558	153.006639613695
65	0.39811	31534.3130810953	2379.79349671573	31623.9832814203	4.31574810359782	157.236715603015
66	0.31623	31754.0030286156	2829.38711983892	31879.807712959	5.09179736121958	161.8768035913
67	0.25119	31947.9313100664	3258.91569575235	32113.7174195817	5.82442989959939	167.32690557754
68	0.19953	32184.2104658957	3816.68161637883	32409.7278895376	6.76304287431813	173.522016561899
69	0.15849	32428.484307206	4513.82015741651	32741.1234821929	7.92426023305219	180.862152543367
70	0.12589	32793.708072928	5401.24548400354	33235.5343262432	9.3528582404025	189.432313521729
71	0.1	33039.6204199832	6271.19591191108	33629.5170298674	10.7473686990077	199.552499496178
