Index	Frequency (Hz)	Z' (Ω)	-Z'' (Ω)	Z (Ω)	-Phase (°)	Time (s)
1	1000000	2954.79403941389	8354.37631067683	8861.51292702065	70.5222203592307	23.5772249404732
2	794330	4942.59724095014	9176.4564185478	10422.8892293718	61.6923307093207	24.9522509370016
3	630960	7106.0731665713	10552.0672274581	12721.7293879983	56.0425131972189	26.367274933429
4	501190	9304.94942475277	11912.4870227031	15115.8668578178	52.0062888195567	27.8573029296671
5	398110	12177.7512424199	14950.2130572991	19282.284506274	50.8353347204633	29.2173309262333
6	316230	14969.4373824264	16312.4131421533	22139.9836961702	47.4582823613435	30.6073549227239
7	251190	17778.9338855532	16996.3745019258	24596.0817269049	43.7108731524831	33.7374159148212
8	199530	21023.3215038208	17926.1675014673	27628.382658847	40.4535667272577	35.0324359115516
9	158490	24468.2643022255	18443.8585179744	30641.0162200052	37.0085105106629	36.4174619080547
10	125890	28002.1382064325	18713.7218378062	33679.7139114175	33.7546554795453	37.7124869047851
11	100000	31423.7513208586	18531.1754238683	36480.9074676788	30.5286500351785	39.0425119014271
12	79433	34728.371407493	18039.7231174705	39134.2738628402	27.4497124359755	40.3375338981575
13	63096	37856.6008055323	17284.2452470756	41615.7104746571	24.5400880904285	41.7125608946859
14	50119	40709.429502247	16300.7589237718	43851.7091102428	21.8220170642783	43.0275828913658
15	39811	43332.9769630232	15100.3315129636	45888.6358947322	19.2120181584061	44.4376128878058
16	31623	45579.8736731244	13728.6291142849	47602.5224270266	16.7622680715759	45.7126348845867
17	25119	47314.8537386987	12541.7188714081	48948.8518411197	14.8459412520312	47.1026608810772
18	19953	49007.3469766904	11476.7281177388	50333.2429511772	13.1802272803299	48.4676868776309
19	15849	50488.0773264803	10410.8135949302	51550.2763506951	11.6512799484521	49.8427118741592
20	12589	51746.6042935244	9442.3647188289	52601.0390334068	10.3411670762279	51.1227358709275
21	10000	52788.091248467	8535.48395964885	53473.7044170488	9.18485258062175	52.4377598676074
22	7943.3	53792.8469091195	7810.91590264999	54356.9755029309	8.2618130191987	53.8227858641105
23	6309.6	54722.0532048841	7187.06119309058	55192.0008293901	7.48226236460148	55.1128078608535
24	5011.9	55547.2570829357	6659.12180316442	55944.9879133702	6.83611401538919	56.382832857647
25	3981.1	56280.2878150772	6212.42767406692	56622.1251292588	6.29902041779339	57.8228578540113
26	3162.3	56977.3580566782	5845.08038933756	57276.3851502234	5.85725628295038	59.0878808508174
27	2511.9	57673.1794662957	5552.90831773355	57939.8862661699	5.49961882822304	60.477909847308
28	1995.3	58303.1926252814	5316.19950874907	58545.0616834374	5.20993475116617	61.7929338439878
29	1584.9	58969.0730415158	5135.40470187893	59192.2626432518	4.97712667989766	62.9729528410086
30	1258.9	59651.6454498616	5009.44894209649	59861.6186181051	4.80034366689776	64.2729768377263
31	1000	60253.6970726759	4909.05322024009	60453.3441130013	4.65777491188169	65.5630028344693
32	794.33	60917.2531927641	4842.33426293512	61109.4095673107	4.54490544331506	67.0280278307705
33	630.96	61578.6661059999	4803.51919525504	61765.7341578112	4.46039489555923	68.298050827564
34	501.19	62243.201033988	4787.64690992877	62427.0585394794	4.3984384832734	69.5980758242818
35	398.11	62909.7184849656	4775.69480601263	63090.7278507532	4.34119479036572	70.7830998212899
36	316.23	63582.4257816975	4782.57258935907	63762.0409715495	4.30160034181218	72.0731218180329
37	251.19	64245.8793389952	4787.97245879622	64424.0459169317	4.26213194559611	73.5331508143466
38	199.53	64964.3030276294	4802.75539834174	65141.5929132989	4.22813621838381	74.8131718111149
39	158.49	65643.3124523341	4814.06829169729	65819.5998410192	4.19437845435555	76.1131988078326
40	125.89	66344.4043109078	4819.83818040599	66519.2515250623	4.15516703701601	77.5332248042474
41	100	67016.6978294723	4819.84323926858	67189.795927789	4.11363163761265	78.8032478010409
42	79.433	67728.8819035818	4810.2323238892	67899.4829061247	4.06243252383737	80.2332727974305
43	63.096	68479.5117573432	4790.2509940489	68646.8501470395	4.00141298749552	81.6682997938074
44	50.119	69179.197837877	4770.50493122964	69343.4865779838	3.94479532007406	82.993323790462
45	39.811	69868.472658021	4750.60084702487	70029.791374617	3.88975275787099	92.1934967672338
46	31.623	70606.9906785022	4707.2699186746	70763.7302773204	3.81418568143443	94.0135277626387
47	25.119	71284.9056628654	4663.24483313446	71437.2705787209	3.7427852768254	95.7235597583212
48	19.953	71984.0485988676	4645.21303528644	72133.7733438874	3.6922427372627	97.6235957535241
49	15.849	72647.4750912626	4592.74297868127	72792.5059687043	3.61740109214244	99.6086337485124
50	12.589	73307.5847827032	4542.5809578775	73448.192819375	3.54585892849399	101.693672743248
51	10	73954.7084165224	4486.85397003049	74090.6927725827	3.47189613070889	104.808729735383
52	7.9433	74596.4954946946	4416.77163273088	74727.1370503761	3.38846045417124	107.113771729564
53	6.3096	75235.0743240997	4382.00867173069	75362.5796304235	3.33338235692466	109.508816723517
54	5.0119	75855.5015171517	4323.93224321877	75978.6384483333	3.26245636398186	112.003863717217
55	3.9811	76441.496459974	4282.24310831075	76561.3478661321	3.20635114717261	114.523909710855
56	3.1623	77013.8275797016	4265.21797383799	77131.8463595962	3.16994493473042	117.058954704455
57	2.5119	77507.9847319117	4259.86785309291	77624.9584304434	3.14583255720674	119.834005697448
58	1.9953	78045.1617335244	4309.09323418632	78164.0297996009	3.16025270049544	122.409052690947
59	1.5849	78521.0908307658	4385.51066196121	78643.4638671235	3.19672673136113	125.104104684143
60	1.2589	79003.1422684572	4537.06509349948	79133.3144001485	3.28682447463471	127.969159676909
61	1	79511.5304786796	4790.51724082366	79655.7125038539	3.44786503913921	131.174217668817
62	0.79433	79973.3184735618	5085.24634922187	80134.832614201	3.63835616055969	134.404275660662
63	0.63096	80448.4550632005	5519.79426827588	80637.5970054904	3.92507256053284	137.884341651876
64	0.50119	80928.8051003363	6064.78752010506	81155.7338863511	4.28572273309251	141.639411642395
65	0.39811	81462.9128319118	6807.72049128097	81746.8728780929	4.77701352516607	145.779485631942
66	0.31623	82022.4859916273	7815.94366083424	82394.0360921592	5.4432937254563	150.559576619874
67	0.25119	82843.3199871804	8833.34045540628	83312.9255884073	6.08628492922503	155.904675606379
68	0.19953	83654.55963663	10130.7846527407	84265.7590346084	6.90504278189054	162.139789590636
69	0.15849	84461.4080285484	11691.0937689512	85266.7058099429	7.88076793169709	169.304923572546
70	0.12589	85555.4112980121	13817.6790330995	86664.0447719455	9.17436903719022	177.890082550871
71	0.1	87007.2493007427	15703.8375888476	88413.0756500332	10.2311009395788	188.01026852532
