Index	Frequency (Hz)	Z' (Ω)	-Z'' (Ω)	Z (Ω)	-Phase (°)	Time (s)
1	1000000	3467.74253248186	7369.15250602363	8144.3015003509	64.7994743326052	23.5402299405666
2	794330	5096.14390751382	7756.29623181007	9280.66883159189	56.6937585557604	25.0102589368552
3	630960	6901.86377022474	8535.53885263481	10976.8459498883	51.0408863538627	26.5952849328534
4	501190	8699.5563024454	9388.91636621698	12799.7668100335	47.1825124471814	28.200316928801
5	398110	11027.1828831124	11232.4133145596	15740.5803961195	45.5282442804462	29.8053469247487
6	316230	13086.3547179932	11989.2792656911	17748.1124944562	42.4948695822721	31.2653719210625
7	251190	15071.3827754953	12236.3099758056	19413.2393121163	39.0728115976671	34.7154369123519
8	199530	17316.4105135777	12770.6267868143	21516.2027691422	36.4082902934259	36.20546490859
9	158490	19597.68100584	13096.0645706697	23570.6598983951	33.7526532969244	37.735493904727
10	125890	21927.6480588254	13286.8663507245	25639.0827997751	31.2134007633134	38.9905139015584
11	100000	24212.8359994601	13298.0080762411	27624.2365674153	28.7761697000602	40.5555448976071
12	79433	26491.4317612562	13193.4876006875	29595.0007911943	26.4746122974549	41.9555688940724
13	63096	28712.0142212449	12918.9932767941	31484.6017590634	24.225400215729	43.5205988901211
14	50119	30888.0799245418	12503.8850394883	33322.9743946369	22.0387243838018	44.9406278865358
15	39811	33000.5462568918	11937.9443123385	35093.454769483	19.8875855681591	46.2206498833041
16	31623	34889.890855307	11170.5902176101	36634.4997195949	17.7533486216272	47.5456728799587
17	25119	36510.1746501378	10412.9734337105	37966.0752345396	15.9185438770224	48.985699876323
18	19953	38088.927752219	9658.362052687	39294.4064066954	14.2288107311917	50.2707258730786
19	15849	39479.6653558925	8843.07452954748	40457.9280703843	12.6253248575387	51.5507478698469
20	12589	40705.6599726324	8026.28007587172	41489.4194423579	11.1544049017204	53.7407898643175
21	10000	41733.2658464809	7211.31859135619	42351.7248059519	9.80364191521184	55.0308118610606
22	7943.3	42660.9787189737	6486.55144065822	43151.2972557376	8.64553652936917	56.3308358577783
23	6309.6	43464.4808626795	5821.85292891648	43852.6517805727	7.62907830459969	57.6808608543698
24	5011.9	44155.7395071729	5204.46597603518	44461.396711316	6.72221678942088	58.9708888511128
25	3981.1	44734.240244695	4653.34130025492	44975.6137871041	5.93865825233667	60.3809138475528
26	3162.3	45264.5245389326	4172.74208470011	45456.4512279726	5.26696554638186	61.6809348442706
27	2511.9	45729.824222803	3737.66067793391	45882.3161009973	4.67260077969098	62.975958841001
28	1995.3	46125.0896822929	3377.50993687886	46248.5834547749	4.18800920097395	64.2759828377187
29	1584.9	46520.8995192021	3048.552119795	46620.6795542794	3.74927801554018	65.5310078345501
30	1258.9	46870.8290269874	2770.82003427573	46952.6576174281	3.38316492427332	67.1210368305357
31	1000	47159.0853626155	2530.18802935577	47226.9116468815	3.07109931182755	68.4160598272661
32	794.33	47436.8662565717	2324.78845311973	47493.7987698987	2.8057097916403	69.8460878236556
33	630.96	47713.0721873341	2149.68379970561	47761.4739930885	2.57968236636602	71.2411138201335
34	501.19	47944.4681623657	2004.11912597271	47986.3368141723	2.39361832943169	72.5561388168134
35	398.11	48174.0614589678	1884.07481064109	48210.8902152252	2.23968134062311	73.7961588136826
36	316.23	48398.542924075	1782.91731006052	48431.3715612933	2.10972188621332	75.2061858101226
37	251.19	48626.3478079464	1705.28632468645	48656.240119727	2.00849310754976	76.5512118067268
38	199.53	48779.0889337082	1637.7278650337	48806.5740424641	1.92294818147269	77.791233803596
39	158.49	48969.7213514392	1592.01982917823	48995.5930301297	1.86204656636088	79.1112578002633
40	125.89	49168.7869227022	1560.728580102	49193.5512150815	1.81808726512787	80.7112887962236
41	100	49368.1632669534	1546.68183095753	49392.385739492	1.79446343987351	82.086313792752
42	79.433	49562.0766029361	1547.28419083366	49586.2231427491	1.78814277790518	84.4863587866924
43	63.096	49742.1783460373	1563.97347082945	49766.7591834795	1.80087746916715	85.8713847831956
44	50.119	49919.4478133556	1584.78184640366	49944.5973403633	1.81834592947301	87.3514107794589
45	39.811	50125.1136984926	1640.31300474306	50151.9456256718	1.87429969801773	96.6365837560161
46	31.623	50319.6584640649	1698.45996986248	50348.3147107166	1.93319389600395	98.3066137517997
47	25.119	50523.6555690584	1781.82032232457	50555.0655792463	2.0198160462615	99.9966437475327
48	19.953	50746.9330125625	1903.98958406442	50782.6386328805	2.14868988645115	101.931683742647
49	15.849	50965.2783403676	2042.60977013573	51006.1942413291	2.29509816287082	103.856717737787
50	12.589	51210.1896536792	2202.26933820046	51257.5215417578	2.46245990802103	105.956756732485
51	10	51462.2316328852	2401.67865040469	51518.2428366549	2.67198439762317	108.836807725213
52	7.9433	51729.8119193187	2628.867521019	51796.5673153265	2.9092228050552	111.11185071947
53	6.3096	52012.5803320881	2920.2317054401	52094.4936247141	3.21348172839287	113.481896713486
54	5.0119	52334.0471508916	3242.54183867141	52434.4025308507	3.54543142396036	115.926939707313
55	3.9811	52718.7302180639	3613.24813066132	52842.4079490965	3.92081929725916	118.311982701291
56	3.1623	53128.8291109871	4046.57012317246	53282.710258265	4.35553753149467	120.837031694916
57	2.5119	53528.3250905862	4560.27574918441	53722.227261275	4.86948098187003	123.442080688339
58	1.9953	54014.205472418	5134.72025991157	54257.7159947241	5.43035602291331	126.082128681673
59	1.5849	54543.8826724591	5816.3641993396	54853.1241542936	6.08681444955106	128.827178674743
60	1.2589	55086.6401610217	6599.15108736315	55480.507561699	6.83124245656419	131.642230667635
61	1	55685.1681216822	7603.03184978343	56201.8152914017	7.77486296938012	134.857289659518
62	0.79433	56321.3343315714	8686.77773851956	56987.3039226027	8.76798148456078	138.022350651527
63	0.63096	57092.1524032684	9988.11610582618	57959.2643964836	9.92331395599659	141.487412642779
64	0.50119	57701.0815845429	11707.2851226918	58876.7810004087	11.4693579909522	145.287482633184
65	0.39811	58548.2154653343	13692.7592349523	60128.0732240904	13.1632616472007	149.537563622454
66	0.31623	59565.3117441952	16162.2121709673	61719.0688964321	15.1808960160347	154.717658609375
67	0.25119	61073.2126028578	19346.6575414251	64064.2681661084	17.5770624646657	160.06275959588
68	0.19953	62556.6656195223	23105.0074725812	66687.163560469	20.2714697104363	166.317873580088
69	0.15849	64316.173672051	27198.31107724	69830.6402753672	22.9227471627139	173.563008561796
70	0.12589	65832.5689428844	32147.1088277587	73262.2941191674	26.0270056582994	182.073166540309
71	0.1	68357.3637337908	39230.8376976985	78814.8958198698	29.8518587648959	192.588361513761
