Index	Frequency (Hz)	Z' (Ω)	-Z'' (Ω)	Z (Ω)	-Phase (°)	Time (s)
1	1000000	3462.63220674764	6489.43001611605	7355.44177689376	61.9164963239588	268.008555323343
2	794330	4841.77463840785	6778.11205040457	8329.80099503999	54.4608331816368	269.518581319531
3	630960	6409.81369347182	7320.20612066019	9729.90900440337	48.7935415414358	271.023611315731
4	501190	7968.29972743261	8033.81469622868	11315.2984547268	45.2345758900608	272.733641311414
5	398110	9998.8968733589	9296.10404668325	13652.6733327516	42.9140052883814	274.353673307324
6	316230	11790.8214399323	9748.23673578734	15298.744709463	39.5827463904847	275.888701303448
7	251190	13461.102099963	9733.54132388871	16611.5350419363	35.8701841771888	278.223744297553
8	199530	15345.5510604996	9924.01100842404	18274.8989558279	32.8908624782611	279.613769294043
9	158490	17168.5279107184	9927.46822510226	19832.119805546	30.0380651878784	281.138799290193
10	125890	18956.4683001764	9719.46898867945	21302.9520920809	27.145381533732	282.508822286734
11	100000	20656.008106971	9379.52826876993	22685.8154241788	24.4219594924978	283.883849283262
12	79433	22228.2161923916	8927.16562884906	23953.8698598077	21.8810914926828	285.248874279816
13	63096	23657.143267417	8394.6643294602	25102.4065933808	19.5370725428797	287.733918273542
14	50119	24978.8381172183	7797.01606253879	26167.4571398461	17.3354853447892	289.233946269754
15	39811	26139.5228334675	7150.191558412	27099.8135285717	15.2984242418004	290.838977265702
16	31623	27142.4103610739	6464.59047613195	27901.6374113246	13.3967164272678	292.384004261801
17	25119	27936.9292829661	5870.17329473719	28546.9955034097	11.8664931265715	293.899034257976
18	19953	28680.3019079453	5340.52469764324	29173.2912366265	10.5481710077845	295.399061254189
19	15849	29334.3631307913	4830.7135651444	29729.4576781616	9.35140357375623	296.879090250452
20	12589	29876.1441726257	4382.32623374131	30195.8403400609	8.34481479898202	298.439117246514
21	10000	30355.30678465	3967.51616795875	30613.491054325	7.44649305114713	299.934144242739
22	7943.3	30830.0996862605	3648.11475828321	31045.1894494842	6.74840915130543	301.354173239154
23	6309.6	31247.5450949547	3374.8153628071	31429.2610984456	6.1641983329921	302.754197235619
24	5011.9	31625.7825904358	3145.07331308634	31781.781111231	5.67919206299483	304.179223232021
25	3981.1	31981.9774604548	2962.193465019	32118.8647434065	5.29167852526771	305.514248228651
26	3162.3	32337.4678945774	2812.09731154523	32459.5089476478	4.96999321780227	307.024277224838
27	2511.9	32685.3804867539	2698.4580238658	32796.581731492	4.71955391246801	308.5843052209
28	1995.3	33003.1577803475	2610.82728220929	33106.2659110333	4.52315809755938	309.924331217516
29	1584.9	33330.8585436187	2546.41034231879	33427.9873292753	4.36879542784531	311.329357213969
30	1258.9	33661.8189449221	2503.31208342479	33754.7719006919	4.25305849894514	312.60438121075
31	1000	33976.9033858615	2476.83329570144	34067.0613183301	4.16934748527823	313.954406207341
32	794.33	34319.7482859497	2463.67001102031	34408.0628971488	4.10597909889301	315.72943720286
33	630.96	34657.4146105429	2465.44706656225	34744.9970028074	4.0690325389354	317.149465199275
34	501.19	34990.7076127229	2468.14472507551	35077.6475497286	4.03479804248781	318.554490195727
35	398.11	35352.7507287378	2482.84702658968	35439.8294782257	4.01732414808212	319.874516192394
36	316.23	35703.1488825099	2502.14241136832	35790.7188636026	4.00883920629133	321.229538188973
37	251.19	36068.1572209463	2525.40250609076	36156.4603236084	4.00517121316167	322.809568184984
38	199.53	36452.3164712902	2547.98028179329	36541.2585940811	3.99841395103569	324.234593181386
39	158.49	36805.9806456943	2566.47492086169	36895.3520759815	3.98876875904491	325.639623177839
40	125.89	37191.1576632089	2584.59443595551	37280.8575106318	3.97537088183203	327.034646174317
41	100	37537.809360179	2601.66650019947	37627.8593616406	3.96470963430321	328.729680170037
42	79.433	37943.9449427622	2614.04764673604	38033.8823014266	3.94101404593079	330.064704166667
43	63.096	38331.6003446908	2625.23077304103	38421.3927597221	3.91791961455325	331.549729162917
44	50.119	38738.9770406436	2630.55068923613	38828.1874298061	3.88467754592069	333.019756159206
45	39.811	39101.1564849787	2628.63944483941	39189.4141802829	3.84601589570561	342.324930135713
46	31.623	39520.3560741853	2627.6998367356	39607.617331296	3.80398478159383	344.094961131244
47	25.119	39923.8346835037	2614.71073452013	40009.3650044705	3.74709108528468	345.859997126787
48	19.953	40321.2218532567	2613.55598323256	40405.8362939939	3.70863115245979	347.740029122041
49	15.849	40686.2891771563	2592.72071765238	40768.8156282094	3.64622491881619	349.87506811665
50	12.589	41084.4932567593	2564.30353657705	41164.4414366623	3.57150384275991	352.150110110906
51	10	41460.2045724912	2537.42992401541	41537.7793558118	3.50222376856403	354.490156104998
52	7.9433	41809.7768911531	2494.63390300571	41884.1335352425	3.41457788919313	356.825200099103
53	6.3096	42182.9373406299	2463.2234636215	42254.7946689514	3.34192523999389	359.190244093132
54	5.0119	42546.2678978061	2427.49753119058	42615.4626432216	3.26549757446659	361.720288086744
55	3.9811	42872.05786418	2398.62659068543	42939.1051959766	3.20227343030052	364.18533508052
56	3.1623	43176.1355742273	2385.3683475669	43241.9780453858	3.16222696264441	366.660381074272
57	2.5119	43461.2073177268	2388.24346586385	43526.7762229949	3.14530582282933	369.390432067379
58	1.9953	43737.2589342645	2413.53285696366	43803.8007475897	3.1585229844292	372.17048306036
59	1.5849	43966.6158322633	2476.19959855058	44036.2904000064	3.22349266916204	375.500546051952
60	1.2589	44240.118561671	2580.84923388196	44315.33451435	3.33869725960686	378.870606043444
61	1	44465.1550280877	2746.32040156916	44549.8853805479	3.53429420036702	382.300671034784
62	0.79433	44717.5702707546	2957.05480371848	44815.2347314177	3.78331038430917	385.665731026288
63	0.63096	44942.0410851092	3225.46614306362	45057.6374073885	4.10504879647624	390.585822013866
64	0.50119	45176.4776839483	3650.3759319338	45323.7176362743	4.61961032764127	394.400895004233
65	0.39811	45388.3562460982	4128.76094801913	45575.7561614572	5.19761741038241	398.825975993061
66	0.31623	45610.7613019274	4843.19590382778	45867.1788221627	6.06126115249858	403.661064980854
67	0.25119	46028.6658217252	5620.73715581927	46370.580797558	6.9621382439203	409.146167967005
68	0.19953	46391.2502640198	6677.13198873902	46869.3097095953	8.19038166660244	415.551284950834
69	0.15849	46806.497450466	7996.78341790844	47484.7001529273	9.69524526072722	423.346429931153
70	0.12589	47150.2378190882	9388.50041850612	48075.8657384853	11.2613790245142	431.901590909553
71	0.1	47711.4182530438	11630.109946809	49108.4401003712	13.6992290772917	442.066777883889
