Index	Frequency (Hz)	Z' (Ω)	-Z'' (Ω)	Z (Ω)	-Phase (°)	Time (s)
1	1000000	1282.54371812979	571.601806162658	1404.15348652582	24.0214920194278	22.4192479433968
2	794330	1352.62922378786	519.819905914586	1449.07506763107	21.021933698982	24.429283938322
3	630960	1432.21458877045	465.287083585477	1505.89863484843	17.9975522200413	25.9893099343833
4	501190	1502.45650757088	414.044156972222	1558.46338457627	15.407042272402	27.594340930331
5	398110	1554.93211555742	344.548782384801	1592.64802999116	12.4939811281645	30.9244029219234
6	316230	1602.12812521717	303.355548147346	1630.59471304297	10.7217622453105	32.3544299183129
7	251190	1641.72357281255	264.9876648408	1662.97166303163	9.16893017209284	33.7044539149044
8	199530	1672.8695940805	232.183215541277	1688.90548118541	7.90179361299434	35.1594809112308
9	158490	1684.65037187207	200.87156626385	1696.58370308747	6.79963687853743	37.5295269052471
10	125890	1710.66095256671	178.177725151161	1719.91517127342	5.94632880106491	39.0645539013715
11	100000	1731.76770094466	157.907415512354	1738.9520182883	5.20998194799477	41.2195938959305
12	79433	1749.27584370114	140.719809842014	1754.92679113355	4.59923253792039	42.6796208922443
13	63096	1764.29563252042	125.050984503527	1768.72180617979	4.05427028957325	44.084647888697
14	50119	1777.02380231942	112.862782976292	1780.60427995412	3.63410279183964	45.5046738851117
15	39811	1789.52505361154	102.554880671375	1792.46127463131	3.27994388400451	47.289706880605
16	31623	1799.98456408255	93.7767617719716	1802.42572994947	2.98233629732028	48.659732877146
17	25119	1809.8416956946	87.1419313604385	1811.93837634615	2.75660125657606	50.029754873687
18	19953	1818.73597959469	81.7817430771803	1820.57376037693	2.57464220184174	51.5547838698367
19	15849	1827.32592805085	77.8919001957158	1828.98529120466	2.44082186585545	52.8998088664408
20	12589	1836.23762482772	75.3036357561524	1837.78106758968	2.34836937099026	54.284835862944
21	10000	1844.32471583316	73.9488248646419	1845.80662208475	2.29606382298273	55.8198628590684
22	7943.3	1853.28630430625	73.6938925281675	1854.75090390194	2.27710403013345	57.1998908555842
23	6309.6	1861.61624461505	74.6200341241785	1863.1111592461	2.29538471916182	58.5549148521631
24	5011.9	1869.54764612431	76.6699852473428	1871.11910036929	2.34837897886654	59.9449398486536
25	3981.1	1878.82547419074	79.8343365355212	1880.52085438001	2.4331267801135	61.3449648451189
26	3162.3	1887.17009222823	84.2030238612728	1889.04767177223	2.55476714206525	62.6849918417356
27	2511.9	1896.37041191108	89.9610647989542	1898.50302405647	2.71599261754422	64.1250188380999
28	1995.3	1907.19411340004	97.2863379361394	1909.67379877737	2.92013769830783	65.5350438345399
29	1584.9	1917.2521801322	106.348768762912	1920.19946433673	3.1749071682153	66.8300658312703
30	1258.9	1928.77343881096	117.248898150259	1932.33389515893	3.4786928484718	68.1700938278871
31	1000	1940.70902734227	130.19707655794	1945.07141451208	3.83807238310538	69.5601198243776
32	794.33	1954.4538155414	145.694010007026	1959.87664449482	4.26320683675148	71.0201458206914
33	630.96	1970.96051404769	164.245778916171	1977.79220946663	4.76361482512449	72.5301718168789
34	501.19	1987.47088752245	186.148908034111	1996.16931764607	5.35078145666496	73.9452008133063
35	398.11	2007.4313007245	211.925772381511	2018.58687207857	6.02642877632242	75.2552248099988
36	316.23	2028.90789201825	242.081680332657	2043.29899286585	6.80415040511203	76.6602498064515
37	251.19	2054.98584810891	277.620512164247	2073.65377647818	7.69385358925021	78.0552768029294
38	199.53	2083.26200478811	318.787099430189	2107.51175450029	8.70008643515874	79.2852977998239
39	158.49	2115.4397271479	366.297964214394	2146.91859132646	9.82361760969345	80.7153237962134
40	125.89	2154.95705172324	422.053553171059	2195.89824366159	11.0812524048903	82.1303527926408
41	100	2199.21181828961	485.948180227221	2252.26069884702	12.4601293729923	83.4853757892197
42	79.433	2248.6384641433	559.299368447731	2317.1514249118	13.9676302987844	85.0104037853694
43	63.096	2308.00153343758	644.670108869814	2396.34526469381	15.6060911855797	86.5904327813802
44	50.119	2378.70022393071	744.077015553476	2492.36140244608	17.3701124962926	96.535619756271
45	39.811	2456.32251133705	857.033736810444	2601.54321619542	19.2343540364457	105.600783733384
46	31.623	2546.22834597507	988.752174055409	2731.4665752204	21.2222023486548	109.420858723739
47	25.119	2650.77245734629	1140.0115439135	2885.51918047372	23.2709770820912	110.985885719788
48	19.953	2769.23776815282	1316.12619997896	3066.0831676318	25.420179579638	112.990921714725
49	15.849	2910.76536693618	1520.23210857597	3283.84845650656	27.5771274286031	115.025958709587
50	12.589	3074.992978505	1753.73775512964	3539.94038532038	29.6970858875232	117.030995704525
51	10	3268.79754649266	2024.15698354772	3844.76902999406	31.7672808514085	119.396039698554
52	7.9433	3497.2067080687	2334.92336091863	4205.03529834463	33.7292057703723	121.76608569257
53	6.3096	3767.52601845972	2687.33684216416	4627.74584468765	35.4998654393785	124.211131686397
54	5.0119	4081.11019174688	3082.81349343944	5114.60647875402	37.066888346936	126.611173680338
55	3.9811	4451.47028075842	3526.66936438843	5679.17110731763	38.3879623281888	129.116221674013
56	3.1623	4885.91871070258	4022.06427018723	6328.44393521111	39.4610436725592	131.721270667436
57	2.5119	5382.31172920635	4572.036613964	7062.06756904659	40.3464342209927	134.341316660821
58	1.9953	5945.39802342708	5177.17396683434	7883.58344535261	41.0489172055858	136.956365654218
59	1.5849	6586.61636407838	5835.90713815805	8800.0754117649	41.5417473326278	139.766416647124
60	1.2589	7310.46251367689	6572.6524128997	9830.69793578621	41.9579107874303	142.621471639915
61	1	8102.08083247914	7389.31989945114	10965.6628797556	42.3656731676258	147.806570626824
62	0.79433	9005.45924978318	8316.98272607475	12258.4867730618	42.7239901770807	150.99662461877
63	0.63096	9986.54712237253	9350.11704992999	13680.4902059377	43.1148972632273	154.52169060987
64	0.50119	11114.8868258446	10545.4871718372	15321.4884669446	43.4941771880048	158.341761600225
65	0.39811	12328.4488830259	11903.4245112744	17137.157493499	43.9951414211077	162.611840589445
66	0.31623	13767.5890107506	13439.1829649028	19239.4944302878	44.3084307602517	167.466930577187
67	0.25119	15297.5444028907	15177.6988849766	21549.4178158351	44.7746824559194	172.9670345633
68	0.19953	17095.2013720365	17054.6294860131	24147.5940179486	44.9319294800613	185.082260532712
69	0.15849	19156.3986507419	19315.0695428786	27203.6674129129	45.2363081350919	199.347524496696
70	0.12589	21414.5655219375	21810.8276508368	30566.2529484375	45.5252355134753	207.83767947526
71	0.1	24115.33300911	24844.3093352604	34623.5323513702	45.8530327995032	218.072868449419
