Index	Frequency (Hz)	Z' (Ω)	-Z'' (Ω)	Z (Ω)	-Phase (°)	Time (s)
1	1000000	1491.94541903297	670.707174633864	1635.7717589807	24.206399863036	110.217820721727
2	794330	1573.19186347434	603.225988985396	1684.87810630006	20.9788630848696	111.672848718053
3	630960	1666.12392166547	535.877366486464	1750.1809832867	17.8294087234142	113.122874714392
4	501190	1746.71474779699	469.912666258586	1808.82014696922	15.0575782484623	114.692904710428
5	398110	1809.59897776491	387.721760827854	1850.66923682954	12.0932601530152	117.942962702223
6	316230	1863.15523266136	337.041829229421	1893.39499725855	10.2538258485768	119.337988698701
7	251190	1872.79833198502	280.552064019443	1893.69560724828	8.51976396469315	122.603050690457
8	199530	1916.3582917966	247.788821308225	1932.31167323051	7.36757673709548	123.948074687061
9	158490	1949.94608062094	217.292845292049	1962.01577413232	6.35853977340512	125.338098683552
10	125890	1976.9196464968	190.612767290123	1986.08774120355	5.50738156088329	126.698124680118
11	100000	1998.93429116242	166.801529878619	2005.8816143419	4.77000857195936	128.14315067647
12	79433	2016.42739435237	146.766797261515	2021.76159066124	4.16296432792978	129.468177673124
13	63096	2031.09973986734	129.835388371015	2035.24528776328	3.6575810996302	130.933204669425
14	50119	2044.3669208702	115.558322211938	2047.63029694834	3.23521476269833	132.348229665853
15	39811	2056.66916630754	103.570262744689	2059.27532374016	2.88287995989059	133.673255662507
16	31623	2065.91000109794	93.7233865238113	2068.03486571623	2.59753571301258	135.033278659074
17	25119	2074.43561014371	86.6311782148855	2076.24373850259	2.39135809139735	136.343302655766
18	19953	2083.77376753553	80.3790480548428	2085.3234534804	2.20902007286333	137.653326652459
19	15849	2092.97901891656	76.6309567586714	2094.38140680218	2.09685333931761	139.018353649012
20	12589	2101.24466221105	73.5015337684945	2102.52981095079	2.00338939476458	140.343378645667
21	10000	2109.27177832361	71.8269857328344	2110.49438537797	1.95033828533493	141.72840464217
22	7943.3	2117.41313281943	71.1335542288313	2118.60764597257	1.92410265185357	143.143428638598
23	6309.6	2126.46419774942	71.5706190912034	2127.66828660559	1.92768213272249	144.508458635151
24	5011.9	2134.01444109775	72.7050464200683	2135.25259830978	1.95129029620433	145.878479631692
25	3981.1	2143.28326094956	75.1333659270256	2144.59976670289	2.00769668971523	147.233504628271
26	3162.3	2151.84974703758	78.170897994181	2153.26914785841	2.08048628361852	148.543528624964
27	2511.9	2160.85409091305	82.3625316998914	2162.42317524662	2.18281381677419	149.853554621656
28	1995.3	2170.60561343807	87.8103283716021	2172.38103997839	2.31659740086355	151.228578618185
29	1584.9	2181.24331433191	94.4846860569783	2183.28874687178	2.48032467778559	152.51360461494
30	1258.9	2193.23987398051	102.55971878828	2195.63650013748	2.67730019024216	153.838626611595
31	1000	2203.54793463133	112.218349178629	2206.40351207805	2.91533846267981	155.193653608174
32	794.33	2216.7539277003	124.13898875655	2220.22712002718	3.20523573997502	156.643678604513
33	630.96	2229.83603583641	138.102213624079	2234.1085399153	3.54401845844687	157.978704601142
34	501.19	2244.58077552525	154.914003271093	2249.92026664658	3.94811620488039	159.438729597456
35	398.11	2259.85220652847	174.896476736985	2266.6099737111	4.42546393934643	160.798755594022
36	316.23	2279.20155328851	198.522224141486	2287.83102391563	4.97799366201705	162.133779590652
37	251.19	2299.25884138195	226.749667581404	2310.41265392599	5.6322172211077	163.533806587117
38	199.53	2322.60835701338	259.460779532118	2337.0557280869	6.374138460335	164.743829584062
39	158.49	2347.56306101779	298.029664034573	2366.4052920199	7.23515464406602	166.143856580527
40	125.89	2378.75265807617	343.349282358563	2403.40444744545	8.21335015921677	167.583881576891
41	100	2413.0925340991	395.977831922707	2445.36582569951	9.31893202422156	168.873904573634
42	79.433	2452.9684419313	457.554049975813	2495.27751678248	10.5659981484488	170.313934569999
43	63.096	2499.58926180377	529.531837405021	2555.06368698517	11.9611265420055	171.85396256611
44	50.119	2555.77895209878	614.97877163935	2628.72686705146	13.5294706555273	173.298987562462
45	39.811	2618.78644854448	709.954901186066	2713.31502498297	15.1683404597296	182.46915853931
46	31.623	2693.64559313269	822.123801345218	2816.31214998293	16.9726399680158	184.109186535169
47	25.119	2780.42478134387	951.8956620455	2938.85476268089	18.8989575966392	185.744217531041
48	19.953	2882.05120355701	1102.30377013624	3085.65920697361	20.9304509620729	187.729254526029
49	15.849	3003.35794412581	1274.95010729577	3262.76825972013	23.0016212346918	189.724291520992
50	12.589	3146.92867739098	1472.7195143102	3474.48742527813	25.0789501924554	191.874333515564
51	10	3313.731622343	1698.14901579597	3723.51008388118	27.1332438279365	194.274375509504
52	7.9433	3510.50421800793	1953.91688286839	4017.63998509195	29.0999414445027	196.654421503495
53	6.3096	3745.18708638576	2243.61058989761	4365.80058994125	30.924350425071	198.999464497575
54	5.0119	4016.34885600478	2567.12931136693	4766.67714812007	32.5854895643973	201.454510491376
55	3.9811	4337.91923791608	2928.0364055705	5233.63549619465	34.0188139030906	203.994557484963
56	3.1623	4710.70177853906	3327.48453598423	5767.3966903227	35.2361243184865	206.529604478563
57	2.5119	5139.23968169187	3763.83987099192	6370.10793317859	36.2180367468851	209.149651471948
58	1.9953	5638.57787754102	4236.90935928622	7053.01080389802	36.9217323487726	211.88970146503
59	1.5849	6216.90135696126	4764.00420165506	7832.34310507231	37.4629034281225	214.744756457822
60	1.2589	6849.02256112891	5309.33449456644	8665.9184636163	37.7826975489925	217.634809450525
61	1	7579.38807245218	5916.22959480344	9615.03490223818	37.9744675595922	222.694903437749
62	0.79433	8396.42794731992	6567.45892843773	10659.808584175	38.0315564712438	225.934963429569
63	0.63096	9295.11400284885	7262.54080270553	11795.9163797019	38.0015380534726	229.435028420732
64	0.50119	10295.7759955249	8016.04181859476	13048.3688554351	37.903461031115	233.335098410886
65	0.39811	11406.8970726804	8834.92912940282	14428.2110307653	37.7586841782528	237.620179400067
66	0.31623	12651.8090695208	9693.98151474174	15938.6809472981	37.4598078392731	242.420268387948
67	0.25119	13957.2476808903	10641.9033859243	17551.491973649	37.3242278040724	248.020372373809
68	0.19953	15441.2915986184	11626.8745271213	19329.1928828646	36.9787573093328	254.23048835813
69	0.15849	17040.2646080351	12731.0928790489	21270.903690413	36.7640800857904	261.595624339535
70	0.12589	18906.3343554611	13864.5960515421	23445.1807933512	36.2537408920057	270.185782317846
71	0.1	20744.5583393226	15052.6395148432	25630.4244416158	35.96534080682	280.43097329198
